<Qucs Dataset 0.0.22>
<indep frequency 23>
1.000000000000e+06
1.165914401180e+06
1.359356390879e+06
1.584893192461e+06
1.847849797422e+06
2.154434690032e+06
2.511886431510e+06
2.928644564625e+06
3.414548873834e+06
3.981071705535e+06
4.641588833613e+06
5.411695265465e+06
6.309573444802e+06
7.356422544596e+06
8.576958985909e+06
1.000000000000e+07
1.165914401180e+07
1.359356390879e+07
1.584893192461e+07
1.847849797422e+07
2.154434690032e+07
2.511886431510e+07
2.928644564625e+07
</indep>
<dep ac.v(ns11) frequency>
-9.983779606768e-01-j4.886283730988e-04
-9.982954155010e-01-j4.617385334291e-04
-9.982198724593e-01-j4.215421599904e-04
-9.981543470438e-01-j3.706906802222e-04
-9.981006260102e-01-j3.124756985695e-04
-9.980592854463e-01-j2.503234595747e-04
-9.980298983037e-01-j1.874742075283e-04
-9.980112777903e-01-j1.268785939130e-04
-9.980016545489e-01-j7.126892324027e-05
-9.979987608823e-01-j2.338848384609e-05
-9.979998371844e-01+j1.342290424364e-05
-9.980015508721e-01+j3.315886519663e-05
-9.980003570793e-01+j1.605891452394e-05
-9.980635883116e-01-j2.076546356033e-04
-9.982317326956e-01+j3.495082539039e-04
-9.981003608249e-01+j2.598312445383e-04
-9.980743547742e-01+j2.301169697239e-04
-9.980615690782e-01+j2.136229656979e-04
-9.980534594207e-01+j2.037451858930e-04
-9.980521512000e-01+j2.112367525516e-04
-9.979416485114e-01-j6.633345262646e-04
-9.980121265533e-01+j8.714586510443e-05
-9.980126362754e-01+j9.289109434405e-05
</dep>
<dep ac.v(ns12) frequency>
3.779606768123e-04+j4.886283730534e-04
2.954155009689e-04+j4.617385333868e-04
2.198724593525e-04+j4.215421599524e-04
1.543470438213e-04+j3.706906801895e-04
1.006260101938e-04+j3.124756985428e-04
5.928544631405e-05+j2.503234595543e-04
2.989830371518e-05+j1.874742075140e-04
1.127779030453e-05+j1.268785939042e-04
1.654548930037e-06+j7.126892323618e-05
-1.239117725241e-06+j2.338848384528e-05
-1.628156154658e-07-j1.342290424287e-05
1.550872108401e-06-j3.315886519629e-05
3.570792695552e-07-j1.605891452487e-05
6.358831126473e-05+j2.076546356827e-04
2.317326958295e-04-j3.495082537437e-04
1.003608249681e-04-j2.598312444862e-04
7.435477428821e-05-j2.301169696915e-04
6.156907827482e-05-j2.136229656738e-04
5.345942074538e-05-j2.037451858735e-04
5.215120004531e-05-j2.112367525335e-04
-5.835148864679e-05+j6.633345262236e-04
1.212655327528e-05-j8.714586509877e-05
1.263627538052e-05-j9.289109433824e-05
</dep>
