<Qucs Dataset 0.0.22>
<indep frequency 76>
1.000000000000e+06
1.046183444392e+06
1.094499799320e+06
1.145047569938e+06
1.197929810711e+06
1.253254335509e+06
1.311133937422e+06
1.371686618711e+06
1.435035831389e+06
1.501310728908e+06
1.570646429472e+06
1.643184291506e+06
1.719072201859e+06
1.798464877299e+06
1.881524179950e+06
1.968419447287e+06
2.059327837370e+06
2.154434690032e+06
2.253933904735e+06
2.358028335887e+06
2.466930206412e+06
2.580861540418e+06
2.700054615853e+06
2.824752438059e+06
2.955209235203e+06
3.091690976583e+06
3.234475914877e+06
3.383855153428e+06
3.540133239737e+06
3.703628786354e+06
3.874675120456e+06
4.053620963418e+06
4.240831141768e+06
4.436687330979e+06
4.641588833613e+06
4.855953393400e+06
5.080218046913e+06
5.314840014581e+06
5.560297632846e+06
5.817091329374e+06
6.085744643307e+06
6.366805292624e+06
6.660846290809e+06
6.968467115083e+06
7.290294928589e+06
7.626985859023e+06
7.979226336321e+06
8.347734492114e+06
8.733261623828e+06
9.136593726392e+06
9.558553094685e+06
1.000000000000e+07
1.046183444392e+07
1.094499799320e+07
1.145047569938e+07
1.197929810711e+07
1.253254335509e+07
1.311133937422e+07
1.371686618711e+07
1.435035831389e+07
1.501310728908e+07
1.570646429472e+07
1.643184291506e+07
1.719072201859e+07
1.798464877299e+07
1.881524179950e+07
1.968419447287e+07
2.059327837370e+07
2.154434690032e+07
2.253933904735e+07
2.358028335887e+07
2.466930206412e+07
2.580861540418e+07
2.700054615853e+07
2.824752438059e+07
2.955209235203e+07
</indep>
<dep ac.v(ns11) frequency>
1.426424324830e+01+j1.193042478628e+01
1.340973967932e+01+j1.166297495057e+01
1.256692545831e+01+j1.135962024565e+01
1.173991229414e+01+j1.102256901159e+01
1.093263763527e+01+j1.065448664226e+01
1.014879684450e+01+j1.025844890143e+01
9.391781751197e+00+j9.837883919261e+00
8.664626980463e+00+j9.396504685365e+00
7.969965798578e+00+j8.938234413890e+00
7.309996776318e+00+j8.467127541137e+00
6.686461560004e+00+j7.987288826318e+00
6.100634343210e+00+j7.502793564346e+00
5.553322541628e+00+j7.017611276388e+00
5.044878336622e+00+j6.535535432223e+00
4.575219986786e+00+j6.060121129000e+00
4.143861663050e+00+j5.594632175829e+00
3.749950483914e+00+j5.141998930034e+00
3.392309060869e+00+j4.704787319265e+00
3.069481921379e+00+j4.285179249701e+00
2.779784151438e+00+j3.884964100755e+00
2.521350641193e+00+j3.505540550873e+00
2.292184461910e+00+j3.147927776305e+00
2.090203067037e+00+j2.812784639525e+00
1.913281219237e+00+j2.500435463974e+00
1.759289790511e+00+j2.210900845726e+00
1.626129818955e+00+j1.943931961859e+00
1.511761467636e+00+j1.699046882918e+00
1.414227747744e+00+j1.475567555362e+00
1.331673076082e+00+j1.272656271185e+00
1.262356917922e+00+j1.089350624689e+00
1.204662897906e+00+j9.245961823703e-01
1.157103846736e+00+j7.772763021784e-01
1.118323343501e+00+j6.462387086474e-01
1.087094299116e+00+j5.303186475545e-01
1.062315153069e+00+j4.283585661355e-01
1.043004221573e+00+j3.392244023201e-01
1.028292689504e+00+j2.618186639875e-01
1.017416678635e+00+j1.950905513083e-01
1.009708790542e+00+j1.380434095985e-01
1.004589413808e+00+j8.973984327439e-02
1.001558078029e+00+j4.930480776303e-02
1.000185036081e+00+j1.592700484207e-02
1.000103230538e+00-j1.114111918428e-02
1.001000745593e+00-j3.258449427899e-02
1.002613811122e+00-j4.902741758444e-02
1.004720394417e+00-j6.103619587668e-02
1.007134389276e+00-j6.912225199918e-02
1.009700395186e+00-j7.374553730494e-02
1.012289064031e+00-j7.531812010114e-02
1.014792983943e+00-j7.420784478534e-02
1.017123061846e+00-j7.074197932200e-02
1.019205364126e+00-j6.521078794970e-02
1.020978373763e+00-j5.787098235791e-02
1.022390622121e+00-j4.894901893691e-02
1.023398655769e+00-j3.864422087188e-02
1.023965301174e+00-j2.713171302470e-02
1.024058192984e+00-j1.456516501688e-02
1.023648535177e+00-j1.079343332589e-03
1.022710067750e+00+j1.320752256745e-02
1.021218215158e+00+j2.819155221466e-02
1.019149396093e+00+j4.378119443903e-02
1.016480477466e+00+j5.989536526318e-02
1.013188358409e+00+j7.646173234303e-02
1.009249672924e+00+j9.341513524328e-02
1.004640602212e+00+j1.106961316325e-01
9.993367899408e-01+j1.282496607706e-01
9.933133553260e-01+j1.460238171426e-01
9.865450005049e-01+j1.639687290965e-01
9.790062094246e-01+j1.820355392371e-01
9.706715361845e-01+j2.001754858046e-01
9.615159804975e-01+j2.183390861998e-01
9.515154476696e-01+j2.364754266159e-01
9.406472890323e-01+j2.545315632712e-01
9.288909172980e-01+j2.724520432880e-01
9.162284887489e-01+j2.901785542833e-01
9.026456413887e-01+j3.076497129446e-01
</dep>
<dep ac.v(ns21) frequency>
-1.326424691502e+01-j1.193042126739e+01
-1.240974342531e+01-j1.166297149827e+01
-1.156692927417e+01-j1.135961686938e+01
-1.073991616938e+01-j1.102256572336e+01
-9.932641558844e+00-j1.065448345034e+01
-9.148800804207e+00-j1.025844581666e+01
-8.391785734634e+00-j9.837880949209e+00
-7.664630975592e+00-j9.396501834423e+00
-6.969969791992e+00-j8.938231689832e+00
-6.310000755181e+00-j8.467124948533e+00
-5.686465511027e+00-j7.987286370043e+00
-5.100638254587e+00-j7.502791245510e+00
-4.553326401483e+00-j7.017609096364e+00
-4.044882132873e+00-j6.535533392656e+00
-3.575223709686e+00-j6.060119227814e+00
-3.143865302824e+00-j5.594630411503e+00
-2.749954031636e+00-j5.141997300214e+00
-2.392312508833e+00-j4.704785820475e+00
-2.069485262996e+00-j4.285177877683e+00
-1.779787381913e+00-j3.884962849944e+00
-1.521353755828e+00-j3.505539416234e+00
-1.292187457415e+00-j3.147926752039e+00
-1.090205941407e+00-j2.812783719328e+00
-9.132839714252e-01-j2.500434641397e+00
-7.592924199945e-01-j2.210900114495e+00
-6.261323264452e-01-j1.943931315399e+00
-5.117638548750e-01-j1.699046314573e+00
-4.142300168481e-01-j1.475567058806e+00
-3.316752297965e-01-j1.272655840256e+00
-2.623589596891e-01-j1.089350253374e+00
-2.046648309044e-01-j9.245958652174e-01
-1.571056752573e-01-j7.772760336980e-01
-1.183250719166e-01-j6.462384837550e-01
-8.709593172911e-02-j5.303184615773e-01
-6.231669449344e-02-j4.283584146696e-01
-4.300567670403e-02-j3.392242812502e-01
-2.829406250362e-02-j2.618185696870e-01
-1.741797482129e-02-j1.950904802388e-01
-9.710013913184e-03-j1.380433587429e-01
-4.590568982372e-03-j8.973980978889e-02
-1.559169398387e-03-j4.930478909843e-02
-1.860678902198e-04-j1.592699871171e-02
-1.042067377980e-04+j1.114111482435e-02
-1.001669885130e-03+j3.258448126311e-02
-2.614687192633e-03+j4.902739754594e-02
-4.721225787320e-03+j6.103617025911e-02
-7.135179306180e-03+j6.912222206914e-02
-9.701146850682e-03+j7.374550420891e-02
-1.228978026502e-02+j7.531808482932e-02
-1.479366752830e-02+j7.420780819507e-02
-1.712371527671e-02+j7.074194219491e-02
-1.920598981933e-02+j6.521075094486e-02
-2.097897398294e-02+j5.787094604000e-02
-2.239119891485e-02+j4.894898382663e-02
-2.339921109183e-02+j3.864418739731e-02
-2.396583683588e-02+j2.713168155601e-02
-2.405871065573e-02+j1.456513588912e-02
-2.364903642500e-02+j1.079316817962e-03
-2.271055403059e-02-j1.320754622706e-02
-2.121868781488e-02-j2.819157282468e-02
-1.914985637859e-02-j4.378121182772e-02
-1.648092654257e-02-j5.989537928570e-02
-1.318879735934e-02-j7.646174287829e-02
-9.250102783561e-03-j9.341514219762e-02
-4.641023879250e-03-j1.106961349169e-01
6.627956794688e-04-j1.282496603294e-01
6.686236779494e-03-j1.460238129217e-01
1.345459728982e-02-j1.639687210762e-01
2.099339338430e-02-j1.820355273744e-01
2.932807092133e-02-j2.001754701167e-01
3.848363031786e-02-j2.183390666592e-01
4.848416622268e-02-j2.364754032631e-01
5.935232739047e-02-j2.545315361199e-01
7.110870113479e-02-j2.724520123640e-01
8.377113117732e-02-j2.901785196476e-01
9.735397953683e-02-j3.076496746793e-01
</dep>
