<Qucs Dataset 0.0.19>
<indep OG4 1>
  +5.05152415461799364493e+000
</indep>
<indep OG3 1>
  +9.91616673757459743399e+000
</indep>
<indep OG2 1>
  -2.62505628820207759233e+000
</indep>
<indep Zup 1>
  +1.80000000000000000000e+003
</indep>
<indep Z0 1>
  +5.00000000000000000000e+001
</indep>
<indep F2 1>
  +3.00000000000000000000e+007
</indep>
<indep F1 1>
  +1.00000000000000000000e+006
</indep>
<indep CL3 1>
  +1.00000000000000000000e+000
</indep>
<indep M3V1 1>
  +1.88000000000000007105e+001
</indep>
<indep M3R1 1>
  +3.57000000000000000000e+002
</indep>
<indep SS3 1>
  +0.00000000000000000000e+000
</indep>
<indep CL2 1>
  +1.00000000000000000000e+000
</indep>
<indep CL1 1>
  +1.00000000000000000000e+000
</indep>
<indep M2V1 1>
  +9.09249200000000001864e+001
</indep>
<indep M1V1 1>
  +5.27922800000000052023e+002
</indep>
<indep M2R1 1>
  +2.83069300000000021100e+003
</indep>
<indep M1R1 1>
  +2.77101400000000012369e+003
</indep>
<indep SS2 1>
  +0.00000000000000000000e+000
</indep>
<indep TR 1>
  +6.00000000000000000000e+000
</indep>
<indep SS1 1>
  +1.00000000000000000000e+000
</indep>
<indep frequency 11>
  +1.00000000000000000000e+006
  +3.90000000000000000000e+006
  +6.80000000000000000000e+006
  +9.70000000000000000000e+006
  +1.26000000000000000000e+007
  +1.55000000000000000000e+007
  +1.84000000000000000000e+007
  +2.13000000000000000000e+007
  +2.42000000000000000000e+007
  +2.71000000000000000000e+007
  +3.00000000000000000000e+007
</indep>
<dep VSWR frequency>
  -1.83491519628861277091e+000
  -2.61221742642832088777e+000
  -2.62505628820207759233e+000
  +8.14524992247013734925e+000
  +5.07102188681779875168e+000
  +9.91616673757459743399e+000
  +8.66882038474626526181e+000
  +3.82337968749340273433e+000
  +1.82230667940264812188e+000
  +3.87053420451008944880e+000
  +7.17709728686398307218e+000
</dep>
<dep S[1,1] frequency>
  +3.16427825940690299333e+000+j1.23143950877210528461e+000
  +4.77341267189047568920e-001+j2.18908854190415746999e+000
  +1.27823326582254237493e+000+j1.82818513313837449630e+000
  +4.25882310580376621800e-001+j6.55030725736319707764e-001
  -4.73528826218657716840e-001+j4.74794099966258542622e-001
  -5.28836281226656157450e-001+j6.22471481490487144050e-001
  -4.53898861426274002895e-001+j6.50432169599815090955e-001
  -2.42854483819046673698e-001+j5.32597234522137696899e-001
  -2.70007949579743555812e-001+j1.09481660449382733891e-001
  -5.89319082885582212761e-001+j7.54855534220316704008e-003
  -7.50685552701671587883e-001+j8.43929035809819483305e-002
</dep>
<indep ant_net.CLNET3.S4.R 1>
  +0.00000000000000000000e+000
</indep>
<indep ant_net.CLNET3.S3.R 1>
  +0.00000000000000000000e+000
</indep>
<indep ant_net.CLNET3.S2.R 1>
  +1.00000000000000000000e+012
</indep>
<indep ant_net.CLNET3.S1.R 1>
  +1.00000000000000000000e+012
</indep>
<indep ant_net.CLNET1.S4.R 1>
  +0.00000000000000000000e+000
</indep>
<indep ant_net.CLNET1.S3.R 1>
  +0.00000000000000000000e+000
</indep>
<indep ant_net.CLNET1.S2.R 1>
  +1.00000000000000000000e+012
</indep>
<indep ant_net.CLNET1.S1.R 1>
  +1.00000000000000000000e+012
</indep>
<indep ant_net.CLNET2.S4.R 1>
  +0.00000000000000000000e+000
</indep>
<indep ant_net.CLNET2.S3.R 1>
  +0.00000000000000000000e+000
</indep>
<indep ant_net.CLNET2.S2.R 1>
  +1.00000000000000000000e+012
</indep>
<indep ant_net.CLNET2.S1.R 1>
  +1.00000000000000000000e+012
</indep>
<indep plex.PLEX3.S4.R 1>
  +1.00000000000000000000e+012
</indep>
<indep plex.PLEX3.S5.R 1>
  +0.00000000000000000000e+000
</indep>
<indep plex.PLEX3.S1.R 1>
  +1.00000000000000000000e+012
</indep>
<indep FloatL_NIC.NIC3.Q2N2222A_2.Ccs 1>
  +0.00000000000000000000e+000
</indep>
<indep FloatL_NIC.NIC3.Q2N2222A_2.Ice 1>
  +9.23609583026964268970e-003
</indep>
<indep FloatL_NIC.NIC3.Q2N2222A_2.Cbci 1>
  +1.52080053054506037067e-011
</indep>
<indep FloatL_NIC.NIC3.Q2N2222A_2.Vbc 1>
  +1.19565462901483066105e-003
</indep>
<indep FloatL_NIC.NIC3.Q2N2222A_2.Cbe 1>
  +1.85443872157230562591e-010
</indep>
<indep FloatL_NIC.NIC3.Q2N2222A_2.Vcs 1>
  +1.26534512874676430272e-003
</indep>
<indep FloatL_NIC.NIC3.Q2N2222A_2.Ibe 1>
  +5.08689779055583439233e-005
</indep>
<indep FloatL_NIC.NIC3.Q2N2222A_2.Vce 1>
  +6.58164045119466689648e-001
</indep>
<indep FloatL_NIC.NIC3.Q2N2222A_2.Vbe 1>
  +6.59359699748481520309e-001
</indep>
<indep FloatL_NIC.NIC3.Q2N2222A_2.gmr 1>
  -8.40452560711136263151e-005
</indep>
<indep FloatL_NIC.NIC3.Q2N2222A_2.Rbb 1>
  +1.37000000000000010658e+000
</indep>
<indep FloatL_NIC.NIC3.Q2N2222A_2.Cbcx 1>
  +0.00000000000000000000e+000
</indep>
<indep FloatL_NIC.NIC3.Q2N2222A_2.gpi 1>
  +1.89687859492143552805e-003
</indep>
<indep FloatL_NIC.NIC3.Q2N2222A_2.go 1>
  +8.40452560711136263151e-005
</indep>
<indep FloatL_NIC.NIC3.Q2N2222A_2.gm 1>
  +3.50250294232437420217e-001
</indep>
<indep FloatL_NIC.NIC3.Q2N2222A_2.gmf 1>
  +3.50334339488508561544e-001
</indep>
<indep FloatL_NIC.NIC3.Q2N2222A_2.gmu 1>
  +8.21395467916267599262e-013
</indep>
<indep FloatL_NIC.NIC3.Q2N2222A_1.Ccs 1>
  +0.00000000000000000000e+000
</indep>
<indep FloatL_NIC.NIC3.Q2N2222A_1.Ice 1>
  +9.93094283660635353261e-003
</indep>
<indep FloatL_NIC.NIC3.Q2N2222A_1.Cbci 1>
  +6.44740891080617408857e-012
</indep>
<indep FloatL_NIC.NIC3.Q2N2222A_1.Vbc 1>
  -9.33609371756438832790e+000
</indep>
<indep FloatL_NIC.NIC3.Q2N2222A_1.Cbe 1>
  +1.95936932389102177163e-010
</indep>
<indep FloatL_NIC.NIC3.Q2N2222A_1.Vcs 1>
  +1.36053916872036495533e-003
</indep>
<indep FloatL_NIC.NIC3.Q2N2222A_1.Ibe 1>
  +5.04203734242396250302e-005
</indep>
<indep FloatL_NIC.NIC3.Q2N2222A_1.Vce 1>
  +9.99521585325024020108e+000
</indep>
<indep FloatL_NIC.NIC3.Q2N2222A_1.Vbe 1>
  +6.59122135685850984999e-001
</indep>
<indep FloatL_NIC.NIC3.Q2N2222A_1.gmr 1>
  -8.32904110042825661245e-005
</indep>
<indep FloatL_NIC.NIC3.Q2N2222A_1.Rbb 1>
  +1.37000000000000010658e+000
</indep>
<indep FloatL_NIC.NIC3.Q2N2222A_1.Cbcx 1>
  +0.00000000000000000000e+000
</indep>
<indep FloatL_NIC.NIC3.Q2N2222A_1.gpi 1>
  +1.87985046595071396067e-003
</indep>
<indep FloatL_NIC.NIC3.Q2N2222A_1.go 1>
  +8.32904110042825661245e-005
</indep>
<indep FloatL_NIC.NIC3.Q2N2222A_1.gm 1>
  +3.76701458241994191489e-001
</indep>
<indep FloatL_NIC.NIC3.Q2N2222A_1.gmf 1>
  +3.76784748652998435769e-001
</indep>
<indep FloatL_NIC.NIC3.Q2N2222A_1.gmu 1>
  +8.11000001859454612305e-014
</indep>
<indep plex.PLEX2.S4.R 1>
  +1.00000000000000000000e+012
</indep>
<indep plex.PLEX2.S5.R 1>
  +0.00000000000000000000e+000
</indep>
<indep plex.PLEX2.S1.R 1>
  +1.00000000000000000000e+012
</indep>
<indep plex.PLEX1.S4.R 1>
  +0.00000000000000000000e+000
</indep>
<indep plex.PLEX1.S5.R 1>
  +1.00000000000000000000e+012
</indep>
<indep plex.PLEX1.S1.R 1>
  +0.00000000000000000000e+000
</indep>
<indep FloatL_NIC.NIC1.Q2N2222A_2.Ccs 1>
  +0.00000000000000000000e+000
</indep>
<indep FloatL_NIC.NIC1.Q2N2222A_2.Ice 1>
  +9.23609583026964268970e-003
</indep>
<indep FloatL_NIC.NIC1.Q2N2222A_2.Cbci 1>
  +1.52080053054506037067e-011
</indep>
<indep FloatL_NIC.NIC1.Q2N2222A_2.Vbc 1>
  +1.19565462901483066105e-003
</indep>
<indep FloatL_NIC.NIC1.Q2N2222A_2.Cbe 1>
  +1.85443872157230562591e-010
</indep>
<indep FloatL_NIC.NIC1.Q2N2222A_2.Vcs 1>
  +1.26534512874676430272e-003
</indep>
<indep FloatL_NIC.NIC1.Q2N2222A_2.Ibe 1>
  +5.08689779055583439233e-005
</indep>
<indep FloatL_NIC.NIC1.Q2N2222A_2.Vce 1>
  +6.58164045119466689648e-001
</indep>
<indep FloatL_NIC.NIC1.Q2N2222A_2.Vbe 1>
  +6.59359699748481520309e-001
</indep>
<indep FloatL_NIC.NIC1.Q2N2222A_2.gmr 1>
  -8.40452560711136263151e-005
</indep>
<indep FloatL_NIC.NIC1.Q2N2222A_2.Rbb 1>
  +1.37000000000000010658e+000
</indep>
<indep FloatL_NIC.NIC1.Q2N2222A_2.Cbcx 1>
  +0.00000000000000000000e+000
</indep>
<indep FloatL_NIC.NIC1.Q2N2222A_2.gpi 1>
  +1.89687859492143552805e-003
</indep>
<indep FloatL_NIC.NIC1.Q2N2222A_2.go 1>
  +8.40452560711136263151e-005
</indep>
<indep FloatL_NIC.NIC1.Q2N2222A_2.gm 1>
  +3.50250294232437420217e-001
</indep>
<indep FloatL_NIC.NIC1.Q2N2222A_2.gmf 1>
  +3.50334339488508561544e-001
</indep>
<indep FloatL_NIC.NIC1.Q2N2222A_2.gmu 1>
  +8.21395467916267599262e-013
</indep>
<indep FloatL_NIC.NIC1.Q2N2222A_1.Ccs 1>
  +0.00000000000000000000e+000
</indep>
<indep FloatL_NIC.NIC1.Q2N2222A_1.Ice 1>
  +9.93094283660635353261e-003
</indep>
<indep FloatL_NIC.NIC1.Q2N2222A_1.Cbci 1>
  +6.44740891080617408857e-012
</indep>
<indep FloatL_NIC.NIC1.Q2N2222A_1.Vbc 1>
  -9.33609371756438832790e+000
</indep>
<indep FloatL_NIC.NIC1.Q2N2222A_1.Cbe 1>
  +1.95936932389102177163e-010
</indep>
<indep FloatL_NIC.NIC1.Q2N2222A_1.Vcs 1>
  +1.36053916872036495533e-003
</indep>
<indep FloatL_NIC.NIC1.Q2N2222A_1.Ibe 1>
  +5.04203734242396250302e-005
</indep>
<indep FloatL_NIC.NIC1.Q2N2222A_1.Vce 1>
  +9.99521585325024020108e+000
</indep>
<indep FloatL_NIC.NIC1.Q2N2222A_1.Vbe 1>
  +6.59122135685850984999e-001
</indep>
<indep FloatL_NIC.NIC1.Q2N2222A_1.gmr 1>
  -8.32904110042825661245e-005
</indep>
<indep FloatL_NIC.NIC1.Q2N2222A_1.Rbb 1>
  +1.37000000000000010658e+000
</indep>
<indep FloatL_NIC.NIC1.Q2N2222A_1.Cbcx 1>
  +0.00000000000000000000e+000
</indep>
<indep FloatL_NIC.NIC1.Q2N2222A_1.gpi 1>
  +1.87985046595071396067e-003
</indep>
<indep FloatL_NIC.NIC1.Q2N2222A_1.go 1>
  +8.32904110042825661245e-005
</indep>
<indep FloatL_NIC.NIC1.Q2N2222A_1.gm 1>
  +3.76701458241994191489e-001
</indep>
<indep FloatL_NIC.NIC1.Q2N2222A_1.gmf 1>
  +3.76784748652998435769e-001
</indep>
<indep FloatL_NIC.NIC1.Q2N2222A_1.gmu 1>
  +8.11000001859454612305e-014
</indep>
<indep FloatL_NIC.NIC2.Q2N2222A_2.Ccs 1>
  +0.00000000000000000000e+000
</indep>
<indep FloatL_NIC.NIC2.Q2N2222A_2.Ice 1>
  +9.23609583026964268970e-003
</indep>
<indep FloatL_NIC.NIC2.Q2N2222A_2.Cbci 1>
  +1.52080053054506037067e-011
</indep>
<indep FloatL_NIC.NIC2.Q2N2222A_2.Vbc 1>
  +1.19565462901483066105e-003
</indep>
<indep FloatL_NIC.NIC2.Q2N2222A_2.Cbe 1>
  +1.85443872157230562591e-010
</indep>
<indep FloatL_NIC.NIC2.Q2N2222A_2.Vcs 1>
  +1.26534512874676430272e-003
</indep>
<indep FloatL_NIC.NIC2.Q2N2222A_2.Ibe 1>
  +5.08689779055583439233e-005
</indep>
<indep FloatL_NIC.NIC2.Q2N2222A_2.Vce 1>
  +6.58164045119466689648e-001
</indep>
<indep FloatL_NIC.NIC2.Q2N2222A_2.Vbe 1>
  +6.59359699748481520309e-001
</indep>
<indep FloatL_NIC.NIC2.Q2N2222A_2.gmr 1>
  -8.40452560711136263151e-005
</indep>
<indep FloatL_NIC.NIC2.Q2N2222A_2.Rbb 1>
  +1.37000000000000010658e+000
</indep>
<indep FloatL_NIC.NIC2.Q2N2222A_2.Cbcx 1>
  +0.00000000000000000000e+000
</indep>
<indep FloatL_NIC.NIC2.Q2N2222A_2.gpi 1>
  +1.89687859492143552805e-003
</indep>
<indep FloatL_NIC.NIC2.Q2N2222A_2.go 1>
  +8.40452560711136263151e-005
</indep>
<indep FloatL_NIC.NIC2.Q2N2222A_2.gm 1>
  +3.50250294232437420217e-001
</indep>
<indep FloatL_NIC.NIC2.Q2N2222A_2.gmf 1>
  +3.50334339488508561544e-001
</indep>
<indep FloatL_NIC.NIC2.Q2N2222A_2.gmu 1>
  +8.21395467916267599262e-013
</indep>
<indep FloatL_NIC.NIC2.Q2N2222A_1.Ccs 1>
  +0.00000000000000000000e+000
</indep>
<indep FloatL_NIC.NIC2.Q2N2222A_1.Ice 1>
  +9.93094283660635353261e-003
</indep>
<indep FloatL_NIC.NIC2.Q2N2222A_1.Cbci 1>
  +6.44740891080617408857e-012
</indep>
<indep FloatL_NIC.NIC2.Q2N2222A_1.Vbc 1>
  -9.33609371756438832790e+000
</indep>
<indep FloatL_NIC.NIC2.Q2N2222A_1.Cbe 1>
  +1.95936932389102177163e-010
</indep>
<indep FloatL_NIC.NIC2.Q2N2222A_1.Vcs 1>
  +1.36053916872036495533e-003
</indep>
<indep FloatL_NIC.NIC2.Q2N2222A_1.Ibe 1>
  +5.04203734242396250302e-005
</indep>
<indep FloatL_NIC.NIC2.Q2N2222A_1.Vce 1>
  +9.99521585325024020108e+000
</indep>
<indep FloatL_NIC.NIC2.Q2N2222A_1.Vbe 1>
  +6.59122135685850984999e-001
</indep>
<indep FloatL_NIC.NIC2.Q2N2222A_1.gmr 1>
  -8.32904110042825661245e-005
</indep>
<indep FloatL_NIC.NIC2.Q2N2222A_1.Rbb 1>
  +1.37000000000000010658e+000
</indep>
<indep FloatL_NIC.NIC2.Q2N2222A_1.Cbcx 1>
  +0.00000000000000000000e+000
</indep>
<indep FloatL_NIC.NIC2.Q2N2222A_1.gpi 1>
  +1.87985046595071396067e-003
</indep>
<indep FloatL_NIC.NIC2.Q2N2222A_1.go 1>
  +8.32904110042825661245e-005
</indep>
<indep FloatL_NIC.NIC2.Q2N2222A_1.gm 1>
  +3.76701458241994191489e-001
</indep>
<indep FloatL_NIC.NIC2.Q2N2222A_1.gmf 1>
  +3.76784748652998435769e-001
</indep>
<indep FloatL_NIC.NIC2.Q2N2222A_1.gmu 1>
  +8.11000001859454612305e-014
</indep>
<indep inductor.CLNET3.IND1.L1.I 1>
  +0.00000000000000000000e+000
</indep>
<indep ant_net.CLNET3.Y1.I 1>
  +0.00000000000000000000e+000
</indep>
<indep ant_net.CLNET3.S4.I 1>
  +0.00000000000000000000e+000
</indep>
<indep ant_net.CLNET3.S3.I 1>
  +0.00000000000000000000e+000
</indep>
<indep ant_net.CLNET3.S2.I 1>
  +0.00000000000000000000e+000
</indep>
<indep ant_net.CLNET3.S1.I 1>
  +0.00000000000000000000e+000
</indep>
<indep inductor.CLNET1.IND1.L1.I 1>
  +0.00000000000000000000e+000
</indep>
<indep ant_net.CLNET1.Y1.I 1>
  +0.00000000000000000000e+000
</indep>
<indep ant_net.CLNET1.S4.I 1>
  +0.00000000000000000000e+000
</indep>
<indep ant_net.CLNET1.S3.I 1>
  +0.00000000000000000000e+000
</indep>
<indep ant_net.CLNET1.S2.I 1>
  +0.00000000000000000000e+000
</indep>
<indep ant_net.CLNET1.S1.I 1>
  +0.00000000000000000000e+000
</indep>
<indep inductor.CLNET2.IND1.L1.I 1>
  +0.00000000000000000000e+000
</indep>
<indep ant_net.CLNET2.Y1.I 1>
  +0.00000000000000000000e+000
</indep>
<indep ant_net.CLNET2.S4.I 1>
  +0.00000000000000000000e+000
</indep>
<indep ant_net.CLNET2.S3.I 1>
  +0.00000000000000000000e+000
</indep>
<indep ant_net.CLNET2.S2.I 1>
  +0.00000000000000000000e+000
</indep>
<indep ant_net.CLNET2.S1.I 1>
  +0.00000000000000000000e+000
</indep>
<indep plex.PLEX3.S4.I 1>
  +0.00000000000000000000e+000
</indep>
<indep plex.PLEX3.S5.I 1>
  +0.00000000000000000000e+000
</indep>
<indep plex.PLEX3.Y1.I 1>
  +0.00000000000000000000e+000
</indep>
<indep plex.PLEX3.S1.I 1>
  +0.00000000000000000000e+000
</indep>
<indep FloatL_NIC.NIC3.Tr3.I2 1>
  -9.33738518082258273090e-003
</indep>
<indep FloatL_NIC.NIC3.Tr3.I1 1>
  +9.93094283738062306999e-003
</indep>
<indep FloatL_NIC.NIC3.Tr2.I2 1>
  +0.00000000000000000000e+000
</indep>
<indep FloatL_NIC.NIC3.Tr2.I1 1>
  +9.28696480817511188510e-003
</indep>
<indep FloatL_NIC.NIC3.Tr1.I2 1>
  +9.98136321003053293699e-003
</indep>
<indep FloatL_NIC.NIC3.Tr1.I1 1>
  +0.00000000000000000000e+000
</indep>
<indep FloatL_NIC.NIC3.V1.I 1>
  -1.92683280182032040662e-002
</indep>
<indep plex.PLEX2.S4.I 1>
  +0.00000000000000000000e+000
</indep>
<indep plex.PLEX2.S5.I 1>
  +0.00000000000000000000e+000
</indep>
<indep plex.PLEX2.Y1.I 1>
  +0.00000000000000000000e+000
</indep>
<indep plex.PLEX2.S1.I 1>
  +0.00000000000000000000e+000
</indep>
<indep plex.PLEX1.S4.I 1>
  +0.00000000000000000000e+000
</indep>
<indep plex.PLEX1.S5.I 1>
  +0.00000000000000000000e+000
</indep>
<indep plex.PLEX1.Y1.I 1>
  +0.00000000000000000000e+000
</indep>
<indep plex.PLEX1.S1.I 1>
  +0.00000000000000000000e+000
</indep>
<indep FloatL_NIC.NIC1.Tr3.I2 1>
  -9.33738518082258273090e-003
</indep>
<indep FloatL_NIC.NIC1.Tr3.I1 1>
  +9.93094283738062306999e-003
</indep>
<indep FloatL_NIC.NIC1.Tr2.I2 1>
  +0.00000000000000000000e+000
</indep>
<indep FloatL_NIC.NIC1.Tr2.I1 1>
  +9.28696480817511188510e-003
</indep>
<indep FloatL_NIC.NIC1.Tr1.I2 1>
  +9.98136321003053293699e-003
</indep>
<indep FloatL_NIC.NIC1.Tr1.I1 1>
  +0.00000000000000000000e+000
</indep>
<indep FloatL_NIC.NIC1.V1.I 1>
  -1.92683280182032040662e-002
</indep>
<indep FloatL_NIC.NIC2.Tr3.I2 1>
  -9.33738518082258273090e-003
</indep>
<indep FloatL_NIC.NIC2.Tr3.I1 1>
  +9.93094283738062306999e-003
</indep>
<indep FloatL_NIC.NIC2.Tr2.I2 1>
  +0.00000000000000000000e+000
</indep>
<indep FloatL_NIC.NIC2.Tr2.I1 1>
  +9.28696480817511188510e-003
</indep>
<indep FloatL_NIC.NIC2.Tr1.I2 1>
  +9.98136321003053293699e-003
</indep>
<indep FloatL_NIC.NIC2.Tr1.I1 1>
  +0.00000000000000000000e+000
</indep>
<indep FloatL_NIC.NIC2.V1.I 1>
  -1.92683280182032040662e-002
</indep>
<indep V1.I 1>
  +0.00000000000000000000e+000
</indep>
<indep V2.I 1>
  +0.00000000000000000000e+000
</indep>
<indep V4.I 1>
  +0.00000000000000000000e+000
</indep>
<indep V3.I 1>
  +0.00000000000000000000e+000
</indep>
<indep V5.I 1>
  +0.00000000000000000000e+000
</indep>
<indep Tr1.I2 1>
  +0.00000000000000000000e+000
</indep>
<indep Tr1.I1 1>
  +0.00000000000000000000e+000
</indep>
<indep V6.I 1>
  +0.00000000000000000000e+000
</indep>
<indep FloatL_NIC.NIC3._net0.V 1>
  +6.62614819177417491147e-001
</indep>
<indep FloatL_NIC.NIC3._net3.V 1>
  +0.00000000000000000000e+000
</indep>
<indep FloatL_NIC.NIC3._net1.V 1>
  +1.00000000000000000000e+001
</indep>
<indep FloatL_NIC.NIC3._net2.V 1>
  +0.00000000000000000000e+000
</indep>
<indep FloatL_NIC.NIC1._net0.V 1>
  +6.62614819177417491147e-001
</indep>
<indep FloatL_NIC.NIC1._net3.V 1>
  +0.00000000000000000000e+000
</indep>
<indep FloatL_NIC.NIC1._net1.V 1>
  +1.00000000000000000000e+001
</indep>
<indep FloatL_NIC.NIC1._net2.V 1>
  +0.00000000000000000000e+000
</indep>
<indep FloatL_NIC.NIC2._net0.V 1>
  +6.62614819177417491147e-001
</indep>
<indep FloatL_NIC.NIC2._net3.V 1>
  +0.00000000000000000000e+000
</indep>
<indep FloatL_NIC.NIC2._net1.V 1>
  +1.00000000000000000000e+001
</indep>
<indep FloatL_NIC.NIC2._net2.V 1>
  +0.00000000000000000000e+000
</indep>
<indep _net19.V 1>
  +1.00000000000000000000e+000
</indep>
<indep _net14.V 1>
  +0.00000000000000000000e+000
</indep>
<indep _net13.V 1>
  +0.00000000000000000000e+000
</indep>
<indep _net18.V 1>
  +0.00000000000000000000e+000
</indep>
<indep _net12.V 1>
  +1.00000000000000000000e+000
</indep>
<indep _net11.V 1>
  +1.00000000000000000000e+000
</indep>
<indep _net2.V 1>
  +0.00000000000000000000e+000
</indep>
<indep _net1.V 1>
  +0.00000000000000000000e+000
</indep>
<indep _net0.V 1>
  +1.00000000000000000000e+000
</indep>
<indep FloatL_NIC.NIC2._net4.V 1>
  +1.00000000000000000000e+001
</indep>
<indep FloatL_NIC.NIC2._net5.V 1>
  +6.62614819177417491147e-001
</indep>
<indep _net3.V 1>
  +0.00000000000000000000e+000
</indep>
<indep _net4.V 1>
  +0.00000000000000000000e+000
</indep>
<indep _net5.V 1>
  +0.00000000000000000000e+000
</indep>
<indep _net6.V 1>
  +0.00000000000000000000e+000
</indep>
<indep FloatL_NIC.NIC1._net4.V 1>
  +1.00000000000000000000e+001
</indep>
<indep FloatL_NIC.NIC1._net5.V 1>
  +6.62614819177417491147e-001
</indep>
<indep _net7.V 1>
  +0.00000000000000000000e+000
</indep>
<indep _net8.V 1>
  +0.00000000000000000000e+000
</indep>
<indep _net9.V 1>
  +0.00000000000000000000e+000
</indep>
<indep _net10.V 1>
  +0.00000000000000000000e+000
</indep>
<indep plex.PLEX1._net3.V 1>
  +4.53978687024343945805e-005
</indep>
<indep plex.PLEX2._net3.V 1>
  +9.99954602131297609624e-001
</indep>
<indep FloatL_NIC.NIC3._net4.V 1>
  +1.00000000000000000000e+001
</indep>
<indep FloatL_NIC.NIC3._net5.V 1>
  +6.62614819177417491147e-001
</indep>
<indep _net15.V 1>
  +0.00000000000000000000e+000
</indep>
<indep _net16.V 1>
  +0.00000000000000000000e+000
</indep>
<indep _net17.V 1>
  +0.00000000000000000000e+000
</indep>
<indep plex.PLEX3._net3.V 1>
  +9.99954602131297609624e-001
</indep>
<indep ant_net.CLNET2._net0.V 1>
  +4.53978687024343945805e-005
</indep>
<indep ant_net.CLNET2._net2.V 1>
  +0.00000000000000000000e+000
</indep>
<indep ant_net.CLNET2._net4.V 1>
  +0.00000000000000000000e+000
</indep>
<indep ant_net.CLNET2._net6.V 1>
  +0.00000000000000000000e+000
</indep>
<indep ant_net.CLNET2._net7.V 1>
  +0.00000000000000000000e+000
</indep>
<indep capacitor.CLNET2.CAP1._net2.V 1>
  +0.00000000000000000000e+000
</indep>
<indep inductor.CLNET2.IND1._net2.V 1>
  +0.00000000000000000000e+000
</indep>
<indep ant_net.CLNET1._net0.V 1>
  +4.53978687024343945805e-005
</indep>
<indep ant_net.CLNET1._net2.V 1>
  +0.00000000000000000000e+000
</indep>
<indep ant_net.CLNET1._net4.V 1>
  +0.00000000000000000000e+000
</indep>
<indep ant_net.CLNET1._net6.V 1>
  +0.00000000000000000000e+000
</indep>
<indep ant_net.CLNET1._net7.V 1>
  +0.00000000000000000000e+000
</indep>
<indep capacitor.CLNET1.CAP1._net2.V 1>
  +0.00000000000000000000e+000
</indep>
<indep inductor.CLNET1.IND1._net2.V 1>
