# HZ S RI R 50
1.00000000000000000000e+006 -1.38731606407086482946e-002 +5.17254541629597053287e-004 +1.01387316064070853727e+000 -5.17254541629319497531e-004 +1.01387316064070853727e+000 -5.17254541629319497531e-004 -1.38731606407087593169e-002 +5.17254541629208475229e-004
1.01617276996301603504e+006 -1.38730882790509824076e-002 +5.28838210987869761226e-004 +1.01387308827905053832e+000 -5.28838210987869761226e-004 +1.01387308827905076036e+000 -5.28838210987869761226e-004 -1.38730882790504272961e-002 +5.28838210987980783528e-004
1.03260709841430897359e+006 -1.38730170973209165908e-002 +5.40808348836074870292e-004 +1.01387301709732091659e+000 -5.40808348836352426048e-004 +1.01387301709732091659e+000 -5.40808348836296914897e-004 -1.38730170973209165908e-002 +5.40808348836629981804e-004
1.04930721547914110124e+006 -1.38729469949235850734e-002 +5.53181159308080427905e-004 +1.01387294699492325201e+000 -5.53181159307025716032e-004 +1.01387294699492325201e+000 -5.53181159306914693730e-004 -1.38729469949236960957e-002 +5.53181159306026515310e-004
1.06627741969561832957e+006 -1.38728778694122700799e-002 +5.65973659247764881997e-004 +1.01387287786941238110e+000 -5.65973659247653859694e-004 +1.01387287786941238110e+000 -5.65973659247764881997e-004 -1.38728778694124921245e-002 +5.65973659247598348543e-004
1.08352207912111398764e+006 -1.38728096161526703867e-002 +5.79203723269250403405e-004 +1.01387280961615289243e+000 -5.79203723268251202683e-004 +1.01387280961615289243e+000 -5.79203723268251202683e-004 -1.38728096161533365205e-002 +5.79203723267418535414e-004
1.10104563245658902451e+006 -1.38727421279726259584e-002 +5.92890131517753715684e-004 +1.01387274212797229289e+000 -5.92890131517587182230e-004 +1.01387274212797229289e+000 -5.92890131517587182230e-004 -1.38727421279722928915e-002 +5.92890131517476159928e-004
1.11885259018909279257e+006 -1.38726752947754272682e-002 +6.07052620368531137274e-004 +1.01387267529477509420e+000 -6.07052620368364603820e-004 +1.01387267529477509420e+000 -6.07052620368364603820e-004 -1.38726752947749831790e-002 +6.07052620367920514610e-004
1.13694753575274581090e+006 -1.38726090031510151945e-002 +6.21711936227897776774e-004 +1.01387260900315068213e+000 -6.21711936227287154111e-004 +1.01387260900315046008e+000 -6.21711936227453687565e-004 -1.38726090031507931499e-002 +6.21711936226787553750e-004
1.15533512670849310234e+006 -1.38725431358808215521e-002 +6.36889892623393460980e-004 +1.01387254313588082155e+000 -6.36889892623448972131e-004 +1.01387254313588082155e+000 -6.36889892623393460980e-004 -1.38725431358807105298e-002 +6.36889892623448972131e-004
1.17402009594294172712e+006 -1.38724775715005632648e-002 +6.52609430882633567705e-004 +1.01387247757150045224e+000 -6.52609430883299701520e-004 +1.01387247757150067429e+000 -6.52609430883077656915e-004 -1.38724775715004522425e-002 +6.52609430883965835335e-004
1.19300725288658519275e+006 -1.38724121837442426752e-002 +6.68894684569210085101e-004 +1.01387241218374413165e+000 -6.68894684569321107404e-004 +1.01387241218374413165e+000 -6.68894684569154573950e-004 -1.38724121837444647198e-002 +6.68894684569321107404e-004
1.21230148475172976032e+006 -1.38723468409696071291e-002 +6.85771047977068448631e-004 +1.01387234684096938508e+000 -6.85771047976790892875e-004 +1.01387234684096982917e+000 -6.85771047976679870573e-004 -1.38723468409696071291e-002 +6.85771047976568848270e-004
1.23190775779044232331e+006 -1.38722814055408649736e-002 +7.03265248965911915491e-004 +1.01387228140554075395e+000 -7.03265248965856404340e-004 +1.01387228140554097600e+000 -7.03265248965689870886e-004 -1.38722814055408649736e-002 +7.03265248965689870886e-004
1.25183111857284209691e+006 -1.38722157331369055910e-002 +7.21405426441834585205e-004 +1.01387221573313679457e+000 -7.21405426440668851029e-004 +1.01387221573313679457e+000 -7.21405426440779873332e-004 -1.38722157331372386579e-002 +7.21405426439891694912e-004
1.27207669528606603853e+006 -1.38721496720182191353e-002 +7.40221212780722837010e-004 +1.01387214967201866322e+000 -7.40221212780500792405e-004 +1.01387214967201844118e+000 -7.40221212780833859313e-004 -1.38721496720186632245e-002 +7.40221212780611814708e-004
1.29264969905424141325e+006 -1.38720830621830160112e-002 +7.59743821627190119017e-004 +1.01387208306218323806e+000 -7.59743821626968074412e-004 +1.01387208306218323806e+000 -7.59743821626968074412e-004 -1.38720830621840152119e-002 +7.59743821626912563261e-004
1.31355542527980753221e+006 -1.38720157344847105918e-002 +7.80006141345990222646e-004 +1.01387201573448426650e+000 -7.80006141345157555378e-004 +1.01387201573448448855e+000 -7.80006141345213066529e-004 -1.38720157344843775249e-002 +7.80006141344491421563e-004
1.33479925500652985647e+006 -1.38719475096809041759e-002 +8.01042834647214263555e-004 +1.01387194750968112622e+000 -8.01042834646603640891e-004 +1.01387194750968112622e+000 -8.01042834646603640891e-004 -1.38719475096815703097e-002 +8.01042834646270573984e-004
1.35638665630455594510e+006 -1.38718781973092841753e-002 +8.22890444768020756783e-004 +1.01387187819730906213e+000 -8.22890444767077067212e-004 +1.01387187819730906213e+000 -8.22890444767077067212e-004 -1.38718781973093951976e-002 +8.22890444765966844187e-004
1.37832318567787413485e+006 -1.38718075945449825781e-002 +8.45587508709610968793e-004 +1.01387180759454476053e+000 -8.45587508709444435340e-004 +1.01387180759454476053e+000 -8.45587508709166879584e-004 -1.38718075945448715558e-002 +8.45587508708833812676e-004
1.40061448949453397654e+006 -1.38717354848892915342e-002 +8.69174678082007545754e-004 +1.01387173548488918051e+000 -8.69174678082063056905e-004 +1.01387173548488895847e+000 -8.69174678081896523452e-004 -1.38717354848887364227e-002 +8.69174678081952034603e-004
1.42326630543999630027e+006 -1.38716616367412504118e-002 +8.93694848087434046136e-004 +1.01387166163674136143e+000 -8.93694848087489557287e-004 +1.01387166163674158348e+000 -8.93694848087489557287e-004 -1.38716616367415834787e-002 +8.93694848087489557287e-004
1.44628446399398939684e+006 -1.38715858018302329313e-002 +9.19193295307207947076e-004 +1.01387158580183034395e+000 -9.19193295306985902471e-004 +1.01387158580183034395e+000 -9.19193295306985902471e-004 -1.38715858018303439536e-002 +9.19193295306985902471e-004
1.46967488993124826811e+006 -1.38715077134839992468e-002 +9.45717824917202687374e-004 +1.01387150771348366618e+000 -9.45717824916370020105e-004 +1.01387150771348388822e+000 -9.45717824916314508954e-004 -1.38715077134842212914e-002 +9.45717824915592863988e-004
1.49344360384652763605e+006 -1.38714270847256626595e-002 +9.73318928094324409273e-004 +1.01387142708472577368e+000 -9.73318928093824808911e-004 +1.01387142708472555164e+000 -9.73318928093658275458e-004 -1.38714270847255516372e-002 +9.73318928093214186248e-004
1.51759672370427520946e+006 -1.38713436061386197196e-002 +1.00204995040065192313e-003 +1.01387134360613817563e+000 -1.00204995039970823356e-003 +1.01387134360613861972e+000 -1.00204995039987476702e-003 -1.38713436061388417642e-002 +1.00204995039870903284e-003
1.54214046641337126493e+006 -1.38712569435878174673e-002 +1.03196727201410043406e-003 +1.01387125694358770644e+000 -1.03196727201443350097e-003 +1.01387125694358748440e+000 -1.03196727201421145637e-003 -1.38712569435875954227e-002 +1.03196727201443350097e-003
1.56708114942733338103e+006 -1.38711667355637668919e-002 +1.06313050070622194809e-003 +1.01387116673556354485e+000 -1.06313050070633297040e-003 +1.01387116673556354485e+000 -1.06313050070672154845e-003 -1.38711667355631007581e-002 +1.06313050070666603730e-003
1.59242519237040076405e+006 -1.38710725904019893662e-002 +1.09560267864489135903e-003 +1.01387107259040187834e+000 -1.09560267864416971406e-003 +1.01387107259040187834e+000 -1.09560267864411420291e-003 -1.38710725904022114108e-002 +1.09560267864322602449e-003
1.61817911868991889060e+006 -1.38709740830930128297e-002 +1.12945050412260883377e-003 +1.01387097408309312385e+000 -1.12945050412205372226e-003 +1.01387097408309267976e+000 -1.12945050412194269995e-003 -1.38709740830926797628e-002 +1.12945050412144309959e-003
1.64434955733544728719e+006 -1.38708707517578577750e-002 +1.16474456939025250435e-003 +1.01387087075175785778e+000 -1.16474456939003045974e-003 +1.01387087075175807982e+000 -1.16474456939025250435e-003 -1.38708707517579687973e-002 +1.16474456939003045974e-003
1.67094324446502071805e+006 -1.38707620937630338176e-002 +1.20155961596374316613e-003 +1.01387076209376303382e+000 -1.20155961596357663268e-003 +1.01387076209376325586e+000 -1.20155961596357663268e-003 -1.38707620937635889291e-002 +1.20155961596368765498e-003
1.69796702517900941893e+006 -1.38706475614159829846e-002 +1.23997480888207722849e-003 +1.01387064756141609401e+000 -1.23997480888296540691e-003 +1.01387064756141587196e+000 -1.23997480888304867364e-003 -1.38706475614157609400e-002 +1.23997480888379807418e-003
1.72542785528201633133e+006 -1.38705265571158475879e-002 +1.28007403141330855512e-003 +1.01387052655711529248e+000 -1.28007403141269793245e-003 +1.01387052655711507043e+000 -1.28007403141247588785e-003 -1.38705265571151814541e-002 +1.28007403141180975403e-003
1.75333280307327257469e+006 -1.38703984280489356351e-002 +1.32194620204068025160e-003 +1.01387039842804860257e+000 -1.32194620204123536311e-003 +1.01387039842804882461e+000 -1.32194620204115209638e-003 -1.38703984280488246128e-002 +1.32194620204162394117e-003
1.78168905116598703898e+006 -1.38702624601468871290e-002 +1.36568561563582546725e-003 +1.01387026246014633202e+000 -1.36568561563413237714e-003 +1.01387026246014633202e+000 -1.36568561563418788829e-003 -1.38702624601464430398e-002 +1.36568561563227275357e-003
1.81050389833611925133e+006 -1.38701178715111561601e-002 +1.41139231078599158842e-003 +1.01387011787151126718e+000 -1.41139231078532545460e-003 +1.01387011787151104514e+000 -1.41139231078526994345e-003 -1.38701178715111561601e-002 +1.41139231078463156521e-003
1.83978476140105328523e+006 -1.38699638049499807124e-002 +1.45917246578231019072e-003 +1.01386996380494998071e+000 -1.45917246578325388029e-003 +1.01386996380494998071e+000 -1.45917246578319836914e-003 -1.38699638049497586678e-002 +1.45917246578419756986e-003
1.86953917712865490466e+006 -1.38697993196555957596e-002 +1.50913882555742118186e-003 +1.01386979931965548474e+000 -1.50913882555686607034e-003 +1.01386979931965548474e+000 -1.50913882555706035937e-003 -1.38697993196554847373e-002 +1.50913882555667178131e-003
1.89977480417720344849e+006 -1.38696233820186920482e-002 +1.56141116256774958870e-003 +1.01386962338201835898e+000 -1.56141116256741652180e-003 +1.01386962338201835898e+000 -1.56141116256786061101e-003 -1.38696233820182479590e-002 +1.56141116256741652180e-003
1.93049942506669531576e+006 -1.38694348551273716197e-002 +1.61611677450809732015e-003 +1.01386943485512759366e+000 -1.61611677450715363058e-003 +1.01386943485512759366e+000 -1.61611677450732016403e-003 -1.38694348551282597981e-002 +1.61611677450648749677e-003
1.96172094818203407340e+006 -1.38692324872443650818e-002 +1.67339102231314762470e-003 +1.01386923248724403201e+000 -1.67339102231287006894e-003 +1.01386923248724403201e+000 -1.67339102231300884682e-003 -1.38692324872436989480e-002 +1.67339102231284231337e-003
1.99344740980861219577e+006 -1.38690148986804206999e-002 +1.73337791212993530543e-003 +1.01386901489868108683e+000 -1.73337791213026837234e-003 +1.01386901489868108683e+000 -1.73337791213026837234e-003 -1.38690148986810868337e-002 +1.73337791213101777288e-003
2.02568697620081692003e+006 -1.38687805671668940022e-002 +1.79623072542384187855e-003 +1.01386878056716733809e+000 -1.79623072542342554492e-003 +1.01386878056716711605e+000 -1.79623072542309247801e-003 -1.38687805671675601360e-002 +1.79623072542259287765e-003
2.05844794568399083801e+006 -1.38685278114597521082e-002 +1.86211270162273123674e-003 +1.01386852781145941904e+000 -1.86211270162373043746e-003 +1.01386852781145919700e+000 -1.86211270162367492631e-003 -1.38685278114588639298e-002 +1.86211270162453534915e-003
2.09173875079038133845e+006 -1.38682547727005944793e-002 +1.93119777847575169183e-003 +1.01386825477270026141e+000 -1.93119777847586271413e-003 +1.01386825477270026141e+000 -1.93119777847566842510e-003 -1.38682547727001503901e-002 +1.93119777847569618068e-003
2.12556796042964095250e+006 -1.38679593937082179522e-002 +2.00367139559481932665e-003 +1.01386795939370788489e+000 -2.00367139559448625974e-003 +1.01386795939370788489e+000 -2.00367139559454177089e-003 -1.38679593937078848853e-002 +2.00367139559426421513e-003
2.15994428209442691877e+006 -1.38676393953408583215e-002 +2.07973136733033414636e-003 +1.01386763939534030321e+000 -2.07973136733022312406e-003 +1.01386763939534030321e+000 -2.07973136733038965751e-003 -1.38676393953400811654e-002 +2.07973136733027863521e-003
2.19487656410167180002e+006 -1.38672922499979422994e-002 +2.15958883194469764000e-003 +1.01386729224999827537e+000 -2.15958883194483641788e-003 +1.01386729224999849741e+000 -2.15958883194491968460e-003 -1.38672922499983863887e-002 +2.15958883194528050709e-003
2.23037379787010326982e+006 -1.38669151517225586190e-002 +2.24346928458041272592e-003 +1.01386691515172255862e+000 -2.24346928458035721476e-003 +1.01386691515172278066e+000 -2.24346928458044048149e-003 -1.38669151517225586190e-002 +2.24346928458035721476e-003
2.26644512023459561169e+006 -1.38665049821079522374e-002 +2.33161370254408861769e-003 +1.01386650498210828530e+000 -2.33161370254500455168e-003 +1.01386650498210828530e+000 -2.33161370254508781841e-003 -1.38665049821082853043e-002 +2.33161370254617028586e-003
2.30309981579795014113e+006 -1.38660582720101510645e-002 +2.42427977240874947817e-003 +1.01386605827200915186e+000 -2.42427977240694536576e-003 +1.01386605827200981800e+000 -2.42427977240711189921e-003 -1.38660582720090408415e-002 +2.42427977240511349777e-003
2.34034731932071503252e+006 -1.38655711579104279352e-002 +2.52174322937903649944e-003 +1.01386557115791031691e+000 -2.52174322937642747533e-003 +1.01386557115791031691e+000 -2.52174322937659400878e-003 -1.38655711579106499798e-002 +2.52174322937392947352e-003
2.37819721814965037629e+006 -1.38650393324856180399e-002 +2.62429932082966499429e-003 +1.01386503933248528497e+000 -2.62429932082886008260e-003 +1.01386503933248528497e+000 -2.62429932082888783818e-003 -1.38650393324853959953e-002 +2.62429932082797190418e-003
2.41665925468546990305e+006 -1.38644579882424290318e-002 +2.73226440707000084451e-003 +1.01386445798824231801e+000 -2.73226440706930695512e-003 +1.01386445798824231801e+000 -2.73226440706936246627e-003 -1.38644579882422069872e-002 +2.73226440706875184361e-003
2.45574332889049220830e+006 -1.38638217535393959423e-002 +2.84597771419439760088e-003 +1.01386382175353895185e+000 -2.84597771419375922264e-003 +1.01386382175353895185e+000 -2.84597771419375922264e-003 -1.38638217535389518531e-002 +2.84597771419300982210e-003
2.49545950083684967831e+006 -1.38631246195974888735e-002 +2.96580325558740143244e-003 +1.01386312461959793296e+000 -2.96580325558723489898e-003 +1.01386312461959771092e+000 -2.96580325558717938783e-003 -1.38631246195981550073e-002 +2.96580325558704060995e-003
2.53581799329590750858e+006 -1.38623598570889461357e-002 +3.09213194070448449402e-003 +1.01386235985708861307e+000 -3.09213194070528940571e-003 +1.01386235985708883511e+000 -3.09213194070534491686e-003 -1.38623598570883910241e-002 +3.09213194070609431741e-003
2.57682919436955917627e+006 -1.38615199208221850924e-002 +3.22538389198084862741e-003 +1.01386151992082185203e+000 -3.22538389197910002615e-003 +1.01386151992082185203e+000 -3.22538389197921104845e-003 -1.38615199208221850924e-002 +3.22538389197757346949e-003
2.61850366016408242285e+006 -1.38605963407414378707e-002 +3.36601099371020007212e-003 +1.01386059634074143787e+000 -3.36601099371078293920e-003 +1.01386059634074143787e+000 -3.36601099371078293920e-003 -1.38605963407412158261e-002 +3.36601099371142131744e-003
2.66085211750723235309e+006 -1.38595795966650614517e-002 +3.51449969929806815827e-003 +1.01385957959666539452e+000 -3.51449969929668037949e-003 +1.01385957959666539452e+000 -3.51449969929668037949e-003 -1.38595795966658386078e-002 +3.51449969929509831168e-003
2.70388546670928085223e+006 -1.38584589747122732817e-002 +3.67137412718410161006e-003 +1.01385845897471238430e+000 -3.67137412718326894279e-003 +1.01385845897471238430e+000 -3.67137412718324118721e-003 -1.38584589747130504378e-002 +3.67137412718257505340e-003
2.74761478436871198937e+006 -1.38572224019851697463e-002 +3.83719947946870032496e-003 +1.01385722240198483668e+000 -3.83719947946797867999e-003 +1.01385722240198505872e+000 -3.83719947946803419114e-003 -1.38572224019847256571e-002 +3.83719947946722927945e-003
2.79205132622329005972e+006 -1.38558562561950093794e-002 +4.01258582201177715909e-003 +1.01385585625619545347e+000 -4.01258582201233227060e-003 +1.01385585625619500938e+000 -4.01258582201230451503e-003 -1.38558562561954534686e-002 +4.01258582201288738212e-003
2.83720653004723368213e+006 -1.38543451458446043034e-002 +4.19819226983889071114e-003 +1.01385434514584438226e+000 -4.19819226983778048812e-003 +1.01385434514584416021e+000 -4.19819226983769722139e-003 -1.38543451458441602142e-002 +4.19819226983650373164e-003
2.88309201859525451437e+006 -1.38526716560953833124e-002 +4.39473162802078709532e-003 +1.01385267165609516127e+000 -4.39473162801937156097e-003 +1.01385267165609516127e+000 -4.39473162801926053866e-003 -1.38526716560949392232e-002 +4.39473162801784500431e-003
2.92971960259420378134e+006 -1.38508160547218261982e-002 +4.60297554499286554197e-003 +1.01385081605472149313e+000 -4.60297554499380923154e-003 +1.01385081605472171518e+000 -4.60297554499394800942e-003 -1.38508160547213821090e-002 +4.60297554499483618784e-003
2.97710128378309914842e+006 -1.38487559503503998570e-002 +4.82376024346825582612e-003 +1.01384875595035039986e+000 -4.82376024346922727126e-003 +1.01384875595035017781e+000 -4.82376024346931053799e-003 -1.38487559503500667901e-002 +4.82376024347019871641e-003
3.02524925800232309848e+006 -1.38464658955697039744e-002 +5.05799290354580488582e-003 +1.01384646589556948193e+000 -5.05799290354577713025e-003 +1.01384646589556970397e+000 -5.05799290354572161910e-003 -1.38464658955695929521e-002 +5.05799290354572161910e-003
3.07417591833277978003e+006 -1.38439169246464821583e-002 +5.30665878355415787659e-003 +1.01384391692464648216e+000 -5.30665878355274234224e-003 +1.01384391692464670420e+000 -5.30665878355274234224e-003 -1.38439169246471482921e-002 +5.30665878355138231903e-003
3.12389385828582057729e+006 -1.38410760136776778140e-002 +5.57082917679740940997e-003 +1.01384107601367756679e+000 -5.57082917679774247688e-003 +1.01384107601367756679e+000 -5.57082917679774247688e-003 -1.38410760136777888363e-002 +5.57082917679821432166e-003
3.17441587504475563765e+006 -1.38379054488602104556e-002 +5.85167031744041055141e-003 +1.01383790544885998841e+000 -5.85167031743902277263e-003 +1.01383790544885954432e+000 -5.85167031743905052821e-003 -1.38379054488598773887e-002 +5.85167031743752397155e-003
3.22575497275880118832e+006 -1.38343620869797456763e-002 +6.15045336609790216365e-003 +1.01383436208698030079e+000 -6.15045336609876258649e-003 +1.01383436208697985670e+000 -6.15045336609876258649e-003 -1.38343620869800787432e-002 +6.15045336609965076491e-003
3.27792436589028453454e+006 -1.38303964851641536526e-002 +6.46856562602451945487e-003 +1.01383039648516359854e+000 -6.46856562602549090002e-003 +1.01383039648516382059e+000 -6.46856562602554641117e-003 -1.38303964851635985411e-002 +6.46856562602646234517e-003
3.33093748261599382386e+006 -1.38259518772714251611e-002 +6.80752316503543952741e-003 +1.01382595187727098107e+000 -6.80752316503527299396e-003 +1.01382595187727098107e+000 -6.80752316503527299396e-003 -1.38259518772707590273e-002 +6.80752316503493992705e-003
