# HZ S RI R 50
5.50000000000000000000e+005 +5.71226263041159643130e-001 +7.52214103113901799702e-001 -2.73492457068726232614e-003 +8.36295267249713425439e-003 +1.92453372501715624932e-001 -8.62532766477226764401e-001 +1.00214391910516287254e+000 -9.58769720944683059849e-003
5.63959981386691448279e+005 +5.59873213499134214644e-001 +7.67511301636950582505e-001 -2.86112906264618773247e-003 +8.53297515700339112565e-003 +2.05469052907707783184e-001 -8.80066298490149279132e-001 +1.00228860603196356927e+000 -9.78261909539659448021e-003
5.77919962773383012973e+005 +5.48351129420591387742e-001 +7.82562266719532328985e-001 -2.98921260437024199214e-003 +8.70026170807449046596e-003 +2.18678522965728205918e-001 -8.97317725749238959132e-001 +1.00243544719220611938e+000 -9.97440438012819376168e-003
5.91879944160074461251e+005 +5.36666770415525240523e-001 +7.97365179498802922886e-001 -3.11910005345521082823e-003 +8.86479201568478140938e-003 +2.32074033105006044542e-001 -9.14284949637879540418e-001 +1.00258435643900645218e+000 -1.01630297788894517069e-002
6.05839925546765909530e+005 +5.24826878381088213210e-001 +8.11918438019756383284e-001 -3.25071646442027335430e-003 +9.02654818941134480526e-003 +2.45647854064740628344e-001 -9.30966121446708649856e-001 +1.00273524785124390490e+000 -1.03484747809105635113e-002
6.19799906933457474224e+005 +5.12838169796518084098e-001 +8.26220653752020806060e-001 -3.38398717435737204917e-003 +9.18551471876992257914e-003 +2.59392285727144344953e-001 -9.47359638241378476664e-001 +1.00288803583175312184e+000 -1.05307216039276733272e-002
6.33759888320148922503e+005 +5.00707328299748732903e-001 +8.40270647818320282063e-001 -3.51883788544996804065e-003 +9.34167843047031300208e-003 +2.73299665627632082376e-001 -9.63464138418113291706e-001 +1.00304263520192704640e+000 -1.07097551451751198115e-002
6.47719869706840370782e+005 +4.88440997554193456764e-001 +8.54067446955890208216e-001 -3.65519474426627541050e-003 +9.49502844280910272834e-003 +2.87362377132378443712e-001 -9.79278496968708500603e-001 +1.00319896129262331463e+000 -1.08855629290962544614e-002
6.61679851093531819060e+005 +4.76045774412951594456e-001 +8.67610279231935899169e-001 -3.79298441774670973270e-003 +9.64555611741843912932e-003 +3.01572857274953309847e-001 -9.94801820476837184160e-001 +1.00335693003127834899e+000 -1.10581350520234829304e-002
6.75639832480223383754e+005 +4.63528202386308540994e-001 +8.80898569533919317820e-001 -3.93213416581987551535e-003 +9.79325500858901215606e-003 +3.15923604245266220758e-001 -1.01003344186757870737e+000 +1.00351645802516009631e+000 -1.12274641240775272660e-002
6.89599813866914832033e+005 +4.50894765417249154815e-001 +8.93931934855182630528e-001 -4.07257191059501658104e-003 +9.93812081038406534839e-003 +3.30407184525443375911e-001 -1.02497291493206166280e+000 +1.00367746264069190865e+000 -1.13935452085344619821e-002
7.03559795253606280312e+005 +4.38151881968398659861e-001 +9.06710179396024162912e-001 -4.21422630209246796423e-003 +1.00801513017590646526e-002 +3.45016239668669899565e-001 -1.03962000864894132945e+000 +1.00383986207880959718e+000 -1.15563757589066291864e-002
7.17519776640297845006e+005 +4.25305899422717459402e-001 +9.19233289499986505611e-001 -4.35702678048658937487e-003 +1.02193462898987827425e-002 +3.59743492718368473859e-001 -1.05397470132420600919e+000 +1.00400357544631990692e+000 -1.17159555539800529222e-002
7.31479758026989293285e+005 +4.12363088799110433236e-001 +9.31501428444653112315e-001 -4.50090363484813467398e-003 +1.03557075519796915747e-002 +3.74581754266359590044e-001 -1.06803717457047531170e+000 +1.00416852282324531309e+000 -1.18722866310467210782e-002
7.45439739413680741563e+005 +3.99329639783057410707e-001 +9.43514931105763454688e-001 -4.64578805838474807877e-003 +1.04892387755613353262e-002 +3.89523928149878961857e-001 -1.08180780714652757801e+000 +1.00433462532615447316e+000 -1.20253732175652095632e-002
7.59399720800372306257e+005 +3.86211656071381470579e-001 +9.55274298512958752738e-001 -4.79161220018957043076e-003 +1.06199454978052384296e-002 +4.04563016788466178753e-001 -1.09528716867734821072e+000 +1.00450180516748965864e+000 -1.21752216614773554892e-002
7.73359702187063754536e+005 +3.73015151029277625128e-001 +9.66780192314877329096e-001 -4.93830921351869241154e-003 +1.07478350437144511836e-002 +4.19692126162878209605e-001 -1.10847601327440692387e+000 +1.00466998571091381542e+000 -1.23218403604020663999e-002
7.87319683573755202815e+005 +3.59746043656866021365e-001 +9.78033429170755641557e-001 -5.08581330062789216395e-003 +1.08729164635808003142e-002 +4.34904470439155033112e-001 -1.12137527307532636200e+000 +1.00483909152271388976e+000 -1.24652396899210711478e-002
8.01279664960446767509e+005 +3.46410154861663599490e-001 +9.89034975085037793008e-001 -5.23405975420872682929e-003 +1.09952004698203112398e-002 +4.50193376241975196095e-001 -1.13398605172140509723e+000 +1.00500904841930505107e+000 -1.26054319311632717637e-002
8.15239646347138215788e+005 +3.33013204032614251737e-001 +9.99785939700869596969e-001 -5.38298499547248780750e-003 +1.11146993733707167423e-002 +4.65552286582303964657e-001 -1.14630961779082030105e+000 +1.00517978351089221078e+000 -1.27424311978870663520e-002
8.29199627733829664066e+005 +3.19560805910578449307e-001 +1.01028757056764972866e+000 -5.53252660893856045010e-003 +1.12314270198174467191e-002 +4.80974764445155689163e-001 -1.15834739820457377490e+000 +1.00535122524135256405e+000 -1.28762533632515736165e-002
8.43159609120521228760e+005 +3.06058467749535323410e-001 +1.02054124739714757730e+000 -5.68262337399126106485e-003 +1.13453987254074194907e-002 +4.96454496044095416885e-001 -1.17010097162152360006e+000 +1.00552330342441487154e+000 -1.30069159864591651909e-002
8.57119590507212677039e+005 +2.92511586762154107699e-001 +1.03054847632196144858e+000 -5.83321529327549600369e-003 +1.14566312131020309195e-002 +5.11985293749718017864e-001 -1.18157206183804430744e+000 +1.00569594927621186464e+000 -1.31344382394430678196e-002
8.71079571893904125318e+005 +2.78925447842830243061e-001 +1.04031088416938555241e+000 -5.98424361800807200207e-003 +1.15651425488132314490e-002 +5.27561098700035535636e-001 -1.19276253120708042310e+000 +1.00586909544430058716e+000 -1.32588408337648896301e-002
8.85039553280595573597e+005 +2.65305221560825310601e-001 +1.04983021276302124214e+000 -6.13565087028644737949e-003 +1.16709520779583724587e-002 +5.43175983101206405479e-001 -1.20367437409053867903e+000 +1.00604267603323638269e+000 -1.33801459478776092749e-002
8.98999534667287138291e+005 +2.51655962415704592683e-001 +1.05910831326373799932e+000 -6.28738086248171752085e-003 +1.17740803624618393247e-002 +5.58824152227561432582e-001 -1.21430971035817103498e+000 +1.00621662662680688705e+000 -1.34983771549009191199e-002
9.12959516053978586569e+005 +2.37982607346895358447e-001 +1.06814714056085957594e+000 -6.43937871380677751693e-003 +1.18745491183232711879e-002 +5.74499946130296423874e-001 -1.22467077894525089299e+000 +1.00639088430702594579e+000 -1.36135593510460020661e-002
9.26919497440670034848e+005 +2.24289974488869725544e-001 +1.07694874772371385063e+000 -6.59159086415393464381e-003 +1.19723811538642414820e-002 +5.90197841064563188951e-001 -1.23475993148055351867e+000 +1.00656538766999847923e+000 -1.37257186848183023592e-002
9.40879478827361599542e+005 +2.10582762163199793681e-001 +1.08551528052297507898e+000 -6.74396508529949856997e-003 +1.20676003087574704870e-002 +6.05912450645011424477e-001 -1.24457962599533100700e+000 +1.00674007683876554076e+000 -1.38348824871174121143e-002
9.54839460214053047821e+005 +1.96865548098485332318e-001 +1.09384897203050734937e+000 -6.89645048957521038246e-003 +1.21602313939345729743e-002 +6.21638526740083685596e-001 -1.25413242072315367359e+000 +1.00691489347324547587e+000 -1.39410792023441018617e-002
9.68799441600744496100e+005 +1.83142788869014472297e-001 +1.10195213730570618083e+000 -7.04899753610816869748e-003 +1.22503001324608291889e-002 +6.37370960115542395386e-001 -1.26342096799972547494e+000 +1.00708978077738819934e+000 -1.40443383206161603177e-002
9.82759422987436060794e+005 +1.69418819542857035376e-001 +1.10982716817567039769e+000 -7.20155803473266839521e-003 +1.23378331014577478919e-002 +6.53104780837904463908e-001 -1.27244800827096860019e+000 +1.00726468350365983007e+000 -1.41446903111853636292e-002
9.96719404374127509072e+005 +1.55697853530027574553e-001 +1.11747652811583253474e+000 -7.35408514767799462164e-003 +1.24228576751468349632e-002 +6.68835158448496280847e-001 -1.28121636421692874919e+000 +1.00743954795497647758e+000 -1.42421665571398972649e-002
1.01067938576081895735e+006 +1.41983982621286974890e-001 +1.12490274723706096260e+000 -7.50653338913698491702e-003 +1.25054019690807368542e-002 +6.84557401918962415976e-001 -1.28972893499832164110e+000 +1.00761432198421152506e+000 -1.43367992914681125632e-002
1.02463936714751052205e+006 +1.28281177208167757042e-001 +1.13210841738456235994e+000 -7.65885862282011855434e-003 +1.25854947856209042900e-002 +7.00266959399004962350e-001 -1.29798869063178079486e+000 +1.00778895499139009573e+000 -1.44286215345513085806e-002
1.03859934853420197032e+006 +1.14593286674794847535e-001 +1.13909618735334428052e+000 -7.81101805759979155724e-003 +1.26631655607141249686e-002 +7.15959417767172867642e-001 -1.30599866649921003692e+000 +1.00796339791869637992e+000 -1.45176670331456474095e-002
1.05255932992089353502e+006 +1.00924039952163188683e-001 +1.14586875822438316597e+000 -7.96297024134873243639e-003 +1.27384443120138433903e-002 +7.31630501995401694160e-001 -1.31376195799595074654e+000 +1.00813760324340884189e+000 -1.46039702009057564130e-002
1.06651931130758486688e+006 +8.72770462256053508598e-002 +1.15242887882508004971e+000 -8.11467505307551274785e-003 +1.28113615883856894057e-002 +7.47276074337932527669e-001 -1.32128171532182703274e+000 +1.00831152496888409864e+000 -1.46875660604953699878e-002
1.08047929269427643158e+006 +7.36557957862789131065e-002 +1.15877934131702464704e+000 -8.26609369345901803805e-003 +1.28819484208307355466e-002 +7.62892133355118629012e-001 -1.32856113841850320689e+000 +1.00848511861370648823e+000 -1.47684901873231869129e-002
1.09443927408096799627e+006 +6.00636610176782451131e-002 +1.16492297691360402467e+000 -8.41718867388201175128e-003 +1.29502362748542924897e-002 +7.78474812782430247715e-001 -1.33560347205602769627e+000 +1.00865834119911368383e+000 -1.48467786549361154685e-002
1.10839925546765932813e+006 +4.65038975082934166738e-002 +1.17086265172946624169e+000 -8.56792380406239638402e-003 +1.30162570043024488492e-002 +7.94020380254849555968e-001 -1.34241200107083225035e+000 +1.00883115123481759134e+000 -1.49224679820951292020e-002
1.12235923685435089283e+006 +3.29796452817409865843e-002 +1.17660126276337773099e+000 -8.71826417837858781701e-003 +1.30800428066833954871e-002 +8.09525235896577433081e-001 -1.34899004575693992614e+000 +1.00900350870332755626e+000 -1.49955950815534068410e-002
1.13631921824104245752e+006 +1.94939301358867389524e-002 +1.18214173401560596055e+000 -8.86817616098332581198e-003 +1.31416261799857225084e-002 +8.24985910785798415290e-001 -1.35534095741163262971e+000 +1.00917537504288334915e+000 -1.50661972105506115904e-002
1.15027919962773378938e+006 +6.04966508268485556737e-003 +1.18748701274049128784e+000 -9.01762736979789050751e-003 +1.32010398810011655990e-002 +8.40399065303970793650e-001 -1.36146811403634382387e+000 +1.00934671312910495544e+000 -1.51343119230320267976e-002
1.16423918101442535408e+006 -7.35034811930688255360e-003 +1.19264006583451509513e+000 -9.16658665947607011193e-003 +1.32583168851549398209e-002 +8.55761487378875473908e-001 -1.36737491619309636803e+000 +1.00951748725546286423e+000 -1.51999770235960902920e-002
1.17819916240111668594e+006 -2.07034173475502888961e-002 +1.19760387635978360343e+000 -9.31502410342483454231e-003 +1.33134903478426946249e-002 +8.71070090630375659657e-001 -1.37306478301636847306e+000 +1.00968766311266500146e+000 -1.52632305231690142133e-002
1.19215914378780825064e+006 -3.40069584208357728050e-002 +1.20238144020251414013e+000 -9.46291097496549347967e-003 +1.33665935672694167341e-002 +8.86321912427531000134e-001 -1.37854114837992036691e+000 +1.00985720776705911739e+000 -1.53241105964015827956e-002
1.20611912517449981533e+006 -4.72584933345943508654e-002 +1.20697576286579288940e+000 -9.61021972771678931191e-003 +1.34176599487819802475e-002 +9.01514111865477252294e-001 -1.38380745721770592738e+000 +1.01002608963814299869e+000 -1.53826555407781413037e-002
1.22007910656119114719e+006 -6.04556484332410062899e-002 +1.21138985639555762930e+000 -9.75692397527801874579e-003 +1.34667229706837161124e-002 +9.16643967670106807333e-001 -1.38886716199767179525e+000 +1.01019427847527154540e+000 -1.54389037374247049816e-002
1.23403908794788271189e+006 -7.35961525263323229629e-002 +1.21562673643852248162e+000 -9.90299847028752733280e-003 +1.35138161515166079635e-002 +9.31708876038336741843e-001 -1.39372371934695804541e+000 +1.01036174533364997430e+000 -1.54928936135996717094e-002
1.24799906933457427658e+006 -8.66778349550375026844e-002 +1.21968941943047948229e+000 -1.00484190829289114083e-002 +1.35589730187936265832e-002 +9.46706348421420318395e-001 -1.39838058682669030830e+000 +1.01052846254969086459e+000 -1.55446636068469791481e-002
1.26195905072126560844e+006 -9.96986236151529425786e-002 +1.22358091991320039327e+000 -1.01931627789541307677e-002 +1.36022270791614618285e-002 +9.61634009258425459521e-001 -1.40284121985432497226e+000 +1.01069440371581942273e+000 -1.55942521307892174171e-002
1.27591903210795717314e+006 -1.12656542942615095493e-001 +1.22730424797796433545e+000 -1.03372075972897325968e-002 +1.36436117899715499135e-002 +9.76489593666732713650e-001 -1.40710906877126595838e+000 +1.01085954365479979700e+000 -1.56416975425351968687e-002
1.28987901349464873783e+006 -1.25549711867194074832e-001 +1.23086240683352809988e+000 -1.04805326272894138578e-002 +1.36831605322351480825e-002 +9.91270945096049294065e-001 -1.41118757605325439997e+000 +1.01102385839365727094e+000 -1.56870381116743090599e-002
1.30383899488134006970e+006 -1.38376341739787411811e-001 +1.23425839049620433840e+000 -1.06231179856929973393e-002 +1.37209065849364063305e-002 +1.00597601295215266504e+000 -1.41508017366083249655e+000 +1.01118732513726117261e+000 -1.57303119908278089822e-002
1.31779897626803163439e+006 -1.51134734238433404707e-001 +1.23749518159957561103e+000 -1.07649447933489943868e-002 +1.37568831006759408064e-002 +1.02060285019624386038e+000 -1.41879028052705180585e+000 +1.01134992224164044217e+000 -1.57715571877253234179e-002
1.33175895765472319908e+006 -1.63823279257936382791e-001 +1.24057574932121661426e+000 -1.09059951517548828909e-002 +1.37911230826155833951e-002 +1.03514961092551160959e+000 -1.42232130017940172628e+000 +1.01151162918708714678e+000 -1.58108115387732041379e-002
1.34571893904141453095e+006 -1.76440452787702428683e-001 +1.24350304742369832667e+000 -1.10462521194663650798e-002 +1.38236593626941944163e-002 +1.04961454794017416958e+000 -1.42567661849283378039e+000 +1.01167242655111078165e+000 -1.58481126840800540245e-002
1.35967892042810609564e+006 -1.88984814782133053734e-001 +1.24628001240706964836e+000 -1.11856996884239293100e-002 +1.38545245810828832056e-002 +1.06399601030200208207e+000 -1.42885960157064628717e+000 +1.01183229598129864613e+000 -1.58834980439031651922e-002
1.37363890181479766034e+006 -2.01455007027686289200e-001 +1.24890956176987799608e+000 -1.13243227602423130601e-002 +1.38837511668474643950e-002 +1.07829244088900511045e+000 -1.43187359374987588367e+000 +1.01199122016813225500e+000 -1.59170047964790062345e-002
1.38759888320148899220e+006 -2.13849751010435462639e-001 +1.25139459237579075968e+000 -1.14621071225055187748e-002 +1.39113713197850704523e-002 +1.09250237395070382007e+000 -1.43472191572781238023e+000 +1.01214918281781152132e+000 -1.59486698571998097851e-002
1.40155886458818055689e+006 -2.26167845787745958042e-001 +1.25373797892276406252e+000 -1.15990394251076489596e-002 +1.39374169934011072486e-002 +1.10662443266810894826e+000 -1.43740786280612176107e+000 +1.01230616862512978749e+000 -1.59785298590974927935e-002
1.41551884597487212159e+006 -2.38408165867434518326e-001 +1.25594257251171037559e+000 -1.17351071566768310611e-002 +1.39619198789926284021e-002 +1.12065732672229367850e+000 -1.43993470324910077807e+000 +1.01246216324644588980e+000 -1.60066211345960586476e-002
1.42947882736156345345e+006 -2.50569659097551078464e-001 +1.25801119931154903320e+000 -1.18702986211173013020e-002 +1.39849113908034599491e-002 +1.13459984987513040622e+000 -1.44230567675247911552e+000 +1.01261715327279100407e+000 -1.60329796984927490378e-002
1.44343880874825501814e+006 -2.62651344569712119625e-001 +1.25994665931754257215e+000 -1.20046029143021371066e-002 +1.40064226522165942435e-002 +1.14845087756557528991e+000 -1.44452399301919731656e+000 +1.01277112620314668767e+000 -1.60576412321281787599e-002
1.45739879013494658284e+006 -2.74652310538682054020e-001 +1.26175172519977607521e+000 -1.21380099009465482196e-002 +1.40264844829489469802e-002 +1.16220936452457057619e+000 -1.44659283043858488682e+000 +1.01292407041793297573e+000 -1.60806410687059087028e-002
1.47135877152163791470e+006 -2.86571712360708497069e-001 +1.26342914123866378873e+000 -1.22705101916896590353e-002 +1.40451273872137863408e-002 +1.17587434241145349922e+000 -1.44851533486534345130e+000 +1.01307597515273295485e+000 -1.61020141797212287815e-002
1.48531875290832947940e+006 -2.98408770452913474358e-001 +1.26498162234436928308e+000 -1.24020951204104265542e-002 +1.40623815428162230595e-002 +1.18944491747450253882e+000 -1.45029461849476670743e+000 +1.01322683047228667697e+000 -1.61217951624596581017e-002
1.49927873429502104409e+006 -3.10162768275851707944e-001 +1.26641185315704207781e+000 -1.25327567218010069161e-002 +1.40782767911472907196e-002 +1.20292026823804554247e+000 -1.45193375883064268450e+000 +1.01337662724478039245e+000 -1.61400182285256245385e-002
1.51323871568171237595e+006 -3.21833050341150672669e-001 +1.26772248722478142469e+000 -1.26624877092189648542e-002 +1.40928426280423329392e-002 +1.21629964321832151342e+000 -1.45343579774230757806e+000 +1.01352535711645530547e+000 -1.61567171933621814284e-002
1.52719869706840394065e+006 -3.33419020246008890318e-001 +1.26891614625631765634e+000 -1.27912814528380828355e-002 +1.41061081954700854452e-002 +1.22958235867013021547e+000 -1.45480374060737904784e+000 +1.01367301248655827806e+000 -1.61719254667228445888e-002
1.54115867845509550534e+006 -3.44920138736108494726e-001 +1.26999541944536997740e+000 -1.29191319581150008966e-002 +1.41181022740188340941e-002 +1.24276779636606549140e+000 -1.45604055553668976231e+000 +1.01381958648265491085e+000 -1.61856760440573926862e-002
1.55511865984178683721e+006 -3.56335921798386467962e-001 +1.27096286286374726693e+000 -1.30460338445877472441e-002 +1.41288532761468070553e-002 +1.25585540140997342640e+000 -1.45714917267806698398e+000 +1.01396507293632409663e+000 -1.61980014987737896970e-002
1.56907864122847840190e+006 -3.67665938784929091643e-001 +1.27182099892025846088e+000 -1.31719823250203045550e-002 +1.41383892401643895820e-002 +1.26884468008609374579e+000 -1.45813248359556979494e+000 +1.01410946635924692494e+000 -1.62089339753390820897e-002
1.58303862261516973376e+006 -3.78909810569110050427e-001 +1.27257231588258257204e+000 -1.32969731849056447409e-002 +1.41467378249163014403e-002 +1.28173519774516764258e+000 -1.45899334072094055692e+000 +1.01425276191970903383e+000 -1.62185051831827548030e-002
1.59699860400186129846e+006 -3.90067207734979159994e-001 +1.27321926745928237779e+000 -1.34210027623382233825e-002 +1.41539263051325327897e-002 +1.29452657672866533467e+000 -1.45973455687401987291e+000 +1.01439495541952462432e+000 -1.62267463913668558151e-002
