! File created by NanoVNA MOD v3.0 by alex_m https://www.rtl-sdr.com/forum/viewtopic.php?f=4&t=4881
! Start 1000000Hz  Stop 30000000Hz   Points 101
# Hz S MA R 50
! S - Parameter data, F S11 S21 (S12 and S22 are invalid)
1000000	0.602437198	178.091198417	0.795488440	1.229759231	1.0	0.0	1.0	0.0
1290000	0.601771813	177.968002684	0.795799680	0.922026671	1.0	0.0	1.0	0.0
1580000	0.601719360	177.794761491	0.795433268	0.700475303	1.0	0.0	1.0	0.0
1870000	0.601557193	177.570438102	0.795267881	0.539886001	1.0	0.0	1.0	0.0
2160000	0.601575185	177.326590747	0.795073435	0.435231228	1.0	0.0	1.0	0.0
2450000	0.601404188	177.083618189	0.794975804	0.345577080	1.0	0.0	1.0	0.0
2740000	0.601657115	176.807081237	0.794432321	0.290011746	1.0	0.0	1.0	0.0
3030000	0.601496317	176.528971201	0.793627140	0.245750957	1.0	0.0	1.0	0.0
3320000	0.601595401	176.214735157	0.794195215	0.206039891	1.0	0.0	1.0	0.0
3610000	0.601425777	175.925226165	0.794065877	0.199655590	1.0	0.0	1.0	0.0
3900000	0.601542754	175.645201282	0.794090837	0.156580955	1.0	0.0	1.0	0.0
4190000	0.601548644	175.358940218	0.793996729	0.110075744	1.0	0.0	1.0	0.0
4480000	0.601440006	175.059976284	0.793810879	0.102849695	1.0	0.0	1.0	0.0
4770000	0.601443471	174.756012631	0.793809628	0.081161351	1.0	0.0	1.0	0.0
5060000	0.601481876	174.468282359	0.793590828	0.054885105	1.0	0.0	1.0	0.0
5350000	0.601148864	174.162890705	0.793689689	0.058134433	1.0	0.0	1.0	0.0
5640000	0.601334214	173.882162880	0.793679706	0.027360825	1.0	0.0	1.0	0.0
5930000	0.601212078	173.585519606	0.793786170	0.021879820	1.0	0.0	1.0	0.0
6220000	0.601230364	173.277351312	0.793799292	-0.022331155	1.0	0.0	1.0	0.0
6510000	0.601174889	173.010970681	0.793789733	-0.017586596	1.0	0.0	1.0	0.0
6800000	0.601123631	172.681357007	0.793792209	-0.034646027	1.0	0.0	1.0	0.0
7090000	0.601047966	172.378795092	0.793640698	-0.060448507	1.0	0.0	1.0	0.0
7380000	0.601065769	172.110935044	0.793630033	-0.066144536	1.0	0.0	1.0	0.0
7670000	0.600875371	171.806976941	0.793767546	-0.068642416	1.0	0.0	1.0	0.0
7960000	0.601228853	171.513642510	0.793474021	-0.084775505	1.0	0.0	1.0	0.0
8250000	0.601001583	171.230738691	0.793582334	-0.091932861	1.0	0.0	1.0	0.0
8540000	0.601012586	170.917570876	0.793610566	-0.115276843	1.0	0.0	1.0	0.0
8830000	0.600911485	170.626087841	0.793419293	-0.118359570	1.0	0.0	1.0	0.0
9120000	0.601038431	170.331424867	0.792803210	-0.147692807	1.0	0.0	1.0	0.0
9410000	0.600901074	170.017548898	0.793366603	-0.156385403	1.0	0.0	1.0	0.0
9700000	0.601075939	169.735343901	0.793304346	-0.181802653	1.0	0.0	1.0	0.0
9990000	0.600970068	169.426118176	0.792122568	-0.169437868	1.0	0.0	1.0	0.0
10280000	0.600967317	169.141394072	0.792609137	-0.197763178	1.0	0.0	1.0	0.0
10570000	0.601249357	168.849751537	0.793339183	-0.218004497	1.0	0.0	1.0	0.0
10860000	0.601067615	168.561801825	0.792913790	-0.205854406	1.0	0.0	1.0	0.0
11150000	0.601127791	168.269672957	0.792899683	-0.237615602	1.0	0.0	1.0	0.0
11440000	0.601124877	167.983350021	0.793062588	-0.231259210	1.0	0.0	1.0	0.0
11730000	0.601012669	167.683113400	0.793122605	-0.235530391	1.0	0.0	1.0	0.0
12020000	0.601209323	167.369748387	0.792232568	-0.250036688	1.0	0.0	1.0	0.0
12310000	0.601317962	167.073677922	0.792862334	-0.256320632	1.0	0.0	1.0	0.0
12600000	0.601366905	166.768079410	0.792757864	-0.277829344	1.0	0.0	1.0	0.0
12890000	0.601117793	166.488064520	0.792651786	-0.294999270	1.0	0.0	1.0	0.0
13180000	0.601306952	166.194439650	0.792608212	-0.304866332	1.0	0.0	1.0	0.0
13470000	0.601476258	165.924778351	0.792385959	-0.303419690	1.0	0.0	1.0	0.0
13760000	0.601629185	165.607712177	0.792551012	-0.326897942	1.0	0.0	1.0	0.0
14050000	0.601527184	165.328605736	0.792480860	-0.341103921	1.0	0.0	1.0	0.0
14340000	0.601644172	165.045695204	0.791744196	-0.354709993	1.0	0.0	1.0	0.0
14630000	0.601590905	164.742314411	0.792509440	-0.359682980	1.0	0.0	1.0	0.0
14920000	0.601690225	164.445549119	0.791950248	-0.374714275	1.0	0.0	1.0	0.0
15210000	0.601710982	164.144571332	0.792109093	-0.381656110	1.0	0.0	1.0	0.0
15500000	0.601936605	163.850050720	0.791946503	-0.403012814	1.0	0.0	1.0	0.0
15790000	0.601650407	163.577394164	0.791957001	-0.395726067	1.0	0.0	1.0	0.0
16080000	0.601962739	163.280271243	0.791795811	-0.411803256	1.0	0.0	1.0	0.0
16370000	0.602123195	162.986956650	0.791562411	-0.424631955	1.0	0.0	1.0	0.0
16660000	0.602222442	162.694059136	0.791619246	-0.416440127	1.0	0.0	1.0	0.0
16950000	0.602125743	162.395600193	0.791647000	-0.447562026	1.0	0.0	1.0	0.0
17240000	0.602211148	162.104570079	0.791409328	-0.459549599	1.0	0.0	1.0	0.0
17530000	0.602438221	161.815006670	0.791231347	-0.453814092	1.0	0.0	1.0	0.0
17820000	0.602390111	161.512284275	0.791372866	-0.476736994	1.0	0.0	1.0	0.0
18110000	0.602549603	161.227249970	0.791266551	-0.479444622	1.0	0.0	1.0	0.0
18400000	0.602789224	160.952431295	0.791119133	-0.484780161	1.0	0.0	1.0	0.0
18690000	0.602899896	160.652278190	0.790877613	-0.510084302	1.0	0.0	1.0	0.0
18980000	0.603056721	160.366050601	0.790467304	-0.513288110	1.0	0.0	1.0	0.0
19270000	0.602850492	160.089894731	0.790609171	-0.528889687	1.0	0.0	1.0	0.0
19560000	0.603148378	159.770410167	0.790333446	-0.528374158	1.0	0.0	1.0	0.0
19850000	0.603107252	159.483236070	0.790555973	-0.536778026	1.0	0.0	1.0	0.0
20140000	0.603317494	159.207785831	0.790341156	-0.545437830	1.0	0.0	1.0	0.0
20430000	0.603368845	158.872661770	0.790376855	-0.540920390	1.0	0.0	1.0	0.0
20720000	0.603412723	158.627935878	0.790105271	-0.568577063	1.0	0.0	1.0	0.0
21010000	0.603750531	158.335131303	0.789950269	-0.598307205	1.0	0.0	1.0	0.0
21300000	0.603678153	158.047283951	0.789687721	-0.580206652	1.0	0.0	1.0	0.0
21590000	0.604042635	157.744917119	0.789750790	-0.601991455	1.0	0.0	1.0	0.0
21880000	0.604080159	157.449100811	0.789679693	-0.605148747	1.0	0.0	1.0	0.0
22170000	0.604303307	157.184982200	0.789501553	-0.602379420	1.0	0.0	1.0	0.0
22460000	0.604262430	156.900571036	0.789057467	-0.619182268	1.0	0.0	1.0	0.0
22750000	0.604542270	156.589259533	0.789273724	-0.630609311	1.0	0.0	1.0	0.0
23040000	0.604700651	156.301084688	0.788938446	-0.640907582	1.0	0.0	1.0	0.0
23330000	0.604920500	156.026145146	0.788901783	-0.645950563	1.0	0.0	1.0	0.0
23620000	0.604952648	155.728727660	0.788646235	-0.651012322	1.0	0.0	1.0	0.0
23910000	0.605053839	155.440118484	0.788656600	-0.686052147	1.0	0.0	1.0	0.0
24200000	0.605229443	155.163042263	0.788338978	-0.676473603	1.0	0.0	1.0	0.0
24490000	0.605259015	154.881168628	0.788119919	-0.694152818	1.0	0.0	1.0	0.0
24780000	0.605452726	154.591832883	0.788073418	-0.680765547	1.0	0.0	1.0	0.0
25070000	0.605863130	154.304703639	0.788064233	-0.700261654	1.0	0.0	1.0	0.0
25360000	0.605736635	154.009301904	0.787918150	-0.711074276	1.0	0.0	1.0	0.0
25650000	0.606163530	153.734611278	0.787865950	-0.723873743	1.0	0.0	1.0	0.0
25940000	0.606088422	153.434756717	0.787407958	-0.731737959	1.0	0.0	1.0	0.0
26230000	0.606460267	153.163544680	0.787135732	-0.725441283	1.0	0.0	1.0	0.0
26520000	0.606567520	152.861892174	0.787317779	-0.740100796	1.0	0.0	1.0	0.0
26810000	0.606593224	152.583056991	0.786273797	-0.751619310	1.0	0.0	1.0	0.0
27100000	0.606918788	152.294454878	0.787110579	-0.758543881	1.0	0.0	1.0	0.0
27390000	0.607010724	152.025243471	0.787096432	-0.762395618	1.0	0.0	1.0	0.0
27680000	0.607122189	151.750396881	0.786611379	-0.782015791	1.0	0.0	1.0	0.0
27970000	0.607445244	151.456706984	0.786505502	-0.798520618	1.0	0.0	1.0	0.0
28260000	0.607674581	151.159176829	0.786147490	-0.781473668	1.0	0.0	1.0	0.0
28550000	0.607861226	150.894332154	0.786076569	-0.801050582	1.0	0.0	1.0	0.0
28840000	0.607754473	150.613222468	0.785870431	-0.815081180	1.0	0.0	1.0	0.0
29130000	0.608033397	150.333281410	0.785506887	-0.817443367	1.0	0.0	1.0	0.0
29420000	0.608239940	150.035176945	0.785594642	-0.831081721	1.0	0.0	1.0	0.0
29710000	0.608963077	149.768468096	0.785548866	-0.864774034	1.0	0.0	1.0	0.0
30000000	0.608745602	149.477302703	0.785195831	-0.871387501	1.0	0.0	1.0	0.0
