! File created by NanoVNA MOD v3.0 by alex_m https://www.rtl-sdr.com/forum/viewtopic.php?f=4&t=4881
! Start 1000000Hz  Stop 30000000Hz   Points 101
# Hz S MA R 50
!S - Parameter data, F S11
1000000	0.979777073	32.151227085
1290000	0.984298197	24.379858911
1580000	0.986064400	19.144092132
1870000	0.987198330	15.311496761
2160000	0.986970983	12.375094884
2450000	0.986272880	10.036619377
2740000	0.986399588	8.094041580
3030000	0.986097192	6.423248735
3320000	0.986591243	4.963258222
3610000	0.986231098	3.672697487
3900000	0.985674999	2.492257405
4190000	0.985886329	1.450174959
4480000	0.985932460	0.408580284
4770000	0.986138377	-0.553564643
5060000	0.986300702	-1.426702462
5350000	0.985997082	-2.298803937
5640000	0.986106466	-3.107189804
5930000	0.986263882	-3.875049611
6220000	0.985519420	-4.653265019
6510000	0.986072178	-5.382715755
6800000	0.985398678	-6.116139849
7090000	0.985723088	-6.819781999
7380000	0.985719803	-7.505862513
7670000	0.985115503	-8.212102987
7960000	0.985250212	-8.899862915
8250000	0.984726513	-9.539654357
8540000	0.984434526	-10.217058425
8830000	0.984423919	-10.893624505
9120000	0.983774916	-11.552101904
9410000	0.983562252	-12.231803829
9700000	0.982844658	-12.904473960
9990000	0.981836899	-13.594036319
10280000	0.981382684	-14.289625160
10570000	0.980297707	-14.985343477
10860000	0.979056574	-15.699298159
11150000	0.977199017	-16.419346828
11440000	0.974926429	-17.184432910
11730000	0.972914095	-17.965958479
12020000	0.969080699	-18.787233917
12310000	0.965374471	-19.640860420
12600000	0.959357683	-20.573417242
12890000	0.951859448	-21.518114262
13180000	0.941374998	-22.551780333
13470000	0.927051764	-23.601882770
13760000	0.905196108	-24.611791047
14050000	0.875442545	-25.292374839
14340000	0.837875541	-25.172198409
14630000	0.799541939	-23.512641154
14920000	0.781047988	-20.247376653
15210000	0.797555890	-16.733226429
15500000	0.835205161	-14.969910147
15790000	0.872720910	-14.796729305
16080000	0.902356673	-15.444979710
16370000	0.924294721	-16.404315591
16660000	0.939263051	-17.412136181
16950000	0.949316469	-18.404002864
17240000	0.957349082	-19.351741124
17530000	0.963169274	-20.240991414
17820000	0.967283229	-21.022216837
18110000	0.970878504	-21.832809211
18400000	0.973767884	-22.581896135
18690000	0.975739818	-23.268593437
18980000	0.977767273	-23.974479172
19270000	0.979057559	-24.633536682
19560000	0.980363629	-25.305966403
19850000	0.981088225	-25.922812668
20140000	0.981780215	-26.538995636
20430000	0.982267879	-27.143971820
20720000	0.983211002	-27.744991045
21010000	0.984048147	-28.315658785
21300000	0.984149965	-28.909146264
21590000	0.984631303	-29.488079445
21880000	0.985097514	-30.051141723
22170000	0.985581746	-30.577391036
22460000	0.985292251	-31.158331308
22750000	0.985952917	-31.717263746
23040000	0.986051819	-32.260361660
23330000	0.986236026	-32.815249054
23620000	0.986451947	-33.354251121
23910000	0.986716957	-33.918132239
24200000	0.986208829	-34.433748374
24490000	0.986483635	-34.969278447
24780000	0.986998693	-35.541942676
25070000	0.986388602	-36.077072496
25360000	0.986250649	-36.587494194
25650000	0.986633281	-37.136444867
25940000	0.986755959	-37.695098032
26230000	0.986395561	-38.246773736
26520000	0.986289253	-38.745040319
26810000	0.986828375	-39.300556312
27100000	0.986764864	-39.875351869
27390000	0.986628351	-40.438871804
27680000	0.986477218	-40.988474049
27970000	0.986525159	-41.526967644
28260000	0.986210516	-42.103992365
28550000	0.986344269	-42.664921034
28840000	0.986106237	-43.236437527
29130000	0.985914308	-43.845813205
29420000	0.985811328	-44.413414166
29710000	0.985373597	-44.975396420
30000000	0.986020417	-45.582979575
