! File created by NanoVNA MOD v3.0 by alex_m https://www.rtl-sdr.com/forum/viewtopic.php?f=4&t=4881
! Start 1000000Hz  Stop 30000000Hz   Points 101
# Hz S MA R 50
!S - Parameter data, F S11
1000000	0.956868707	-0.111958871
1290000	0.954414044	-2.140291670
1580000	0.953457338	-3.753035323
1870000	0.953589198	-5.255391106
2160000	0.953698471	-6.641140434
2450000	0.953890607	-7.990237360
2740000	0.954860963	-9.298639208
3030000	0.955180371	-10.628961733
3320000	0.956138899	-11.892141600
3610000	0.956052716	-13.185678234
3900000	0.956130246	-14.428042309
4190000	0.956187070	-15.665367308
4480000	0.956260338	-16.922410478
4770000	0.956298167	-18.169224986
5060000	0.956332581	-19.375200215
5350000	0.956005416	-20.633959684
5640000	0.955792074	-21.826519678
5930000	0.955543285	-23.039041941
6220000	0.954631724	-24.235487364
6510000	0.954737703	-25.442357167
6800000	0.953978852	-26.641829143
7090000	0.953593160	-27.837845713
7380000	0.953282208	-29.016663341
7670000	0.952281689	-30.216398543
7960000	0.952032327	-31.394722999
8250000	0.951460436	-32.557004448
8540000	0.950974906	-33.735385619
8830000	0.950653999	-34.936081249
9120000	0.949872072	-36.097521761
9410000	0.949285859	-37.285038073
9700000	0.948793186	-38.459668404
9990000	0.948272184	-39.643260821
10280000	0.948034609	-40.852434570
10570000	0.947191016	-42.019882114
10860000	0.946990156	-43.207932943
11150000	0.946411104	-44.361531042
11440000	0.945411173	-45.562250471
11730000	0.945054573	-46.744242939
12020000	0.944057915	-47.967794926
12310000	0.943785587	-49.149269714
12600000	0.942891366	-50.373557729
12890000	0.942136827	-51.558502957
13180000	0.941435584	-52.790098363
13470000	0.940865400	-54.023687945
13760000	0.939753706	-55.264190753
14050000	0.939024800	-56.542484147
14340000	0.937970893	-57.841307788
14630000	0.937065786	-59.130184678
14920000	0.936374370	-60.520474856
15210000	0.934465844	-61.881820125
15500000	0.933080835	-63.375184612
15790000	0.930546201	-64.953299777
16080000	0.927124082	-66.719451568
16370000	0.922157011	-68.774074922
16660000	0.912907374	-71.236625511
16950000	0.894019818	-74.612033137
17240000	0.840472553	-79.924299290
17530000	0.634741561	-85.477413719
17820000	0.612698594	-50.849715678
18110000	0.842876541	-56.179308369
18400000	0.897931942	-61.984794399
18690000	0.915232316	-65.536036719
18980000	0.922405397	-68.116384916
19270000	0.925360243	-70.168211935
19560000	0.926970046	-71.966975010
19850000	0.927481115	-73.538276549
20140000	0.927798785	-75.037418216
20430000	0.927454947	-76.433823743
20720000	0.928073081	-77.783248141
21010000	0.927709218	-79.070173195
21300000	0.927304878	-80.362197390
21590000	0.926649049	-81.568914152
21880000	0.926660371	-82.819332112
22170000	0.926068230	-83.994209457
22460000	0.925046421	-85.206938190
22750000	0.925109852	-86.360564993
23040000	0.924515653	-87.531560608
23330000	0.923787930	-88.686219752
23620000	0.923274295	-89.847868372
23910000	0.922991735	-91.000992259
24200000	0.922161694	-92.124860481
24490000	0.921561568	-93.265999825
24780000	0.921233916	-94.391245440
25070000	0.920098800	-95.518223947
25360000	0.919569629	-96.633068541
25650000	0.919434401	-97.770011803
25940000	0.918589359	-98.883889458
26230000	0.917728549	-100.016857364
26520000	0.917263050	-101.098363941
26810000	0.916871028	-102.245968304
27100000	0.916249182	-103.352447931
27390000	0.915275731	-104.459651970
27680000	0.914650068	-105.601722470
27970000	0.913862739	-106.668542894
28260000	0.912883609	-107.801883104
28550000	0.912192479	-108.924119492
28840000	0.911142889	-110.035660342
29130000	0.909899542	-111.179904730
29420000	0.908602372	-112.263672373
29710000	0.907204290	-113.346411367
30000000	0.906257592	-114.456062795
