! File created by NanoVNA MOD v3.0 by alex_m https://www.rtl-sdr.com/forum/viewtopic.php?f=4&t=4881
! Start 1000000Hz  Stop 30000000Hz   Points 101
# Hz S MA R 50
!S - Parameter data, F S11
1000000	0.968792110	92.856669802
1290000	0.972083992	77.976755470
1580000	0.974932056	66.366036038
1870000	0.977679957	57.154746411
2160000	0.979408887	49.720515270
2450000	0.980696624	43.640222039
2740000	0.981867193	38.553098324
3030000	0.982739428	34.197744785
3320000	0.984164599	30.437632854
3610000	0.984130409	27.143276082
3900000	0.984472779	24.217610604
4190000	0.984498360	21.619281929
4480000	0.984533827	19.222013264
4770000	0.985047785	17.049737315
5060000	0.985149943	15.075750349
5350000	0.984813760	13.193568735
5640000	0.984446559	11.483018463
5930000	0.984409895	9.864233386
6220000	0.983373199	8.324319004
6510000	0.983408081	6.871055135
6800000	0.982556984	5.456067831
7090000	0.981563548	4.115015579
7380000	0.981100458	2.830977011
7670000	0.979930685	1.574093429
7960000	0.979269604	0.354309399
8250000	0.978117479	-0.825861416
8540000	0.976780679	-1.984101052
8830000	0.975843297	-3.146232812
9120000	0.974100628	-4.259450352
9410000	0.972686346	-5.412240210
9700000	0.970724040	-6.536665002
9990000	0.968361031	-7.661699000
10280000	0.966155710	-8.788194496
10570000	0.963066243	-9.926993556
10860000	0.960009720	-11.074555891
11150000	0.956154900	-12.222131058
11440000	0.951341276	-13.436771361
11730000	0.946691864	-14.645637440
12020000	0.940202111	-15.924718851
12310000	0.933350666	-17.211110202
12600000	0.924781355	-18.559485198
12890000	0.914377211	-19.973997024
13180000	0.902135653	-21.421148759
13470000	0.887601547	-22.960253856
13760000	0.868834439	-24.547921375
14050000	0.846085202	-26.187025380
14340000	0.817993736	-27.800384632
14630000	0.783207957	-29.346616398
14920000	0.741284870	-30.602419908
15210000	0.690862567	-31.273020885
15500000	0.634444252	-30.774626124
15790000	0.577396165	-28.367800257
16080000	0.530695205	-23.301306504
16370000	0.509965363	-15.973929004
16660000	0.522479663	-8.320441069
16950000	0.563175430	-2.641084860
17240000	0.617620624	0.402611282
17530000	0.674274287	1.297597791
17820000	0.725341454	0.954980017
18110000	0.768514649	-0.097492493
18400000	0.804886040	-1.476456013
18690000	0.834125777	-2.963719979
18980000	0.857837323	-4.502451801
19270000	0.877051458	-5.990812154
19560000	0.892837282	-7.432404242
19850000	0.905414142	-8.791411989
20140000	0.916143817	-10.092330020
20430000	0.924570776	-11.317790340
20720000	0.932472568	-12.493720317
21010000	0.938649322	-13.610024288
21300000	0.943885392	-14.684808451
21590000	0.948905128	-15.702862686
21880000	0.952539904	-16.714847699
22170000	0.956278063	-17.649846676
22460000	0.958677378	-18.582862769
22750000	0.961829696	-19.495105935
23040000	0.963910077	-20.369551170
23330000	0.965582449	-21.220822016
23620000	0.967510411	-22.059848467
23910000	0.968742602	-22.890804901
24200000	0.970192883	-23.696114320
24490000	0.970949879	-24.483830193
24780000	0.972384924	-25.286445068
25070000	0.973134287	-26.082211004
25360000	0.973819023	-26.830979316
25650000	0.974776087	-27.608850353
25940000	0.976059041	-28.380027144
26230000	0.976150924	-29.183141733
26520000	0.976418202	-29.927931492
26810000	0.977139383	-30.723836279
27100000	0.977169263	-31.526714342
27390000	0.977360546	-32.318756039
27680000	0.977918238	-33.090818037
27970000	0.978011792	-33.909680069
28260000	0.977692814	-34.753984324
28550000	0.977654694	-35.587652946
28840000	0.977096452	-36.438944629
29130000	0.976631491	-37.301447085
29420000	0.976416252	-38.168250834
29710000	0.974804732	-39.101766754
30000000	0.975333513	-40.032271435
