! File created by NanoVNA MOD v3.0 by alex_m https://www.rtl-sdr.com/forum/viewtopic.php?f=4&t=4881
! Start 1000000Hz  Stop 30000000Hz   Points 101
# Hz S MA R 50
!S - Parameter data, F S11
1000000	0.979672331	152.431742673
1290000	0.977013053	144.858614669
1580000	0.975355372	137.459212408
1870000	0.972943391	130.273335842
2160000	0.971198743	123.337174904
2450000	0.968833124	116.670019586
2740000	0.966602131	110.284423770
3030000	0.964678637	104.202189237
3320000	0.964002503	98.348709325
3610000	0.962135154	92.780899180
3900000	0.960650863	87.474110590
4190000	0.959736685	82.397517465
4480000	0.958774238	77.544544916
4770000	0.958863502	72.904884816
5060000	0.957947846	68.495637142
5350000	0.957565250	64.258856954
5640000	0.957424493	60.219396195
5930000	0.957205322	56.321374986
6220000	0.956303022	52.564081704
6510000	0.956844620	48.998806061
6800000	0.956971145	45.509652375
7090000	0.956614176	42.213612948
7380000	0.956908208	39.013626144
7670000	0.956839489	35.903858075
7960000	0.957220288	32.885615189
8250000	0.956745956	30.003866836
8540000	0.956522522	27.187338430
8830000	0.957085859	24.438528827
9120000	0.957048031	21.781209168
9410000	0.957652222	19.186839050
9700000	0.957280598	16.656126639
9990000	0.957437203	14.222434820
10280000	0.957524792	11.782402717
10570000	0.958084945	9.424514995
10860000	0.958018153	7.124396790
11150000	0.957733424	4.872608926
11440000	0.957756992	2.640004514
11730000	0.958396596	0.478776043
12020000	0.957889790	-1.682409343
12310000	0.958402540	-3.774837169
12600000	0.958292413	-5.852703614
12890000	0.957911798	-7.894272991
13180000	0.958193231	-9.888407804
13470000	0.958752583	-11.888638932
13760000	0.958126872	-13.837965007
14050000	0.958013577	-15.756640349
14340000	0.957900572	-17.672335866
14630000	0.957819226	-19.573797489
14920000	0.957879691	-21.469353397
15210000	0.957433913	-23.301786471
15500000	0.957774038	-25.160598176
15790000	0.957333695	-26.949592408
16080000	0.957240546	-28.757063315
16370000	0.957805889	-30.586411469
16660000	0.957566753	-32.371351415
16950000	0.957315581	-34.158275136
17240000	0.956901897	-35.943163928
17530000	0.956719266	-37.725500060
17820000	0.956680719	-39.464279152
18110000	0.956505658	-41.222748481
18400000	0.956144127	-42.987429859
18690000	0.955947566	-44.711139158
18980000	0.955796211	-46.476028652
19270000	0.955379485	-48.203029302
19560000	0.955000827	-49.970223255
19850000	0.954883250	-51.696156776
20140000	0.954009838	-53.428624082
20430000	0.953132064	-55.159591486
20720000	0.953208203	-56.906661008
21010000	0.953114288	-58.649354323
21300000	0.952242966	-60.398394254
21590000	0.951843967	-62.168467547
21880000	0.951154840	-63.920844906
22170000	0.950511591	-65.661135257
22460000	0.949323973	-67.457655098
22750000	0.949699203	-69.241477326
23040000	0.948477620	-71.023762706
23330000	0.946964623	-72.776569209
23620000	0.945890446	-74.573819327
23910000	0.945216292	-76.412636119
24200000	0.944354460	-78.194620342
24490000	0.943353242	-80.036929044
24780000	0.942775213	-81.874544959
25070000	0.941612292	-83.686370683
25360000	0.940739153	-85.576512256
25650000	0.940784094	-87.448824014
25940000	0.940156737	-89.445870397
26230000	0.939009516	-91.409072587
26520000	0.938800770	-93.371128102
26810000	0.938545462	-95.450171145
27100000	0.936692559	-97.509404481
27390000	0.935840322	-99.614181100
27680000	0.934982761	-101.762275818
27970000	0.933471380	-103.928601208
28260000	0.932413988	-106.205884456
28550000	0.930646515	-108.515936322
28840000	0.929227241	-110.832837734
29130000	0.927458663	-113.253866391
29420000	0.925349168	-115.699633272
29710000	0.923466180	-118.211414953
30000000	0.921862451	-120.819608986
