# HZ S RI R 50
1.00000000000000000000e+006 +7.46843393145332878902e-001 -3.43453122769198482267e-001 +2.39927983716735460096e-001 +4.26041204058554279221e-001 +2.39927983716735460096e-001 +4.26041204058554279221e-001 +2.64340118445884009191e-001 -3.36501726338536644167e-001
1.01723833854609075934e+006 +7.32244123514371403338e-001 -3.53846687870023934863e-001 +2.52419163047105044040e-001 +4.30983518307968327399e-001 +2.52419163047105044040e-001 +4.30983518307968327399e-001 +2.54168978278653145964e-001 -3.39883359404037133089e-001
1.03477383740801131353e+006 +7.16891115420310032214e-001 -3.63935417518644110935e-001 +2.65493185048500668355e-001 +4.35694593035730992625e-001 +2.65493185048500668355e-001 +4.35694593035730992625e-001 +2.43533822546538186726e-001 -3.43060804014879261459e-001
1.05261161913588806055e+006 +7.00752673036958206865e-001 -3.73673086312589497471e-001 +2.79175267765996826252e-001 +4.40135596738103762604e-001 +2.79175267765996826252e-001 +4.40135596738103762604e-001 +2.32415021005495880946e-001 -3.46001865243382389359e-001
1.07075689458410139196e+006 +6.83796769760492750834e-001 -3.83007773348436553196e-001 +2.93490764194036968249e-001 +4.44263047004409883378e-001 +2.93490764194036968249e-001 +4.44263047004409883378e-001 +2.20792931723648500064e-001 -3.48670553644542413618e-001
1.08921496443350287154e+006 +6.65991385459932749846e-001 -3.91881209568557653533e-001 +3.08464874312525005884e-001 +4.48028285318899710532e-001 +3.08464874312525005884e-001 +4.48028285318899710532e-001 +2.08648146548121526944e-001 -3.51026662695515412338e-001
1.10799122073987592012e+006 +6.47304942095086710552e-001 -4.00228063276486301092e-001 +3.24122275652439173488e-001 +4.51376903359979098074e-001 +3.24122275652439173488e-001 +4.51376903359979098074e-001 +1.95961803992125094265e-001 -3.53025308284116934310e-001
1.12709114850908634253e+006 +6.27706859664397098797e-001 -4.07975163397089946038e-001 +3.40486654466467919544e-001 +4.54248120884394090968e-001 +3.40486654466467919544e-001 +4.54248120884394090968e-001 +1.82715984162438171978e-001 -3.54616430670942395231e-001
1.14652032729938835837e+006 +6.07168258622829526416e-001 -4.15040662536663607085e-001 +3.57580116221008381672e-001 +4.56574117388253153393e-001 +3.57580116221008381672e-001 +4.56574117388253153393e-001 +1.68894203046276919489e-001 -3.55744261132283301485e-001
1.16628443285134993494e+006 +5.85662839643699806302e-001 -4.21333145482267246162e-001 +3.75422450334818802453e-001 +4.58279322753581186412e-001 +3.75422450334818802453e-001 +4.58279322753581186412e-001 +1.54482026509749709176e-001 -3.56346758026468923841e-001
1.18638923874587728642e+006 +5.63167976845744600034e-001 -4.26750693825374283197e-001 +3.94030219908300782805e-001 +4.59279676308228412829e-001 +3.94030219908300782805e-001 +4.59279676308228412829e-001 +1.39467827688048495727e-001 -3.56355020550124190759e-001
1.20684061809081747197e+006 +5.39666066248125297911e-001 -4.31179924346266119084e-001 +4.13415642722067211423e-001 +4.59481869508310436512e-001 +4.13415642722067211423e-001 +4.59481869508310436512e-001 +1.23843714976480001599e-001 -3.55692693254655745161e-001
1.22764454523664037697e+006 +5.15146177013036665748e-001 -4.34495028195089005862e-001 +4.33585225239346283566e-001 +4.58782595233737877649e-001 +4.33585225239346283566e-001 +4.58782595233737877649e-001 +1.07606661385366314532e-001 -3.54275380830103903129e-001
1.24880709752169135027e+006 +4.89606058573139046874e-001 -4.36556850396154993987e-001 +4.54538107074916486461e-001 +4.57067836985313447062e-001 +4.54538107074916486461e-001 +4.57067836985313447062e-001 +9.07598693042898363448e-002 -3.52010101147833709412e-001
1.27033445704753138125e+006 +4.63054561350470517134e-001 -4.37212065518197134928e-001 +4.76264069953691526749e-001 +4.54212244672062337436e-001 +4.76264069953691526749e-001 +4.54212244672062337436e-001 +7.33144072637538779524e-002 -3.48794815552113002255e-001
1.29223291248488123529e+006 +4.35650413151208559803e-001 -4.36331841571510337108e-001 +4.98610766706681918237e-001 +4.50105839188666534412e-001 +4.98610766706681918237e-001 +4.50105839188666534412e-001 +5.54155336793601405176e-002 -3.44534265339851153431e-001
1.31450886091069644317e+006 +4.08614675310276620479e-001 -4.34165124377430378111e-001 +5.20416543337946624348e-001 +4.44920283071365607608e-001 +5.20416543337946624348e-001 +4.44920283071365607608e-001 +3.81621661914957610584e-002 -3.39328741782120246739e-001
1.33716880967691144906e+006 +3.80892372664477563138e-001 -4.30303769271474401137e-001 +5.42705735113672815828e-001 +4.38373955019252026233e-001 +5.42705735113672815828e-001 +4.38373955019252026233e-001 +2.05668125312659655357e-002 -3.33009592025819478600e-001
1.36021937831139541231e+006 +3.52566245899949504139e-001 -4.24598065369314159323e-001 +5.65407420876009036981e-001 +4.30348270608264749093e-001 +5.65407420876009036981e-001 +4.30348270608264749093e-001 +2.69020955351279011936e-003 -3.25483367302110693231e-001
1.38366730045168031938e+006 +3.23740217265190588503e-001 -4.16893845442572019699e-001 +5.88433475515409143419e-001 +4.20721669582411639254e-001 +5.88433475515409143419e-001 +4.20721669582411639254e-001 -1.53929584469247315859e-002 -3.16654719084766334003e-001
1.40751942581202206202e+006 +2.94542107015202947462e-001 -4.07034617219478589423e-001 +6.11676443325109731042e-001 +4.09371410414700875879e-001 +6.11676443325109731042e-001 +4.09371410414700875879e-001 -3.35923983016134242163e-002 -3.06427905371106035215e-001
1.43178272218436887488e+006 +2.65126357397714396136e-001 -3.94864365332073141701e-001 +6.35007424462941005849e-001 +3.96175905145655982142e-001 +6.35007424462941005849e-001 +3.96175905145655982142e-001 -5.18005725447956977270e-002 -2.94708731670175416717e-001
1.45646427747382665984e+006 +2.35676642124594992733e-001 -3.80231119095448821810e-001 +6.58274075531241953385e-001 +3.81017667655728031750e-001 +6.58274075531241953385e-001 +3.81017667655728031750e-001 -6.98911734324755840042e-002 -2.81406982717138320904e-001
1.48157130176920793019e+006 +2.06408199324157159982e-001 -3.62991369627731375047e-001 +6.81298857118924905407e-001 +3.63786937981663449637e-001 +6.81298857118924905407e-001 +3.63786937981663449637e-001 -8.77178151689939622493e-002 -2.66439391529246838441e-001
1.50711112944927811623e+006 +1.77569682086168245672e-001 -3.43015395926057453657e-001 +7.03877695803069802771e-001 +3.44386024790491573899e-001 +7.03877695803069802771e-001 +3.44386024790491573899e-001 -1.05113080423469423819e-001 -2.49733174922042500121e-001
1.53309122132530598901e+006 +1.49444275751246413719e-001 -3.20193519951946725666e-001 +7.25779263178770173148e-001 +3.22734374980698679458e-001 +7.25779263178770173148e-001 +3.22734374980698679458e-001 -1.21888084510629018942e-001 -2.31230136911308198355e-001
1.55951916682055150159e+006 +1.22349789653174279014e-001 -2.94443252368499552851e-001 +7.46745106185577212088e-001 +2.98774331158533856811e-001 +7.46745106185577212088e-001 +2.98774331158533856811e-001 -1.37832744755954222926e-001 -2.10891301688529486658e-001
1.58640268618732178584e+006 +9.69889687422297863684e-002 -2.66308504584013505667e-001 +7.66159304378537631131e-001 +2.72970667217838081076e-001 +7.66159304378537631131e-001 +2.72970667217838081076e-001 -1.52407317824456794986e-001 -1.89111518749825846530e-001
1.61374963276224653237e+006 +7.43982958052237242086e-002 -2.37448670005458939425e-001 +7.83082571821508199861e-001 +2.46720747174146798342e-001 +7.83082571821508199861e-001 +2.46720747174146798342e-001 -1.64764216127638002396e-001 -1.67063360610526956407e-001
1.64156799526043189690e+006 +5.36863424315623394278e-002 -2.06232996779652288932e-001 +7.98394678700957816098e-001 +2.18674762016487223004e-001 +7.98394678700957816098e-001 +2.18674762016487223004e-001 -1.75754660496678843939e-001 -1.43635336350747572220e-001
1.66986590010915882885e+006 +3.51526123358362196925e-002 -1.72773333606454082556e-001 +8.11860075111846990481e-001 +1.88933213612629824496e-001 +8.11860075111846990481e-001 +1.88933213612629824496e-001 -1.85193731799575850294e-001 -1.18916800236389702539e-001
1.69865161382181313820e+006 +1.90941081858996830611e-002 -1.37225231591206031645e-001 +8.23246846286480704613e-001 +1.57631480285761571558e-001 +8.23246846286480704613e-001 +1.57631480285761571558e-001 -1.92900728267011128958e-001 -9.30248761146165448199e-002
1.72793354541273717768e+006 +5.79801714712480098513e-003 -9.97894544730691945844e-002 +8.32332620949693402501e-001 +1.24940748861620071208e-001 +8.32332620949693402501e-001 +1.24940748861620071208e-001 -1.98703927085750048365e-001 -6.61049799167127694055e-002
1.75772024885370885022e+006 -4.46623997463596600355e-003 -6.07120876145941235080e-002 +8.38910935748194419581e-001 +9.10678016650522670350e-002 +8.38910935748194419581e-001 +9.10678016650522670350e-002 -2.02445667505982390688e-001 -3.83304088819950705691e-002
1.78802042557276808657e+006 -1.14552911813255997586e-002 -2.02830309531019103986e-002 +8.42797803772064813010e-001 +5.62534981627841532137e-002 +8.42797803772064813010e-001 +5.62534981627841532137e-002 -2.03987547806362828906e-001 -9.90087879689216521228e-003
1.81884292699611675926e+006 -1.49600503762993275458e-002 +2.11672640748320484150e-002 +8.43838180307694862847e-001 +2.07698535291075923881e-002 +8.43838180307694862847e-001 +2.07698535291075923881e-002 -2.03215486924919003231e-001 +1.89600573147485906844e-002
1.85019675713383872062e+006 -1.48134807292341630358e-002 +6.32728534517625340605e-002 +8.41911981608961856871e-001 -1.50843015024395357693e-002 +8.41911981608961856871e-001 -1.50843015024395357693e-002 -2.00044374787830964157e-001 +4.80087085298314675263e-002
1.88209107521019130945e+006 -1.12120531440302872994e-002 +1.04196763355556887287e-001 +8.37147130632830527297e-001 -4.97890344466383749644e-002 +8.37147130632830527297e-001 -4.97890344466383749644e-002 -1.94550495515547289260e-001 +7.59895723327270178338e-002
1.91453519833924039267e+006 -4.77395696047122619632e-003 +1.42510784379855148796e-001 +8.30034296290823814246e-001 -8.21684733914882364791e-002 +8.30034296290823814246e-001 -8.21684733914882364791e-002 -1.87122309372388578863e-001 +1.01935909394309742737e-001
1.94753860424661962315e+006 +4.77984617313731430244e-003 +1.80227986012933771853e-001 +8.20441694040018654199e-001 -1.13910514363040199504e-001 +8.20441694040018654199e-001 -1.13910514363040199504e-001 -1.77732197015729259659e-001 +1.27259650148026093319e-001
1.98111093403820414096e+006 +1.73739656219072946541e-002 +2.17041586427201671494e-001 +8.08443774972691375780e-001 -1.44773828050413028157e-001 +8.08443774972691375780e-001 -1.44773828050413028157e-001 -1.66450736292761386492e-001 +1.51771415674451848332e-001
2.01526199501651641913e+006 +3.28956674702055584802e-002 +2.52658892193860284969e-001 +7.94144144064632295787e-001 -1.74530097737899736465e-001 +7.94144144064632295787e-001 -1.74530097737899736465e-001 -1.53371173742729155487e-001 +1.75293596304201215741e-001
2.05000176354568172246e+006 +5.11980767154346372294e-002 +2.86806736482165480773e-001 +7.77672743701971702635e-001 -2.02968212762684452333e-001 +7.77672743701971702635e-001 -2.02968212762684452333e-001 -1.38606975270737814432e-001 +1.97663568860425686857e-001
2.08534038796576578170e+006 +7.21042697651297359585e-002 +3.19236112243569014613e-001 +7.59182363793300507560e-001 -2.29897776569720491135e-001 +7.59182363793300507560e-001 -2.29897776569720491135e-001 -1.22288871076093458301e-001 +2.18736334339572624508e-001
2.12128819155735615641e+006 +9.54120394732400067817e-002 +3.49725849868323668268e-001 +7.38844659588100638459e-001 -2.55151819378102662217e-001 +7.38844659588100638459e-001 -2.55151819378102662217e-001 -1.04561544760832014767e-001 +2.38386496698547667439e-001
2.15785567555724643171e+006 +1.20899092651680639676e-001 +3.78085251070690853137e-001 +7.16845873198889926847e-001 -2.78588656283562330351e-001 +7.16845873198889926847e-001 -2.78588656283562330351e-001 -8.55801260301748134562e-002 +2.56509544720111948291e-001
2.19505352222610544413e+006 +1.45402815168386545519e-001 +4.01876278115848417638e-001 +6.95662579415481485690e-001 -2.98185989479521296186e-001 +6.95662579415481485690e-001 -2.98185989479521296186e-001 -6.72800733332774014706e-002 +2.71431804715412006157e-001
2.23289259796902816743e+006 +1.71034153288560197836e-001 +4.23493029622589389760e-001 +6.73668714826993086930e-001 -3.15952834430638263008e-001 +6.73668714826993086930e-001 -3.15952834430638263008e-001 -4.84127753859548426441e-002 +2.84834217512392129379e-001
2.27138395650987839326e+006 +1.97767127438281398177e-001 +4.43040482421832304549e-001 +6.50891314873813020547e-001 -3.31989592964399171660e-001 +6.50891314873813020547e-001 -3.31989592964399171660e-001 -2.90043383690899436722e-002 +2.96810068260051407307e-001
2.31053884212035499513e+006 +2.25412702128999220541e-001 +4.60493616306270503458e-001 +6.27482866814643824860e-001 -3.46287144076802333448e-001 +6.27482866814643824860e-001 -3.46287144076802333448e-001 -9.17708981133644186023e-003 +3.07360626524302571472e-001
2.35036869290471868590e+006 +2.53788932841160552734e-001 +4.75846427020683804265e-001 +6.03589076042813532652e-001 -3.58851189385002322663e-001 +6.03589076042813532652e-001 -3.58851189385002322663e-001 +1.09529315692542678073e-002 +3.16498645675915124542e-001
2.39088514414114272222e+006 +2.82722762391237447677e-001 +4.89109781850540159542e-001 +5.79347547536096740828e-001 -3.69700432353762875604e-001 +5.79347547536096740828e-001 -3.69700432353762875604e-001 +3.12769297611346225318e-002 +3.24246828709816969916e-001
2.43210003168066730723e+006 +3.12051368162608089296e-001 +5.00309193872981783358e-001 +5.54886831703803262705e-001 -3.78864717747387058644e-001 +5.54886831703803262705e-001 -3.78864717747387058644e-001 +5.16940111905041868590e-002 +3.30636282801000824794e-001
2.47402539540473651141e+006 +3.39825521830993626526e-001 +5.09093413896510527117e-001 +5.31733154642768157672e-001 -3.86035578057575434752e-001 +5.31733154642768157672e-001 -3.86035578057575434752e-001 +7.10107170645538909870e-002 +3.35399042559158977461e-001
2.51667348274234961718e+006 +3.66287641015917320164e-001 +5.15885182753165527636e-001 +5.09695175059840188680e-001 -3.91567982307040429735e-001 +5.09695175059840188680e-001 -3.91567982307040429735e-001 +8.93782177481361878035e-002 +3.38831983096732958227e-001
2.56005675224783178419e+006 +3.92674015100302864489e-001 +5.21108247410836167290e-001 +4.87802840730517162093e-001 -3.95834727400129315900e-001 +4.87802840730517162093e-001 -3.95834727400129315900e-001 +1.07557449352020731426e-001 +3.41259147848253008295e-001
2.60418787724028574303e+006 +4.18902818530481058090e-001 +5.24821107187965818497e-001 +4.66117780840577367041e-001 -3.98888493831246693233e-001 +4.66117780840577367041e-001 -3.98888493831246693233e-001 +1.25502612893977821829e-001 +3.42726947797643399785e-001
2.64907974950577924028e+006 +4.44901362244354225961e-001 +5.27083930929514554720e-001 +4.44694130876197246671e-001 -4.00782697392704723161e-001 +4.44694130876197246671e-001 -4.00782697392704723161e-001 +1.43174010816718377814e-001 +3.43281887386848116872e-001
2.69474548306335369125e+006 +4.70605515011556563287e-001 +5.27957569898144685183e-001 +4.23579062373523607121e-001 -4.01570731127303071073e-001 +4.23579062373523607121e-001 -4.01570731127303071073e-001 +1.60537571409689494573e-001 +3.42969987974996837199e-001
2.74119841799594881013e+006 +4.95894765358038891456e-001 +5.27507484866797216050e-001 +4.02863537567655305427e-001 -4.01307809665648440589e-001 +4.02863537567655305427e-001 -4.01307809665648440589e-001 +1.77525203114306862062e-001 +3.41837281328648934231e-001
2.78845212434737151489e+006 +5.18348550532773288957e-001 +5.26087667466932140670e-001 +3.84432410302270988200e-001 -4.00230212697451570580e-001 +3.84432410302270988200e-001 -4.00230212697451570580e-001 +1.92670469829942792028e-001 +3.40036797066283480451e-001
2.83652040608643693849e+006 +5.40396680942309304285e-001 +5.23681282631801692240e-001 +3.66384701350138897169e-001 -3.98377051095755385646e-001 +3.66384701350138897169e-001 -3.98377051095755385646e-001 +2.07460057603859687747e-001 +3.37639521805149389611e-001
2.88541730513944989070e+006 +5.62017007237437971057e-001 +5.20336621035283330983e-001 +3.48734331302143263365e-001 -3.95789332907119650873e-001 +3.48734331302143263365e-001 -3.95789332907119650873e-001 +2.21886105843318776065e-001 +3.34679700405252078532e-001
2.93515710549219325185e+006 +5.83191238264014977233e-001 +5.16099472829906313898e-001 +3.31492246901654741276e-001 -3.92505742941936630608e-001 +3.31492246901654741276e-001 -3.92505742941936630608e-001 +2.35943015207833617364e-001 +3.31189466064097104425e-001
2.98575433736263168976e+006 +6.03904439925515235110e-001 +5.11013023581175396259e-001 +3.14666834087548863419e-001 -3.88562594365530700191e-001 +3.14666834087548863419e-001 -3.88562594365530700191e-001 +2.49627109844897249191e-001 +3.27198830780864979850e-001
3.03722378144554793835e+006 +6.23869698320739907160e-001 +5.05234629338044416436e-001 +2.98478391086882177685e-001 -3.84079630102089786270e-001 +2.98478391086882177685e-001 -3.84079630102089786270e-001 +2.62769658530240257654e-001 +3.22798538806082724317e-001
3.08958047323034424335e+006 +6.41694166377989927419e-001 +4.99489908013594330338e-001 +2.84007509247895473248e-001 -3.79597382591413123887e-001 +2.84007509247895473248e-001 -3.79597382591413123887e-001 +2.74533006674574364681e-001 +3.18390290343789295058e-001
3.14283970739328069612e+006 +6.59102519227565797344e-001 +4.93150181993093517097e-001 +2.69907111016568668216e-001 -3.74659882928173926242e-001 +2.69907111016568668216e-001 -3.74659882928173926242e-001 +2.85969012730725780091e-001 +3.13644644191924004684e-001
3.19701704226542264223e+006 +6.76094154881879849661e-001 +4.86241619905184829786e-001 +2.56174968182222295709e-001 -3.69288797014773573224e-001 +2.56174968182222295709e-001 -3.69288797014773573224e-001 +2.97081743357757943613e-001 +3.08579105415183796435e-001
3.25212830437761591747e+006 +6.92669341336894728300e-001 +4.78788164449510222909e-001 +2.42808292986495866117e-001 -3.63503888085708937172e-001 +2.42808292986495866117e-001 -3.63503888085708937172e-001 +3.07875588587913140426e-001 +3.03209568641112037213e-001
3.30818959308380167931e+006 +7.08829005132262990330e-001 +4.70811620364843808062e-001 +2.29803902303427926013e-001 -3.57323105281565189806e-001 +2.29803902303427926013e-001 -3.57323105281565189806e-001 +3.18355135975994241182e-001 +2.97550403418707809511e-001
3.36521728526403475553e+006 +7.23267060947249684766e-001 +4.62844310571946582211e-001 +2.18167227462240986835e-001 -3.51138431439430465097e-001 +2.18167227462240986835e-001 -3.51138431439430465097e-001 +3.27746869779999894234e-001 +2.91889345985873294165e-001
3.42322804010857315734e+006 +7.36987511287059859910e-001 +4.54619599907245430792e-001 +2.07119773853833483157e-001 -3.44759855802291514948e-001 +2.07119773853833483157e-001 -3.44759855802291514948e-001 +3.36654379730767949752e-001 +2.86091555175812362055e-001
3.48223880398443574086e+006 +7.50343885487641304444e-001 +4.46026498772595703102e-001 +1.96386536064517225331e-001 -3.38107504971313532760e-001 +1.96386536064517225331e-001 -3.38107504971313532760e-001 +3.45291677284498499390e-001 +2.80099486163593813792e-001
3.54226681538585387170e+006 +7.63340747544554054649e-001 +4.37076487740723662601e-001 +1.85962071206512757904e-001 -3.31190668546800293104e-001 +1.85962071206512757904e-001 -3.31190668546800293104e-001 +3.53664604451321973322e-001 +2.73920300638009150962e-001
3.60332960997005738318e+006 +7.75982410572328640264e-001 +4.27779629940569172675e-001 +1.75841235138380735936e-001 -3.24017474008010897268e-001 +1.75841235138380735936e-001 -3.24017474008010897268e-001 +3.61778677945164328644e-001 +2.67560215959452396550e-001
