# HZ S RI R 50
1.00000000000000000000e+006 +1.92102934008602205251e-001 +3.78398272337422902911e-001 +8.07897065991397878015e-001 -3.78398272337422902911e-001 +8.07897065991397878015e-001 -3.78398272337422902911e-001 +1.92102934008602260763e-001 +3.78398272337422847400e-001
1.12443722756960242987e+006 +2.27288150634352592583e-001 +4.04199014110753707119e-001 +7.72711849365647407417e-001 -4.04199014110753762630e-001 +7.72711849365647407417e-001 -4.04199014110753762630e-001 +2.27288150634352537072e-001 +4.04199014110753540585e-001
1.26435907874441402964e+006 +2.72736614909400154616e-001 +4.31042768069218984461e-001 +7.27263385090600067429e-001 -4.31042768069218928950e-001 +7.27263385090600067429e-001 -4.31042768069218928950e-001 +2.72736614909400265638e-001 +4.31042768069218817928e-001
1.42169241715582553297e+006 +3.20457550765194887354e-001 +4.52733994669971051561e-001 +6.79542449234805223668e-001 -4.52733994669971051561e-001 +6.79542449234805223668e-001 -4.52733994669971051561e-001 +3.20457550765194831843e-001 +4.52733994669970996050e-001
1.59860388000342343003e+006 +3.77390495631668931864e-001 +4.71109068922846874194e-001 +6.22609504368331068136e-001 -4.71109068922846818683e-001 +6.22609504368331068136e-001 -4.71109068922846818683e-001 +3.77390495631668987375e-001 +4.71109068922846929706e-001
1.79752971481305896305e+006 +4.35591893851259237547e-001 +4.82504425778122969515e-001 +5.64408106148740928987e-001 -4.82504425778122914004e-001 +5.64408106148740928987e-001 -4.82504425778122914004e-001 +4.35591893851259237547e-001 +4.82504425778122858492e-001
2.02120932899837405421e+006 +4.98319664504226267354e-001 +4.86672666760349426074e-001 +5.01680335495773732646e-001 -4.86672666760349370563e-001 +5.01680335495773732646e-001 -4.86672666760349370563e-001 +4.98319664504226211843e-001 +4.86672666760349481585e-001
2.27272301423674868420e+006 +5.63364700572591359240e-001 +4.82364423386403784466e-001 +4.36635299427408529738e-001 -4.82364423386403839977e-001 +4.36635299427408529738e-001 -4.82364423386403839977e-001 +5.63364700572591470262e-001 +4.82364423386403839977e-001
2.55553436516199959442e+006 +6.28062082836841839573e-001 +4.69233242433533759286e-001 +3.71937917163158049405e-001 -4.69233242433533703775e-001 +3.71937917163158049405e-001 -4.69233242433533703775e-001 +6.28062082836841950595e-001 +4.69233242433533814797e-001
2.87353797652160283178e+006 +6.90876840893381749531e-001 +4.47353893171100580606e-001 +3.09123159106618250469e-001 -4.47353893171100691628e-001 +3.09123159106618250469e-001 -4.47353893171100691628e-001 +6.90876840893381749531e-001 +4.47353893171100636117e-001
3.23111307563591701910e+006 +7.50648736693044549284e-001 +4.17260680679766238210e-001 +2.49351263306955589494e-001 -4.17260680679766238210e-001 +2.49351263306955589494e-001 -4.17260680679766238210e-001 +7.50648736693044438262e-001 +4.17260680679766182699e-001
3.63318382873194199055e+006 +8.05153445928584510227e-001 +3.78832322332382731567e-001 +1.94846554071415434262e-001 -3.78832322332382731567e-001 +1.94846554071415434262e-001 -3.78832322332382731567e-001 +8.05153445928584510227e-001 +3.78832322332382731567e-001
4.08528715163005795330e+006 +8.52671271634794947225e-001 +3.34642301003922892910e-001 +1.47328728365204941753e-001 -3.34642301003922948421e-001 +1.47328728365204941753e-001 -3.34642301003922948421e-001 +8.52671271634795058247e-001 +3.34642301003922948421e-001
4.59364895860462170094e+006 +8.93864930490668729846e-001 +2.84570884887550668019e-001 +1.06135069509331145254e-001 -2.84570884887550668019e-001 +1.06135069509331145254e-001 -2.84570884887550668019e-001 +8.93864930490668840868e-001 +2.84570884887550723530e-001
5.16526989944137260318e+006 +9.27536125364760377643e-001 +2.30678290765441856847e-001 +7.24638746352397611350e-002 -2.30678290765441829091e-001 +7.24638746352397611350e-002 -2.30678290765441829091e-001 +9.27536125364760266621e-001 +2.30678290765441829091e-001
5.80802176537657435983e+006 +9.52960880119780973097e-001 +1.73134637053345252777e-001 +4.70391198802188811867e-002 -1.73134637053345280533e-001 +4.70391198802188811867e-002 -1.73134637053345280533e-001 +9.52960880119781084119e-001 +1.73134637053345280533e-001
6.53075589152394421399e+006 +9.70298483370094611011e-001 +1.12869038746148286911e-001 +2.97015166299054583776e-002 -1.12869038746148286911e-001 +2.97015166299054583776e-002 -1.12869038746148286911e-001 +9.70298483370094499989e-001 +1.12869038746148273034e-001
7.34342504859903268516e+006 +9.78749680407589250919e-001 +5.01782239170660421257e-002 +2.12503195924108982673e-002 -5.01782239170660421257e-002 +2.12503195924108982673e-002 -5.01782239170660421257e-002 +9.78749680407589139897e-001 +5.01782239170660351868e-002
8.25722050251186918467e+006 +9.78112285981647677779e-001 -1.42730076877214014097e-002 +2.18877140183522493622e-002 +1.42730076877214014097e-002 +2.18877140183522493622e-002 +1.42730076877214014097e-002 +9.78112285981647788802e-001 -1.42730076877214031444e-002
9.28472612927532941103e+006 +9.66853984737246929804e-001 -8.07726642306640374436e-002 +3.31460152627530146852e-002 +8.07726642306640374436e-002 +3.31460152627530146852e-002 +8.07726642306640374436e-002 +9.66853984737247040826e-001 -8.07726642306640374436e-002
1.04400917075453959405e+007 +9.41086104378418331073e-001 -1.49522004941795100263e-001 +5.89138956215817244377e-002 +1.49522004941795072508e-001 +5.89138956215817244377e-002 +1.49522004941795072508e-001 +9.41086104378418331073e-001 -1.49522004941795072508e-001
1.17392277752047386020e+007 +8.93883712185143508577e-001 -2.18023318485299932856e-001 +1.06116287814856463667e-001 +2.18023318485299932856e-001 +1.06116287814856463667e-001 +2.18023318485299932856e-001 +8.93883712185143508577e-001 -2.18023318485299932856e-001
1.32000247333592940122e+007 +8.08065398086045161286e-001 -2.76569386930564431459e-001 +1.91934601913954727692e-001 +2.76569386930564431459e-001 +1.91934601913954727692e-001 +2.76569386930564431459e-001 +8.08065398086045272308e-001 -2.76569386930564486970e-001
1.48425992150287032127e+007 +6.58849727310261479296e-001 -2.67714584044732417656e-001 +3.41150272689738354170e-001 +2.67714584044732362145e-001 +3.41150272689738354170e-001 +2.67714584044732362145e-001 +6.58849727310261590318e-001 -2.67714584044732473167e-001
1.66895711112736333162e+007 +6.12772689399781578246e-001 -4.61654851881611524855e-002 +3.87227310600218310732e-001 +4.61654851881611594244e-002 +3.87227310600218310732e-001 +4.61654851881611594244e-002 +6.12772689399781689268e-001 -4.61654851881611594244e-002
1.87663750696862600744e+007 +8.49958762424020686232e-001 -4.22751431952612111154e-002 +1.50041237575979452545e-001 +4.22751431952612111154e-002 +1.50041237575979452545e-001 +4.22751431952612111154e-002 +8.49958762424020575210e-001 -4.22751431952612041765e-002
2.11016107548893168569e+007 +8.93901033963863445031e-001 -2.05661182475058129659e-001 +1.06098966036136596602e-001 +2.05661182475058101904e-001 +1.06098966036136596602e-001 +2.05661182475058101904e-001 +8.93901033963863445031e-001 -2.05661182475058101904e-001
2.37274366944806464016e+007 +8.43890349198978539924e-001 -3.22687789380029343977e-001 +1.56109650801021626609e-001 +3.22687789380029399489e-001 +1.56109650801021626609e-001 +3.22687789380029399489e-001 +8.43890349198978428902e-001 -3.22687789380029288466e-001
2.66800131340750828385e+007 +7.61926800496040557142e-001 -4.03333676315243694344e-001 +2.38073199503959304080e-001 +4.03333676315243694344e-001 +2.38073199503959304080e-001 +4.03333676315243694344e-001 +7.61926800496040668165e-001 -4.03333676315243749855e-001
2.99999999999999627471e+007 +6.47530287937299942058e-001 -4.58716972746254836313e-001 +3.52469712062700057942e-001 +4.58716972746254891824e-001 +3.52469712062700057942e-001 +4.58716972746254891824e-001 +6.47530287937299831036e-001 -4.58716972746254836313e-001
