# HZ S RI R 50
1.00000000000000000000e+006 +2.19822541001580773479e-001 +4.14126298934502701243e-001 +7.80177458998418726921e-001 -4.14126298934502701243e-001 +7.80177458998418726921e-001 -4.14126298934502701243e-001 +2.19822541001580828990e-001 +4.14126298934502701243e-001
1.29000000000000000000e+006 +3.26234678186784921028e-001 +4.68834312881586945387e-001 +6.73765321813215023461e-001 -4.68834312881586945387e-001 +6.73765321813215023461e-001 -4.68834312881586945387e-001 +3.26234678186784810006e-001 +4.68834312881586889876e-001
1.58000000000000000000e+006 +4.30782050111987169227e-001 +4.95185697908673894130e-001 +5.69217949888012442194e-001 -4.95185697908674116174e-001 +5.69217949888012442194e-001 -4.95185697908674116174e-001 +4.30782050111987169227e-001 +4.95185697908673838619e-001
1.87000000000000000000e+006 +5.27182969631788789222e-001 +4.99260539359959065742e-001 +4.72817030368211210778e-001 -4.99260539359959065742e-001 +4.72817030368211210778e-001 -4.99260539359959065742e-001 +5.27182969631788678200e-001 +4.99260539359958788186e-001
2.16000000000000000000e+006 +6.12491420977115286206e-001 +4.87181362745486623567e-001 +3.87508579022884713794e-001 -4.87181362745486457033e-001 +3.87508579022884713794e-001 -4.87181362745486457033e-001 +6.12491420977114953139e-001 +4.87181362745486346011e-001
2.45000000000000000000e+006 +6.85988128269080177368e-001 +4.64121122276248354588e-001 +3.14011871730919878143e-001 -4.64121122276248299077e-001 +3.14011871730919989165e-001 -4.64121122276248299077e-001 +6.85988128269080288391e-001 +4.64121122276248354588e-001
2.74000000000000000000e+006 +7.48204287957373481710e-001 +4.34044503984986729250e-001 +2.51795712042626573801e-001 -4.34044503984986729250e-001 +2.51795712042626573801e-001 -4.34044503984986729250e-001 +7.48204287957373370688e-001 +4.34044503984986840273e-001
3.03000000000000000000e+006 +8.00249919609507753826e-001 +3.99812438243839551877e-001 +1.99750080390492135152e-001 -3.99812438243839662899e-001 +1.99750080390492135152e-001 -3.99812438243839662899e-001 +8.00249919609507531781e-001 +3.99812438243839496366e-001
3.32000000000000000000e+006 +8.43416123588693222857e-001 +3.63407988436296680579e-001 +1.56583876411306860410e-001 -3.63407988436296625068e-001 +1.56583876411306860410e-001 -3.63407988436296625068e-001 +8.43416123588692889790e-001 +3.63407988436296403023e-001
3.61000000000000000000e+006 +8.78967051429951240493e-001 +3.26165562146724374859e-001 +1.21032948570048745629e-001 -3.26165562146724430370e-001 +1.21032948570048745629e-001 -3.26165562146724430370e-001 +8.78967051429951240493e-001 +3.26165562146724430370e-001
3.90000000000000000000e+006 +9.08046343996178895175e-001 +2.88960518326209947482e-001 +9.19536560038209938028e-002 -2.88960518326210002993e-001 +9.19536560038210076806e-002 -2.88960518326210002993e-001 +9.08046343996178784153e-001 +2.88960518326209891971e-001
4.19000000000000000000e+006 +9.31646249402268589179e-001 +2.52351967253981956940e-001 +6.83537505977317300099e-002 -2.52351967253981901429e-001 +6.83537505977317161321e-002 -2.52351967253981901429e-001 +9.31646249402268034068e-001 +2.52351967253981901429e-001
4.48000000000000000000e+006 +9.50608037624993906789e-001 +2.16685016620327519643e-001 +4.93919623750055658551e-002 -2.16685016620327408621e-001 +4.93919623750055797329e-002 -2.16685016620327408621e-001 +9.50608037624994128834e-001 +2.16685016620327464132e-001
4.77000000000000000000e+006 +9.65636178718667581578e-001 +1.82161876001201011865e-001 +3.43638212813323420947e-002 -1.82161876001201011865e-001 +3.43638212813323420947e-002 -1.82161876001201011865e-001 +9.65636178718667359533e-001 +1.82161876001201067377e-001
5.06000000000000000000e+006 +9.77317121305152247679e-001 +1.48890448682788917312e-001 +2.26828786948474296625e-002 -1.48890448682789000578e-001 +2.26828786948474296625e-002 -1.48890448682789000578e-001 +9.77317121305152247679e-001 +1.48890448682789056090e-001
5.35000000000000000000e+006 +9.86138224132150909007e-001 +1.16917180250118046825e-001 +1.38617758678490961971e-002 -1.16917180250118032947e-001 +1.38617758678490909929e-002 -1.16917180250117991314e-001 +9.86138224132150575940e-001 +1.16917180250118157847e-001
5.64000000000000000000e+006 +9.92504915825776601324e-001 +8.62491036906732622125e-002 +7.49508417422320265266e-003 -8.62491036906732899681e-002 +7.49508417422319831586e-003 -8.62491036906732899681e-002 +9.92504915825776823368e-001 +8.62491036906733177236e-002
5.93000000000000000000e+006 +9.96755440852049701128e-001 +5.68685500420513107001e-002 +3.24455914794982052188e-003 -5.68685500420513523334e-002 +3.24455914794982052188e-003 -5.68685500420513523334e-002 +9.96755440852049701128e-001 +5.68685500420512551889e-002
6.22000000000000000000e+006 +9.99173161485520600067e-001 +2.87429096048069446234e-002 +8.26838514479137989821e-004 -2.87429096048069099290e-002 +8.26838514479119775225e-004 -2.87429096048069099290e-002 +9.99173161485520822112e-001 +2.87429096048069515623e-002
6.51000000000000000000e+006 +9.99996647191718546210e-001 +1.83106445544668761105e-003 +3.35280828129766450552e-006 -1.83106445544672924441e-003 +3.35280828130286867594e-006 -1.83106445544675699999e-003 +9.99996647191718435188e-001 +1.83106445544664597769e-003
6.80000000000000000000e+006 +9.99427869171246263669e-001 -2.39124129913390430502e-002 +5.72130828753554185329e-004 +2.39124129913389077418e-002 +5.72130828753571532563e-004 +2.39124129913389493751e-002 +9.99427869171246374691e-001 -2.39124129913390465196e-002
7.09000000000000000000e+006 +9.97638821528288755047e-001 -4.85345578730835142123e-002 +2.36117847171095525394e-003 +4.85345578730835419679e-002 +2.36117847171095698866e-003 +4.85345578730835697234e-002 +9.97638821528289199136e-001 -4.85345578730834517622e-002
7.38000000000000000000e+006 +9.94776859277746727805e-001 -7.20823107513089422760e-002 +5.22314072225272575667e-003 +7.20823107513089977871e-002 +5.22314072225271881778e-003 +7.20823107513089977871e-002 +9.94776859277746949850e-001 -7.20823107513090255427e-002
7.67000000000000000000e+006 +9.90969000815984601971e-001 -9.46014811604645594612e-002 +9.03099918401539455970e-003 +9.46014811604646010945e-002 +9.03099918401539629442e-003 +9.46014811604645178278e-002 +9.90969000815984490949e-001 -9.46014811604644900722e-002
7.96000000000000000000e+006 +9.86325399594753959853e-001 -1.16136151602344819822e-001 +1.36746004052460158606e-002 +1.16136151602344847578e-001 +1.36746004052460141259e-002 +1.16136151602344847578e-001 +9.86325399594753737809e-001 -1.16136151602344861455e-001
8.25000000000000000000e+006 +9.80942151181844246288e-001 -1.36728370196459253494e-001 +1.90578488181557120784e-002 +1.36728370196459392272e-001 +1.90578488181557086090e-002 +1.36728370196459364516e-001 +9.80942151181843913221e-001 -1.36728370196459336761e-001
8.54000000000000000000e+006 +9.74903569129803471149e-001 -1.56418029740096720115e-001 +2.50964308701963796644e-002 +1.56418029740096831137e-001 +2.50964308701963796644e-002 +1.56418029740096831137e-001 +9.74903569129803360127e-001 -1.56418029740096720115e-001
8.83000000000000000000e+006 +9.68284036102256662204e-001 -1.75242864424718536309e-001 +3.17159638977432406515e-002 +1.75242864424718536309e-001 +3.17159638977432406515e-002 +1.75242864424718536309e-001 +9.68284036102256662204e-001 -1.75242864424718508554e-001
9.12000000000000000000e+006 +9.61149514914241831498e-001 -1.93238518143664078641e-001 +3.88504850857578840073e-002 +1.93238518143664023130e-001 +3.88504850857578909462e-002 +1.93238518143664050886e-001 +9.61149514914241942520e-001 -1.93238518143664050886e-001
9.41000000000000000000e+006 +9.53558786730552276900e-001 -2.10438653720055185437e-001 +4.64412132694475635053e-002 +2.10438653720055129925e-001 +4.64412132694475704442e-002 +2.10438653720055157681e-001 +9.53558786730552498945e-001 -2.10438653720055157681e-001
9.70000000000000000000e+006 +9.45564469844174859681e-001 -2.26875082837404151714e-001 +5.44355301558247378635e-002 +2.26875082837404179470e-001 +5.44355301558247378635e-002 +2.26875082837404151714e-001 +9.45564469844174970703e-001 -2.26875082837404179470e-001
9.99000000000000000000e+006 +9.37213861523147118149e-001 -2.42577903552689544409e-001 +6.27861384768524238842e-002 +2.42577903552689488897e-001 +6.27861384768524100064e-002 +2.42577903552689544409e-001 +9.37213861523147340193e-001 -2.42577903552689488897e-001
1.02800000000000000000e+007 +9.28549636777080134031e-001 -2.57575637082066155603e-001 +7.14503632229194080017e-002 +2.57575637082066100092e-001 +7.14503632229194080017e-002 +2.57575637082066100092e-001 +9.28549636777080356076e-001 -2.57575637082066044581e-001
1.05700000000000000000e+007 +9.19610431071720024754e-001 -2.71895358797837716214e-001 +8.03895689282795450348e-002 +2.71895358797837660703e-001 +8.03895689282795589126e-002 +2.71895358797837660703e-001 +9.19610431071720357821e-001 -2.71895358797837771725e-001
1.08600000000000000000e+007 +9.10431328624718094744e-001 -2.85562820555037677472e-001 +8.95686713752818636225e-002 +2.85562820555037621961e-001 +8.95686713752818636225e-002 +2.85562820555037566450e-001 +9.10431328624717650655e-001 -2.85562820555037677472e-001
1.11500000000000000000e+007 +9.01044273642370385780e-001 -2.98602562913755864571e-001 +9.89557263576296974872e-002 +2.98602562913755975593e-001 +9.89557263576297252428e-002 +2.98602562913755975593e-001 +9.01044273642370163735e-001 -2.98602562913755920082e-001
1.14400000000000000000e+007 +8.91478418464957678147e-001 -3.11038016769936642714e-001 +1.08521581535042155320e-001 +3.11038016769936587202e-001 +1.08521581535042127564e-001 +3.11038016769936587202e-001 +8.91478418464957345080e-001 -3.11038016769936476180e-001
1.17300000000000000000e+007 +8.81760419889114577252e-001 -3.22891594511357238328e-001 +1.18239580110885172948e-001 +3.22891594511357238328e-001 +1.18239580110885145192e-001 +3.22891594511357182817e-001 +8.81760419889114688274e-001 -3.22891594511357293840e-001
1.20200000000000000000e+007 +8.71914692782213562872e-001 -3.34184771186108620089e-001 +1.28085307217786686929e-001 +3.34184771186108675600e-001 +1.28085307217786659173e-001 +3.34184771186108564578e-001 +8.71914692782213340827e-001 -3.34184771186108675600e-001
1.23100000000000000000e+007 +8.61963628381024360436e-001 -3.44938156383493510493e-001 +1.38036371618975306497e-001 +3.44938156383493621515e-001 +1.38036371618975306497e-001 +3.44938156383493566004e-001 +8.61963628381024360436e-001 -3.44938156383493566004e-001
1.26000000000000000000e+007 +8.51927783284982087508e-001 -3.55171557633939261045e-001 +1.48072216715017829225e-001 +3.55171557633939205534e-001 +1.48072216715017801469e-001 +3.55171557633939205534e-001 +8.51927783284982087508e-001 -3.55171557633939205534e-001
1.28900000000000000000e+007 +8.41826044042807253298e-001 -3.64904036171216916706e-001 +1.58173955957192691191e-001 +3.64904036171216916706e-001 +1.58173955957192691191e-001 +3.64904036171216916706e-001 +8.41826044042807142276e-001 -3.64904036171216750173e-001
1.31800000000000000000e+007 +8.31675771334805857826e-001 -3.74153955891771472508e-001 +1.68324228665194225441e-001 +3.74153955891771416997e-001 +1.68324228665194197685e-001 +3.74153955891771361486e-001 +8.31675771334805635782e-001 -3.74153955891771361486e-001
1.34700000000000000000e+007 +8.21492927028334318784e-001 -3.82939026309351282507e-001 +1.78507072971665514682e-001 +3.82939026309351115973e-001 +1.78507072971665570194e-001 +3.82939026309351171484e-001 +8.21492927028333874695e-001 -3.82939026309351282507e-001
1.37600000000000000000e+007 +8.11292186796503056456e-001 -3.91276340250021670286e-001 +1.88707813203496610477e-001 +3.91276340250021670286e-001 +1.88707813203496610477e-001 +3.91276340250021781308e-001 +8.11292186796503278501e-001 -3.91276340250021670286e-001
1.40500000000000000000e+007 +8.01087040512991621632e-001 -3.99182406970958580938e-001 +1.98912959487008322856e-001 +3.99182406970958525427e-001 +1.98912959487008295101e-001 +3.99182406970958580938e-001 +8.01087040512991510610e-001 -3.99182406970958636450e-001
1.43400000000000000000e+007 +7.90889882247408415594e-001 -4.06673181321425214474e-001 +2.09110117752591695428e-001 +4.06673181321425269985e-001 +2.09110117752591695428e-001 +4.06673181321425269985e-001 +7.90889882247408637639e-001 -4.06673181321425381007e-001
1.46300000000000000000e+007 +7.80712091368793270618e-001 -4.13764089499509601922e-001 +2.19287908631206673871e-001 +4.13764089499509601922e-001 +2.19287908631206646115e-001 +4.13764089499509601922e-001 +7.80712091368793048574e-001 -4.13764089499509601922e-001
1.49200000000000000000e+007 +7.70564106005966031887e-001 -4.20470051895723118118e-001 +2.29435893994033413001e-001 +4.20470051895722951585e-001 +2.29435893994033413001e-001 +4.20470051895722951585e-001 +7.70564106005966253932e-001 -4.20470051895723118118e-001
1.52100000000000000000e+007 +7.60455489901529890773e-001 -4.26805503455794099654e-001 +2.39544510098469720649e-001 +4.26805503455794044143e-001 +2.39544510098469665138e-001 +4.26805503455794099654e-001 +7.60455489901529890773e-001 -4.26805503455794044143e-001
1.55000000000000000000e+007 +7.50394993522636166716e-001 -4.32784411940632163240e-001 +2.49605006477363472461e-001 +4.32784411940631996707e-001 +2.49605006477363444706e-001 +4.32784411940631996707e-001 +7.50394993522636166716e-001 -4.32784411940632218752e-001
1.57900000000000000000e+007 +7.40390610149039951615e-001 -4.38420294411848654459e-001 +2.59609389850959770829e-001 +4.38420294411848598948e-001 +2.59609389850959715318e-001 +4.38420294411848709970e-001 +7.40390610149040284682e-001 -4.38420294411848709970e-001
1.60800000000000000000e+007 +7.30449627541771562278e-001 -4.43726232226424377458e-001 +2.69550372458228326700e-001 +4.43726232226424321947e-001 +2.69550372458228326700e-001 +4.43726232226424266436e-001 +7.30449627541771895345e-001 -4.43726232226424432969e-001
1.63700000000000000000e+007 +7.20578675699309001423e-001 -4.48714884784022716158e-001 +2.79421324300690609999e-001 +4.48714884784022716158e-001 +2.79421324300690609999e-001 +4.48714884784022660646e-001 +7.20578675699309223468e-001 -4.48714884784022882691e-001
1.66600000000000000000e+007 +7.10783771128684738194e-001 -4.53398502234811318079e-001 +2.89216228871315039761e-001 +4.53398502234811373590e-001 +2.89216228871315039761e-001 +4.53398502234811207057e-001 +7.10783771128684627172e-001 -4.53398502234811262568e-001
1.69500000000000000000e+007 +7.01070357993414661202e-001 -4.57788937324177636068e-001 +2.98929642006585005731e-001 +4.57788937324177525046e-001 +2.98929642006585005731e-001 +4.57788937324177580557e-001 +7.01070357993414772224e-001 -4.57788937324177636068e-001
1.72400000000000000000e+007 +6.91443346446041773312e-001 -4.61897656523109656490e-001 +3.08556653553957893621e-001 +4.61897656523109489957e-001 +3.08556653553958004643e-001 +4.61897656523109767512e-001 +6.91443346446041884334e-001 -4.61897656523109767512e-001
1.75300000000000000000e+007 +6.81907148408333219081e-001 -4.65735750568869788513e-001 +3.18092851591666669897e-001 +4.65735750568869733002e-001 +3.18092851591666558875e-001 +4.65735750568869899535e-001 +6.81907148408333552148e-001 -4.65735750568869844024e-001
1.78200000000000000000e+007 +6.72465711025163059844e-001 -4.69313944519641146336e-001 +3.27534288974836718111e-001 +4.69313944519641090825e-001 +3.27534288974836718111e-001 +4.69313944519641090825e-001 +6.72465711025163059844e-001 -4.69313944519641146336e-001
1.81100000000000000000e+007 +6.63122547987407662262e-001 -4.72642607408701287408e-001 +3.36877452012592115693e-001 +4.72642607408701231897e-001 +3.36877452012592115693e-001 +4.72642607408701398430e-001 +6.63122547987407995329e-001 -4.72642607408701287408e-001
1.84000000000000000000e+007 +6.53880768893708053113e-001 -4.75731761568093158843e-001 +3.46119231106291669331e-001 +4.75731761568093269865e-001 +3.46119231106291669331e-001 +4.75731761568093269865e-001 +6.53880768893708275158e-001 -4.75731761568093325376e-001
1.86900000000000000000e+007 +6.44743106799755771874e-001 -4.78591091678433111500e-001 +3.55256893200244006081e-001 +4.78591091678433000478e-001 +3.55256893200244006081e-001 +4.78591091678433055989e-001 +6.44743106799755993919e-001 -4.78591091678433167012e-001
1.89800000000000000000e+007 +6.35711944086090330330e-001 -4.81229953590145753672e-001 +3.64288055913909558647e-001 +4.81229953590145753672e-001 +3.64288055913909558647e-001 +4.81229953590145753672e-001 +6.35711944086090330330e-001 -4.81229953590145698161e-001
1.92700000000000000000e+007 +6.26789336760626980549e-001 -4.83657382951816539052e-001 +3.73210663239372686384e-001 +4.83657382951816594563e-001 +3.73210663239372797406e-001 +4.83657382951816761096e-001 +6.26789336760627091572e-001 -4.83657382951816705585e-001
1.95600000000000000000e+007 +6.17977037299750286969e-001 -4.85882103673281329215e-001 +3.82022962700249490986e-001 +4.85882103673281218192e-001 +3.82022962700249546497e-001 +4.85882103673281218192e-001 +6.17977037299750286969e-001 -4.85882103673281329215e-001
1.98500000000000000000e+007 +6.09276516121378119983e-001 -4.87912536244329564372e-001 +3.90723483878622102061e-001 +4.87912536244329564372e-001 +3.90723483878622102061e-001 +4.87912536244329564372e-001 +6.09276516121378008961e-001 -4.87912536244329564372e-001
2.01400000000000000000e+007 +6.00688981774603059094e-001 -4.89756805924321469980e-001 +3.99311018225396718861e-001 +4.89756805924321581003e-001 +3.99311018225396718861e-001 +4.89756805924321358958e-001 +6.00688981774603281139e-001 -4.89756805924321581003e-001
2.04300000000000000000e+007 +5.92215399923019414352e-001 -4.91422750813429010108e-001 +4.07784600076980474626e-001 +4.91422750813429010108e-001 +4.07784600076980530137e-001 +4.91422750813429010108e-001 +5.92215399923019525374e-001 -4.91422750813428899086e-001
2.07200000000000000000e+007 +5.83856511192451299586e-001 -4.92917929812489385988e-001 +4.16143488807548256325e-001 +4.92917929812489274966e-001 +4.16143488807548256325e-001 +4.92917929812489274966e-001 +5.83856511192451299586e-001 -4.92917929812489330477e-001
2.10100000000000000000e+007 +5.75612847948303030243e-001 -4.94249630475478263225e-001 +4.24387152051696914246e-001 +4.94249630475478207714e-001 +4.24387152051696914246e-001 +4.94249630475478207714e-001 +5.75612847948302808199e-001 -4.94249630475478152203e-001
2.13000000000000000000e+007 +5.67484750062976495144e-001 -4.95424876756241860942e-001 +4.32515249937023282811e-001 +4.95424876756242027476e-001 +4.32515249937023282811e-001 +4.95424876756242027476e-001 +5.67484750062976606166e-001 -4.95424876756241916453e-001
2.15900000000000000000e+007 +5.59472379729654245573e-001 -4.96450436649311210857e-001 +4.40527620270345643405e-001 +4.96450436649311432902e-001 +4.40527620270345643405e-001 +4.96450436649311210857e-001 +5.59472379729654245573e-001 -4.96450436649311432902e-001
2.18800000000000000000e+007 +5.51575735375073317179e-001 -4.97332829723234948194e-001 +4.48424264624926294243e-001 +4.97332829723235003705e-001 +4.48424264624926349754e-001 +4.97332829723234892683e-001 +5.51575735375073428202e-001 -4.97332829723235059216e-001
2.21700000000000000000e+007 +5.43794664720682829895e-001 -4.98078334543877732088e-001 +4.56205335279317392150e-001 +4.98078334543877787599e-001 +4.56205335279317392150e-001 +4.98078334543877843110e-001 +5.43794664720682829895e-001 -4.98078334543877676577e-001
2.24600000000000000000e+007 +5.36128877038650641929e-001 -4.98692995984429232603e-001 +4.63871122961349191538e-001 +4.98692995984429288114e-001 +4.63871122961349247049e-001 +4.98692995984429177092e-001 +5.36128877038650530906e-001 -4.98692995984429288114e-001
2.27500000000000000000e+007 +5.28577954646584746712e-001 -4.99182632418454341749e-001 +4.71422045353415142266e-001 +4.99182632418454397261e-001 +4.71422045353415142266e-001 +4.99182632418454397261e-001 +5.28577954646584524667e-001 -4.99182632418454175216e-001
