#   Hz   S  RI   R   50
! 
1.000000e+06   -1.000000e+00  2.678571e-06    7.294324e-12  2.678571e-06    7.294324e-12  2.678571e-06   -1.000000e+00  2.678571e-06
1.290000e+06   -1.000000e+00  3.465632e-06    1.221078e-11  3.465632e-06    1.221078e-11  3.465632e-06   -1.000000e+00  3.465632e-06
1.580000e+06   -1.000000e+00  4.260605e-06    1.845530e-11  4.260605e-06    1.845530e-11  4.260605e-06   -1.000000e+00  4.260605e-06
1.870000e+06   -1.000000e+00  5.065392e-06    2.608583e-11  5.065392e-06    2.608583e-11  5.065392e-06   -1.000000e+00  5.065392e-06
2.160000e+06   -1.000000e+00  5.881968e-06    3.517418e-11  5.881968e-06    3.517418e-11  5.881968e-06   -1.000000e+00  5.881968e-06
2.450000e+06   -1.000000e+00  6.712405e-06    4.580733e-11  6.712405e-06    4.580733e-11  6.712405e-06   -1.000000e+00  6.712405e-06
2.740000e+06   -1.000000e+00  7.558885e-06    5.808902e-11  7.558885e-06    5.808902e-11  7.558885e-06   -1.000000e+00  7.558885e-06
3.030000e+06   -1.000000e+00  8.423722e-06    7.214174e-11  8.423722e-06    7.214174e-11  8.423722e-06   -1.000000e+00  8.423722e-06
3.320000e+06   -1.000000e+00  9.309386e-06    8.810907e-11  9.309386e-06    8.810907e-11  9.309386e-06   -1.000000e+00  9.309386e-06
3.610000e+06   -1.000000e+00  1.021853e-05    1.061586e-10  1.021853e-05    1.061586e-10  1.021853e-05   -1.000000e+00  1.021853e-05
3.900000e+06   -1.000000e+00  1.115401e-05    1.264855e-10  1.115401e-05    1.264855e-10  1.115401e-05   -1.000000e+00  1.115401e-05
4.190000e+06   -1.000000e+00  1.211894e-05    1.493165e-10  1.211894e-05    1.493165e-10  1.211894e-05   -1.000000e+00  1.211894e-05
4.480000e+06   -1.000000e+00  1.311670e-05    1.749153e-10  1.311670e-05    1.749153e-10  1.311670e-05   -1.000000e+00  1.311670e-05
4.770000e+06   -1.000000e+00  1.415101e-05    2.035885e-10  1.415101e-05    2.035885e-10  1.415101e-05   -1.000000e+00  1.415101e-05
5.060000e+06   -1.000000e+00  1.522595e-05    2.356934e-10  1.522595e-05    2.356934e-10  1.522595e-05   -1.000000e+00  1.522595e-05
5.350000e+06   -1.000000e+00  1.634607e-05    2.716472e-10  1.634607e-05    2.716472e-10  1.634607e-05   -1.000000e+00  1.634607e-05
5.640000e+06   -1.000000e+00  1.751640e-05    3.119379e-10  1.751640e-05    3.119379e-10  1.751640e-05   -1.000000e+00  1.751640e-05
5.930000e+06   -1.000000e+00  1.874258e-05    3.571391e-10  1.874258e-05    3.571391e-10  1.874258e-05   -1.000000e+00  1.874258e-05
6.220000e+06   -1.000000e+00  2.003096e-05    4.079266e-10  2.003096e-05    4.079266e-10  2.003096e-05   -1.000000e+00  2.003096e-05
6.510000e+06   -1.000000e+00  2.138869e-05    4.651006e-10  2.138869e-05    4.651006e-10  2.138869e-05   -1.000000e+00  2.138869e-05
6.800000e+06   -1.000000e+00  2.282390e-05    5.296125e-10  2.282390e-05    5.296125e-10  2.282390e-05   -1.000000e+00  2.282390e-05
7.090000e+06   -1.000000e+00  2.434587e-05    6.026000e-10  2.434587e-05    6.026000e-10  2.434587e-05   -1.000000e+00  2.434587e-05
7.380000e+06   -1.000000e+00  2.596525e-05    6.854309e-10  2.596525e-05    6.854309e-10  2.596525e-05   -1.000000e+00  2.596525e-05
7.670000e+06   -1.000000e+00  2.769435e-05    7.797598e-10  2.769435e-05    7.797598e-10  2.769435e-05   -1.000000e+00  2.769435e-05
7.960000e+06   -1.000000e+00  2.954743e-05    8.876017e-10  2.954743e-05    8.876017e-10  2.954743e-05   -1.000000e+00  2.954743e-05
8.250000e+06   -1.000000e+00  3.154122e-05    1.011429e-09  3.154122e-05    1.011429e-09  3.154122e-05   -1.000000e+00  3.154122e-05
8.540000e+06   -1.000000e+00  3.369536e-05    1.154300e-09  3.369536e-05    1.154300e-09  3.369536e-05   -1.000000e+00  3.369536e-05
8.830000e+06   -1.000000e+00  3.603319e-05    1.320031e-09  3.603319e-05    1.320031e-09  3.603319e-05   -1.000000e+00  3.603319e-05
9.120000e+06   -1.000000e+00  3.858260e-05    1.513427e-09  3.858260e-05    1.513427e-09  3.858260e-05   -1.000000e+00  3.858260e-05
9.410000e+06   -1.000000e+00  4.137722e-05    1.740609e-09  4.137722e-05    1.740609e-09  4.137722e-05   -1.000000e+00  4.137722e-05
9.700000e+06   -1.000000e+00  4.445802e-05    2.009458e-09  4.445802e-05    2.009458e-09  4.445802e-05   -1.000000e+00  4.445802e-05
9.990000e+06   -1.000000e+00  4.787544e-05    2.330258e-09  4.787544e-05    2.330258e-09  4.787544e-05   -1.000000e+00  4.787544e-05
1.028000e+07   -1.000000e+00  5.169223e-05    2.716622e-09  5.169223e-05    2.716622e-09  5.169223e-05   -1.000000e+00  5.169223e-05
1.057000e+07   -1.000000e+00  5.598759e-05    3.186854e-09  5.598759e-05    3.186854e-09  5.598759e-05   -1.000000e+00  5.598759e-05
1.086000e+07   -1.000000e+00  6.086284e-05    3.766023e-09  6.086284e-05    3.766023e-09  6.086284e-05   -1.000000e+00  6.086284e-05
1.115000e+07   -1.000000e+00  6.644980e-05    4.489169e-09  6.644980e-05    4.489169e-09  6.644980e-05   -1.000000e+00  6.644980e-05
1.144000e+07   -1.000000e+00  7.292322e-05    5.406426e-09  7.292322e-05    5.406426e-09  7.292322e-05   -1.000000e+00  7.292322e-05
1.173000e+07   -1.000000e+00  8.051977e-05    6.591491e-09  8.051977e-05    6.591491e-09  8.051977e-05   -1.000000e+00  8.051977e-05
1.202000e+07   -1.000000e+00  8.956825e-05    8.156180e-09  8.956825e-05    8.156180e-09  8.956825e-05   -1.000000e+00  8.956825e-05
1.231000e+07   -1.000000e+00  1.005392e-04    1.027659e-08  1.005392e-04    1.027659e-08  1.005392e-04   -1.000000e+00  1.005392e-04
1.260000e+07   -1.000000e+00  1.141304e-04    1.324285e-08  1.141304e-04    1.324285e-08  1.141304e-04   -1.000000e+00  1.141304e-04
1.289000e+07   -1.000000e+00  1.314235e-04    1.756002e-08  1.314235e-04    1.756002e-08  1.314235e-04   -1.000000e+00  1.314235e-04
1.318000e+07   -1.000000e+00  1.541893e-04    2.417058e-08  1.541893e-04    2.417058e-08  1.541893e-04   -1.000000e+00  1.541893e-04
1.347000e+07   -1.000000e+00  1.855410e-04    3.499923e-08  1.855410e-04    3.499923e-08  1.855410e-04   -1.000000e+00  1.855410e-04
1.376000e+07   -9.999999e-01  2.315043e-04    5.448749e-08  2.315043e-04    5.448749e-08  2.315043e-04   -9.999999e-01  2.315043e-04
1.405000e+07   -9.999999e-01  3.054624e-04    9.486242e-08  3.054624e-04    9.486242e-08  3.054624e-04   -9.999999e-01  3.054624e-04
1.434000e+07   -9.999998e-01  4.443204e-04    2.007110e-07  4.443204e-04    2.007110e-07  4.443204e-04   -9.999998e-01  4.443204e-04
1.463000e+07   -9.999993e-01  8.006854e-04    6.517825e-07  8.006854e-04    6.517825e-07  8.006854e-04   -9.999993e-01  8.006854e-04
1.492000e+07   -9.999858e-01  3.739919e-03    1.422032e-05  3.739919e-03    1.422032e-05  3.739919e-03   -9.999858e-01  3.739919e-03
1.521000e+07   -9.999979e-01 -1.438499e-03    2.103771e-06 -1.438499e-03    2.103771e-06 -1.438499e-03   -9.999979e-01 -1.438499e-03
1.550000e+07   -9.999996e-01 -6.098358e-04    3.780982e-07 -6.098358e-04    3.780982e-07 -6.098358e-04   -9.999996e-01 -6.098358e-04
1.579000e+07   -9.999998e-01 -3.894902e-04    1.542310e-07 -3.894902e-04    1.542310e-07 -3.894902e-04   -9.999998e-01 -3.894902e-04
1.608000e+07   -9.999999e-01 -2.874303e-04    8.399310e-08 -2.874303e-04    8.399310e-08 -2.874303e-04   -9.999999e-01 -2.874303e-04
1.637000e+07   -9.999999e-01 -2.285414e-04    5.310168e-08 -2.285414e-04    5.310168e-08 -2.285414e-04   -9.999999e-01 -2.285414e-04
1.666000e+07   -1.000000e+00 -1.901986e-04    3.677842e-08 -1.901986e-04    3.677842e-08 -1.901986e-04   -1.000000e+00 -1.901986e-04
1.695000e+07   -1.000000e+00 -1.632358e-04    2.709003e-08 -1.632358e-04    2.709003e-08 -1.632358e-04   -1.000000e+00 -1.632358e-04
1.724000e+07   -1.000000e+00 -1.432338e-04    2.085785e-08 -1.432338e-04    2.085785e-08 -1.432338e-04   -1.000000e+00 -1.432338e-04
1.753000e+07   -1.000000e+00 -1.277993e-04    1.660488e-08 -1.277993e-04    1.660488e-08 -1.277993e-04   -1.000000e+00 -1.277993e-04
1.782000e+07   -1.000000e+00 -1.155237e-04    1.356816e-08 -1.155237e-04    1.356816e-08 -1.155237e-04   -1.000000e+00 -1.155237e-04
1.811000e+07   -1.000000e+00 -1.055237e-04    1.132084e-08 -1.055237e-04    1.132084e-08 -1.055237e-04   -1.000000e+00 -1.055237e-04
1.840000e+07   -1.000000e+00 -9.721733e-05    9.608729e-09 -9.721733e-05    9.608729e-09 -9.721733e-05   -1.000000e+00 -9.721733e-05
1.869000e+07   -1.000000e+00 -9.020553e-05    8.272655e-09 -9.020553e-05    8.272655e-09 -9.020553e-05   -1.000000e+00 -9.020553e-05
1.898000e+07   -1.000000e+00 -8.420561e-05    7.208761e-09 -8.420561e-05    7.208761e-09 -8.420561e-05   -1.000000e+00 -8.420561e-05
1.927000e+07   -1.000000e+00 -7.901162e-05    6.346884e-09 -7.901162e-05    6.346884e-09 -7.901162e-05   -1.000000e+00 -7.901162e-05
1.956000e+07   -1.000000e+00 -7.447003e-05    5.638215e-09 -7.447003e-05    5.638215e-09 -7.447003e-05   -1.000000e+00 -7.447003e-05
1.985000e+07   -1.000000e+00 -7.046399e-05    5.047927e-09 -7.046399e-05    5.047927e-09 -7.046399e-05   -1.000000e+00 -7.046399e-05
2.014000e+07   -1.000000e+00 -6.690304e-05    4.550617e-09 -6.690304e-05    4.550617e-09 -6.690304e-05   -1.000000e+00 -6.690304e-05
2.043000e+07   -1.000000e+00 -6.371602e-05    4.127393e-09 -6.371602e-05    4.127393e-09 -6.371602e-05   -1.000000e+00 -6.371602e-05
2.072000e+07   -1.000000e+00 -6.084621e-05    3.763965e-09 -6.084621e-05    3.763965e-09 -6.084621e-05   -1.000000e+00 -6.084621e-05
2.101000e+07   -1.000000e+00 -5.824782e-05    3.449356e-09 -5.824782e-05    3.449356e-09 -5.824782e-05   -1.000000e+00 -5.824782e-05
2.130000e+07   -1.000000e+00 -5.588351e-05    3.175016e-09 -5.588351e-05    3.175016e-09 -5.588351e-05   -1.000000e+00 -5.588351e-05
2.159000e+07   -1.000000e+00 -5.372248e-05    2.934207e-09 -5.372248e-05    2.934207e-09 -5.372248e-05   -1.000000e+00 -5.372248e-05
2.188000e+07   -1.000000e+00 -5.173914e-05    2.721554e-09 -5.173914e-05    2.721554e-09 -5.173914e-05   -1.000000e+00 -5.173914e-05
2.217000e+07   -1.000000e+00 -4.991203e-05    2.532731e-09 -4.991203e-05    2.532731e-09 -4.991203e-05   -1.000000e+00 -4.991203e-05
2.246000e+07   -1.000000e+00 -4.822302e-05    2.364217e-09 -4.822302e-05    2.364217e-09 -4.822302e-05   -1.000000e+00 -4.822302e-05
2.275000e+07   -1.000000e+00 -4.665670e-05    2.213128e-09 -4.665670e-05    2.213128e-09 -4.665670e-05   -1.000000e+00 -4.665670e-05
2.304000e+07   -1.000000e+00 -4.519987e-05    2.077079e-09 -4.519987e-05    2.077079e-09 -4.519987e-05   -1.000000e+00 -4.519987e-05
2.333000e+07   -1.000000e+00 -4.384117e-05    1.954083e-09 -4.384117e-05    1.954083e-09 -4.384117e-05   -1.000000e+00 -4.384117e-05
2.362000e+07   -1.000000e+00 -4.257078e-05    1.842476e-09 -4.257078e-05    1.842476e-09 -4.257078e-05   -1.000000e+00 -4.257078e-05
2.391000e+07   -1.000000e+00 -4.138013e-05    1.740854e-09 -4.138013e-05    1.740854e-09 -4.138013e-05   -1.000000e+00 -4.138013e-05
2.420000e+07   -1.000000e+00 -4.026176e-05    1.648026e-09 -4.026176e-05    1.648026e-09 -4.026176e-05   -1.000000e+00 -4.026176e-05
2.449000e+07   -1.000000e+00 -3.920908e-05    1.562975e-09 -3.920908e-05    1.562975e-09 -3.920908e-05   -1.000000e+00 -3.920908e-05
2.478000e+07   -1.000000e+00 -3.821632e-05    1.484829e-09 -3.821632e-05    1.484829e-09 -3.821632e-05   -1.000000e+00 -3.821632e-05
2.507000e+07   -1.000000e+00 -3.727836e-05    1.412837e-09 -3.727836e-05    1.412837e-09 -3.727836e-05   -1.000000e+00 -3.727836e-05
2.536000e+07   -1.000000e+00 -3.639063e-05    1.346349e-09 -3.639063e-05    1.346349e-09 -3.639063e-05   -1.000000e+00 -3.639063e-05
2.565000e+07   -1.000000e+00 -3.554909e-05    1.284800e-09 -3.554909e-05    1.284800e-09 -3.554909e-05   -1.000000e+00 -3.554909e-05
2.594000e+07   -1.000000e+00 -3.475010e-05    1.227696e-09 -3.475010e-05    1.227696e-09 -3.475010e-05   -1.000000e+00 -3.475010e-05
2.623000e+07   -1.000000e+00 -3.399041e-05    1.174604e-09 -3.399041e-05    1.174604e-09 -3.399041e-05   -1.000000e+00 -3.399041e-05
2.652000e+07   -1.000000e+00 -3.326710e-05    1.125145e-09 -3.326710e-05    1.125145e-09 -3.326710e-05   -1.000000e+00 -3.326710e-05
2.681000e+07   -1.000000e+00 -3.257752e-05    1.078983e-09 -3.257752e-05    1.078983e-09 -3.257752e-05   -1.000000e+00 -3.257752e-05
2.710000e+07   -1.000000e+00 -3.191928e-05    1.035821e-09 -3.191928e-05    1.035821e-09 -3.191928e-05   -1.000000e+00 -3.191928e-05
2.739000e+07   -1.000000e+00 -3.129022e-05    9.953956e-10 -3.129022e-05    9.953956e-10 -3.129022e-05   -1.000000e+00 -3.129022e-05
2.768000e+07   -1.000000e+00 -3.068836e-05    9.574717e-10 -3.068836e-05    9.574717e-10 -3.068836e-05   -1.000000e+00 -3.068836e-05
2.797000e+07   -1.000000e+00 -3.011192e-05    9.218396e-10 -3.011192e-05    9.218396e-10 -3.011192e-05   -1.000000e+00 -3.011192e-05
2.826000e+07   -1.000000e+00 -2.955925e-05    8.883116e-10 -2.955925e-05    8.883116e-10 -2.955925e-05   -1.000000e+00 -2.955925e-05
2.855000e+07   -1.000000e+00 -2.902886e-05    8.567190e-10 -2.902886e-05    8.567190e-10 -2.902886e-05   -1.000000e+00 -2.902886e-05
2.884000e+07   -1.000000e+00 -2.851937e-05    8.269102e-10 -2.851937e-05    8.269102e-10 -2.851937e-05   -1.000000e+00 -2.851937e-05
2.913000e+07   -1.000000e+00 -2.802952e-05    7.987482e-10 -2.802952e-05    7.987482e-10 -2.802952e-05   -1.000000e+00 -2.802952e-05
2.942000e+07   -1.000000e+00 -2.755815e-05    7.721093e-10 -2.755815e-05    7.721093e-10 -2.755815e-05   -1.000000e+00 -2.755815e-05
2.971000e+07   -1.000000e+00 -2.710420e-05    7.468815e-10 -2.710420e-05    7.468815e-10 -2.710420e-05   -1.000000e+00 -2.710420e-05
3.000000e+07   -1.000000e+00 -2.666667e-05    7.229630e-10 -2.666667e-05    7.229630e-10 -2.666667e-05   -1.000000e+00 -2.666667e-05
