!Created with skrf (http://scikit-rf.org).
# Hz S MA R 50.0 
!freq magS11 angS11 magS21 angS21 magS12 angS12 magS22 angS22
500000.0 0.5283474604630499 57.831250363588005 0.8439726514862308 -32.10019905534595 0.8439726514862308 -32.10019905534595 0.5283474604630499 57.831250363588005
795000.0 0.7045105657902844 44.72508457371258 0.7047040129459398 -44.93901339144659 0.7047040129459398 -44.93901339144659 0.7045105657902844 44.72508457371258
1090000.0 0.8060508927941281 35.62859494244829 0.5867650381080566 -53.84060931456171 0.5867650381080566 -53.84060931456171 0.8060508927941281 35.62859494244829
1385000.0 0.8659323896990754 29.16270335521266 0.4949064472815603 -60.09858283504504 0.4949064472815603 -60.09858283504504 0.8659323896990754 29.16270335521266
1680000.0 0.9030557955520341 24.433479244159397 0.4243385880924789 -64.63395071448444 0.4243385880924789 -64.63395071448444 0.9030557955520341 24.433479244159397
1975000.0 0.927341721083972 20.82302748183364 0.3684480675785938 -68.05751228210536 0.3684480675785938 -68.05751228210536 0.927341721083972 20.82302748183364
2270000.0 0.9436220844349664 17.99261290225974 0.32479939262089663 -70.74944119136424 0.32479939262089663 -70.74944119136424 0.9436220844349664 17.99261290225974
2565000.0 0.9556192066561234 15.690752367293234 0.28909597458046105 -72.83433168047048 0.28909597458046105 -72.83433168047048 0.9556192066561234 15.690752367293234
2860000.0 0.9637849689254567 13.799971534673062 0.25943267822718746 -74.54713161741513 0.25943267822718746 -74.54713161741513 0.9637849689254567 13.799971534673062
3155000.0 0.9703421771474281 12.172186934133567 0.23481457987958687 -76.06158591109643 0.23481457987958687 -76.06158591109643 0.9703421771474281 12.172186934133567
3450000.0 0.9752434270990008 10.809577623155516 0.2136389930335911 -77.22416740622141 0.2136389930335911 -77.22416740622141 0.9752434270990008 10.809577623155516
3745000.0 0.9789568117374302 9.606438776845911 0.19557368087919574 -78.26484599650888 0.19557368087919574 -78.26484599650888 0.9789568117374302 9.606438776845911
4040000.0 0.9822893096289707 8.552320778391104 0.17949460875544018 -79.17973719769557 0.17949460875544018 -79.17973719769557 0.9822893096289707 8.552320778391104
4335000.0 0.9843047496711632 7.583018804627436 0.16592235894416527 -80.0721465477194 0.16592235894416527 -80.0721465477194 0.9843047496711632 7.583018804627436
4630000.0 0.9867199416335591 6.752751127870995 0.15342354024587887 -80.71572323534475 0.15342354024587887 -80.71572323534475 0.9867199416335591 6.752751127870995
4925000.0 0.9879621179324652 5.9443535878708005 0.14218826872555787 -81.3462130396123 0.14218826872555787 -81.3462130396123 0.9879621179324652 5.9443535878708005
5220000.0 0.9893521522847039 5.244176748387131 0.132642721455272 -82.13098886103647 0.132642721455272 -82.13098886103647 0.9893521522847039 5.244176748387131
5515000.0 0.9906263696725892 4.566590472397491 0.12278667773209925 -82.54642930641145 0.12278667773209925 -82.54642930641145 0.9906263696725892 4.566590472397491
5810000.0 0.9914188846798947 3.959282266690502 0.11492295107882972 -82.98592155550554 0.11492295107882972 -82.98592155550554 0.9914188846798947 3.959282266690502
6105000.0 0.9923997812977126 3.350097735722489 0.10767107532871192 -83.42043100715803 0.10767107532871192 -83.42043100715803 0.9923997812977126 3.350097735722489
6400000.0 0.9929038881808657 2.7992832318430194 0.10021939949714259 -83.71822920297652 0.10021939949714259 -83.71822920297652 0.9929038881808657 2.7992832318430194
6695000.0 0.993669534941327 2.243451453169012 0.09411220778740272 -84.51701215917028 0.09411220778740272 -84.51701215917028 0.993669534941327 2.243451453169012
6990000.0 0.9937653518952655 1.805243222618974 0.08800057719998813 -84.8277608710136 0.08800057719998813 -84.8277608710136 0.9937653518952655 1.805243222618974
7285000.0 0.9935649051744277 1.3175793477930262 0.08218397790353607 -85.30291948610949 0.08218397790353607 -85.30291948610949 0.9935649051744277 1.3175793477930262
7580000.0 0.9945189609889893 0.8902556091609936 0.0765942139985886 -86.14056114005855 0.0765942139985886 -86.14056114005855 0.9945189609889893 0.8902556091609936
7875000.0 0.9951880762551863 0.4547130854025694 0.07122215466936102 -86.00853066540262 0.07122215466936102 -86.00853066540262 0.9951880762551863 0.4547130854025694
8170000.0 0.9944641232354572 0.019775794704510553 0.06656168677522913 -86.95944643175028 0.06656168677522913 -86.95944643175028 0.9944641232354572 0.019775794704510553
8465000.0 0.9956625606428776 -0.3790855977025157 0.061771829292962536 -87.15639791465726 0.061771829292962536 -87.15639791465726 0.9956625606428776 -0.3790855977025157
8760000.0 0.9949539432511753 -0.7596480083942695 0.0572947483171587 -86.96172562738228 0.0572947483171587 -86.96172562738228 0.9949539432511753 -0.7596480083942695
9055000.0 0.9955704552840906 -1.1640622684283426 0.053862687896839685 -88.35004753659004 0.053862687896839685 -88.35004753659004 0.9955704552840906 -1.1640622684283426
9350000.0 0.9960668936120814 -1.535165100403642 0.04925983335875225 -87.50125592869229 0.04925983335875225 -87.50125592869229 0.9960668936120814 -1.535165100403642
9645000.0 0.9958672334088818 -1.9180883604634746 0.0460969097905114 -88.57752192657247 0.0460969097905114 -88.57752192657247 0.9958672334088818 -1.9180883604634746
9940000.0 0.9958330673335408 -2.2657549441628753 0.043118802241408696 -89.34167167491285 0.043118802241408696 -89.34167167491285 0.9958330673335408 -2.2657549441628753
10235000.0 0.9947924641821494 -2.629344997113692 0.03902811974327295 -88.9856703739223 0.03902811974327295 -88.9856703739223 0.9947924641821494 -2.629344997113692
10530000.0 0.9957820205404838 -2.9539019312438057 0.035902351548390596 -91.45649305040475 0.035902351548390596 -91.45649305040475 0.9957820205404838 -2.9539019312438057
10825000.0 0.9959086850829248 -3.306459837413638 0.03229168723472448 -89.92290223348763 0.03229168723472448 -89.92290223348763 0.9959086850829248 -3.306459837413638
11120000.0 0.995047004389827 -3.6572257068485268 0.02978264738946691 -93.29546171659223 0.02978264738946691 -93.29546171659223 0.995047004389827 -3.6572257068485268
11415000.0 0.9956713033493464 -4.004704422836314 0.02671056242248096 -94.10474641776347 0.02671056242248096 -94.10474641776347 0.9956713033493464 -4.004704422836314
11710000.0 0.9942033293303366 -4.377501661501303 0.023237729009836828 -92.7346492494441 0.023237729009836828 -92.7346492494441 0.9942033293303366 -4.377501661501303
12005000.0 0.9939616328810572 -4.697520484293763 0.021100828995446602 -99.85963658664434 0.021100828995446602 -99.85963658664434 0.9939616328810572 -4.697520484293763
12300000.0 0.994829797828581 -5.011918837563021 0.017777859181849542 -95.19952347728083 0.017777859181849542 -95.19952347728083 0.994829797828581 -5.011918837563021
12595000.0 0.9938838846555993 -5.362607264619196 0.01661305642658102 -102.98029761740031 0.01661305642658102 -102.98029761740031 0.9938838846555993 -5.362607264619196
12890000.0 0.995288232366123 -5.660502855417638 0.014524135850295019 -108.05397296768056 0.014524135850295019 -108.05397296768056 0.995288232366123 -5.660502855417638
13185000.0 0.991853340612339 -6.033766687401438 0.012291900817516101 -109.75860891904102 0.012291900817516101 -109.75860891904102 0.991853340612339 -6.033766687401438
13480000.0 0.9931603228259571 -6.341697556428799 0.011377385904599087 -132.19009371748956 0.011377385904599087 -132.19009371748956 0.9931603228259571 -6.341697556428799
13775000.0 0.9930863983400275 -6.623197474419331 0.007494040546912593 -130.13961637463052 0.007494040546912593 -130.13961637463052 0.9930863983400275 -6.623197474419331
14070000.0 0.9900469740098202 -6.920280575684314 0.008995693346890054 -161.18918319971036 0.008995693346890054 -161.18918319971036 0.9900469740098202 -6.920280575684314
14365000.0 0.9913155753282168 -7.261893161616032 0.008306012525982188 177.70979055510472 0.008306012525982188 177.70979055510472 0.9913155753282168 -7.261893161616032
14660000.0 0.9890331933449379 -7.537870496075711 0.005547698798789458 166.44329205594312 0.005547698798789458 166.44329205594312 0.9890331933449379 -7.537870496075711
14955000.0 0.9898136986315302 -7.864149376983722 0.012147629437074585 157.4946982550295 0.012147629437074585 157.4946982550295 0.9898136986315302 -7.864149376983722
15250000.0 0.9890399583192546 -8.213889743290085 0.008988744421392122 144.02452643403353 0.008988744421392122 144.02452643403353 0.9890399583192546 -8.213889743290085
15545000.0 0.9863901080274111 -8.454636809114355 0.01695877222006561 142.14541273650676 0.01695877222006561 142.14541273650676 0.9863901080274111 -8.454636809114355
15840000.0 0.9897275636485473 -8.89062208871301 0.018737232052135153 132.5236058330594 0.018737232052135153 132.5236058330594 0.9897275636485473 -8.89062208871301
16135000.0 0.9840174683023977 -8.930000432984556 0.019438984130545508 125.9539035377492 0.019438984130545508 125.9539035377492 0.9840174683023977 -8.930000432984556
16430000.0 0.9856301186599274 -9.460661636402138 0.027467460282135096 124.0149876203637 0.027467460282135096 124.0149876203637 0.9856301186599274 -9.460661636402138
16725000.0 0.9857590390552693 -9.913483395855266 0.021005708383318975 126.43303744220778 0.021005708383318975 126.43303744220778 0.9857590390552693 -9.913483395855266
17020000.0 0.9835838950290505 -9.79861280882852 0.030168407317827984 118.82774467524914 0.030168407317827984 118.82774467524914 0.9835838950290505 -9.79861280882852
17315000.0 0.9827986136834884 -10.18854199348992 0.03250813864990773 118.48300612108571 0.03250813864990773 118.48300612108571 0.9827986136834884 -10.18854199348992
17610000.0 0.981209652352166 -10.843879880559598 0.030184007152906256 126.84209788490448 0.030184007152906256 126.84209788490448 0.981209652352166 -10.843879880559598
17905000.0 0.9818961376351596 -10.71118706698561 0.03995597692289358 113.72617743427966 0.03995597692289358 113.72617743427966 0.9818961376351596 -10.71118706698561
18200000.0 0.9794695700638026 -11.381743778531295 0.03656189376241761 120.84271728966235 0.03656189376241761 120.84271728966235 0.9794695700638026 -11.381743778531295
18495000.0 0.9777917247906538 -11.493930583973706 0.044985158889471445 113.46870704145336 0.044985158889471445 113.46870704145336 0.9777917247906538 -11.493930583973706
18790000.0 0.9791872855065885 -11.73397616137061 0.046372260836745276 113.031434398649 0.046372260836745276 113.031434398649 0.9791872855065885 -11.73397616137061
19085000.0 0.9758418758461683 -12.284556648615467 0.0462886599060677 118.76618434531431 0.0462886599060677 118.76618434531431 0.9758418758461683 -12.284556648615467
19380000.0 0.9800246905906442 -12.20226540713577 0.054210958519102286 106.46285387668591 0.054210958519102286 106.46285387668591 0.9800246905906442 -12.20226540713577
19675000.0 0.9767923557880986 -12.679021686346273 0.05441048553921172 114.36614721801726 0.05441048553921172 114.36614721801726 0.9767923557880986 -12.679021686346273
19970000.0 0.9759559571935972 -13.001936640297448 0.05837595797107343 106.15796934270978 0.05837595797107343 106.15796934270978 0.9759559571935972 -13.001936640297448
20265000.0 0.9781446396974214 -13.331317542340052 0.059355783164064105 106.36224143152188 0.059355783164064105 106.36224143152188 0.9781446396974214 -13.331317542340052
20560000.0 0.9739335877739739 -13.781126507282519 0.06184142977725328 110.6427956889699 0.06184142977725328 110.6427956889699 0.9739335877739739 -13.781126507282519
20855000.0 0.9778722788223014 -14.014364872543448 0.06456342952460757 104.04406766699057 0.06456342952460757 104.04406766699057 0.9778722788223014 -14.014364872543448
21150000.0 0.9708449082029036 -14.49074773080621 0.06761563963117705 111.15218894354518 0.06761563963117705 111.15218894354518 0.9708449082029036 -14.49074773080621
21445000.0 0.971876525824382 -14.817536178644877 0.06954998565925086 105.51607168996306 0.06954998565925086 105.51607168996306 0.971876525824382 -14.817536178644877
21740000.0 0.9717701799055989 -15.170247474905958 0.07224700282798904 107.03992679779832 0.07224700282798904 107.03992679779832 0.9717701799055989 -15.170247474905958
22035000.0 0.9650747768507458 -15.54913759005367 0.07895506244143084 111.44341400040976 0.07895506244143084 111.44341400040976 0.9650747768507458 -15.54913759005367
22330000.0 0.9714168771380993 -15.813854021993555 0.08005105293291098 104.29372099476483 0.08005105293291098 104.29372099476483 0.9714168771380993 -15.813854021993555
22625000.0 0.9657313307699235 -16.165293154205624 0.08789022466589706 109.66020412206088 0.08789022466589706 109.66020412206088 0.9657313307699235 -16.165293154205624
22920000.0 0.9641766726111289 -16.433022482927548 0.08846146542401986 104.3726746582296 0.08846146542401986 104.3726746582296 0.9641766726111289 -16.433022482927548
23215000.0 0.9658373909336598 -16.877613384386642 0.09166077151023701 104.53076458308898 0.09166077151023701 104.53076458308898 0.9658373909336598 -16.877613384386642
23510000.0 0.9603055218259772 -17.10160979125844 0.10092370672456967 105.91745123443899 0.10092370672456967 105.91745123443899 0.9603055218259772 -17.10160979125844
23805000.0 0.9670304886347426 -17.731470133682492 0.09539320966162303 101.04999977286515 0.09539320966162303 101.04999977286515 0.9670304886347426 -17.731470133682492
24100000.0 0.9596905042914801 -17.837141623193833 0.1084303295292787 103.85889541071397 0.1084303295292787 103.85889541071397 0.9596905042914801 -17.837141623193833
24395000.0 0.9612757441119814 -18.419756102067854 0.1027516388885063 100.84073123376099 0.1027516388885063 100.84073123376099 0.9612757441119814 -18.419756102067854
24690000.0 0.9617098627044911 -18.98380415930812 0.10647100314622052 101.18203106106658 0.10647100314622052 101.18203106106658 0.9617098627044911 -18.98380415930812
24985000.0 0.958404862276048 -19.120191871582094 0.11636478832674992 100.65570136916402 0.11636478832674992 100.65570136916402 0.958404862276048 -19.120191871582094
25280000.0 0.9618210099814845 -20.05935839786222 0.1077063068719395 99.18671310446767 0.1077063068719395 99.18671310446767 0.9618210099814845 -20.05935839786222
25575000.0 0.9584372088440521 -20.346223178577766 0.11906228168204311 99.56626623612904 0.11906228168204311 99.56626623612904 0.9584372088440521 -20.346223178577766
25870000.0 0.9576831848348424 -20.84724353648054 0.11318048051326422 99.26199454507082 0.11318048051326422 99.26199454507082 0.9576831848348424 -20.84724353648054
26165000.0 0.9551491166681589 -21.606661299872076 0.1164559862110273 100.3664169647251 0.1164559862110273 100.3664169647251 0.9551491166681589 -21.606661299872076
26460000.0 0.9532080032431399 -21.87478157624272 0.12452354186689249 99.17854077483545 0.12452354186689249 99.17854077483545 0.9532080032431399 -21.87478157624272
26755000.0 0.9517009954589091 -23.006272273629488 0.11618469921558783 100.9486961338008 0.11618469921558783 100.9486961338008 0.9517009954589091 -23.006272273629488
27050000.0 0.9494067017519383 -23.103940837203258 0.12918014125814417 99.13913020829617 0.12918014125814417 99.13913020829617 0.9494067017519383 -23.103940837203258
27345000.0 0.9460163330916141 -24.00796519277124 0.12090082343612235 101.94561677683943 0.12090082343612235 101.94561677683943 0.9460163330916141 -24.00796519277124
27640000.0 0.9411129111770589 -24.88888111602125 0.1253983115655791 103.1126011936123 0.1253983115655791 103.1126011936123 0.9411129111770589 -24.88888111602125
27935000.0 0.9403720021332088 -25.322951810544158 0.13041689056211062 101.29275713603866 0.13041689056211062 101.29275713603866 0.9403720021332088 -25.322951810544158
28230000.0 0.9302405102992807 -26.810358218394164 0.12368524940223105 108.46900104909068 0.12368524940223105 108.46900104909068 0.9302405102992807 -26.810358218394164
28525000.0 0.9267229479867365 -27.29579358295685 0.13159494570922584 105.50645238573239 0.13159494570922584 105.50645238573239 0.9267229479867365 -27.29579358295685
28820000.0 0.9208350081493218 -28.329196391241076 0.12915123497566408 113.17826060119954 0.12915123497566408 113.17826060119954 0.9208350081493218 -28.329196391241076
29115000.0 0.9067137342843375 -29.56525201740602 0.13522922002205837 116.56171175302062 0.13522922002205837 116.56171175302062 0.9067137342843375 -29.56525201740602
29410000.0 0.9011363189174288 -30.53577375857933 0.1379557387699909 117.90331258041272 0.1379557387699909 117.90331258041272 0.9011363189174288 -30.53577375857933
29705000.0 0.8692905822782504 -32.33555879179446 0.15777180991221323 130.8212616867691 0.15777180991221323 130.8212616867691 0.8692905822782504 -32.33555879179446
30000000.0 0.8619330087453487 -33.3076359502097 0.16292570220745858 130.55313004843313 0.16292570220745858 130.55313004843313 0.8619330087453487 -33.3076359502097
