! File created by NanoVNA MOD v3.0 by alex_m https://www.rtl-sdr.com/forum/viewtopic.php?f=4&t=4881
! Start 500000Hz  Stop 30000000Hz   Points 101
# Hz S MA R 50
!S - Parameter data, F S11
500000	0.967979259	161.244976218
795000	0.960892791	149.884997376
1090000	0.949196219	138.476146818
1385000	0.927822741	126.681308380
1680000	0.886270623	114.774597730
1975000	0.825128193	103.753102946
2270000	0.758229831	94.137450474
2565000	0.695864050	85.891552004
2860000	0.641543483	78.768815500
3155000	0.596751780	72.551630360
3450000	0.560595325	67.041201129
3745000	0.531737704	61.940607792
4040000	0.508544139	57.164183601
4335000	0.490299050	52.641067027
4630000	0.475420052	48.217957221
4925000	0.463176565	44.008540141
5220000	0.453157577	39.858859726
5515000	0.445262259	35.849382284
5810000	0.438611869	31.887128055
6105000	0.433423951	28.067534007
6400000	0.429325703	24.288640677
6695000	0.425978524	20.572474337
6990000	0.423512942	17.027734283
7285000	0.422013953	13.482798669
7580000	0.420643317	9.965200364
7875000	0.420054448	6.565915499
8170000	0.420049532	3.253390574
8465000	0.420153734	-0.050894135
8760000	0.420959038	-3.227907456
9055000	0.421749175	-6.407756923
9350000	0.423301236	-9.523571566
9645000	0.424913513	-12.546538339
9940000	0.426718461	-15.579527850
10235000	0.429041970	-18.497707601
10530000	0.431133069	-21.411951593
10825000	0.433905494	-24.226450218
11120000	0.436808753	-27.012680013
11415000	0.439529825	-29.771036972
11710000	0.442844004	-32.461049770
12005000	0.445920016	-35.125953613
12300000	0.449662373	-37.760819273
12595000	0.453382930	-40.354627869
12890000	0.456868574	-42.902957526
13185000	0.460793259	-45.407627614
13480000	0.464471495	-47.919974979
13775000	0.468730908	-50.358030414
14070000	0.473002370	-52.783488724
14365000	0.476954010	-55.184118776
14660000	0.481796409	-57.547400496
14955000	0.485277964	-59.900578272
15250000	0.490597452	-62.197342710
15545000	0.494728016	-64.499960558
15840000	0.498801417	-66.734504016
16135000	0.504080159	-68.985589483
16430000	0.507354379	-71.141432169
16725000	0.512579783	-73.328042806
17020000	0.517836527	-75.473690978
17315000	0.522036533	-77.535615719
17610000	0.527080287	-79.663271338
17905000	0.530996672	-81.676862515
18200000	0.536334512	-83.782867826
18495000	0.541101132	-85.794000315
18790000	0.545379844	-87.753384820
19085000	0.550865410	-89.778985904
19380000	0.554770114	-91.631737613
19675000	0.559935811	-93.635896924
19970000	0.564828247	-95.575467173
20265000	0.569566222	-97.409888785
20560000	0.574362213	-99.366819756
20855000	0.578653830	-101.094645176
21150000	0.583608520	-103.076471390
21445000	0.588225850	-104.882327619
21740000	0.592972368	-106.624439193
22035000	0.597314147	-108.523173660
22330000	0.602944351	-110.122447141
22625000	0.607058765	-111.963201435
22920000	0.611486537	-113.722179742
23215000	0.616824029	-115.413482648
23510000	0.620609556	-117.139432132
23805000	0.626309136	-118.751234156
24100000	0.630431707	-120.453864854
24395000	0.634818573	-122.106482325
24690000	0.640083206	-123.714564276
24985000	0.643826379	-125.328745102
25280000	0.649190486	-126.953672888
25575000	0.653267430	-128.529679307
25870000	0.657767708	-130.075027009
26165000	0.662065123	-131.676081978
26460000	0.666778284	-133.215426904
26755000	0.670702387	-134.747928697
27050000	0.675443903	-136.286987954
27345000	0.679192459	-137.793160636
27640000	0.683742065	-139.285882941
27935000	0.687828231	-140.828266741
28230000	0.691454557	-142.283515625
28525000	0.696194815	-143.764255557
28820000	0.699589517	-145.181481649
29115000	0.703713501	-146.624522381
29410000	0.707657254	-148.080445509
29705000	0.711423415	-149.488476622
30000000	0.715508358	-150.889806130
