# HZ S RI R 50
1.00000000000000000000e+006 +5.63504217607702084791e-004 +1.85797596380377072478e-006 +9.99436495782392242404e-001 -1.85797596385928187601e-006 +9.99436495782392353426e-001 -1.85797596380377072478e-006 +5.63504217607702084791e-004 +1.85797596385928187601e-006
1.15025906735751288943e+006 +5.63504218719479421651e-004 +2.13715369934419641140e-006 +9.99436495781280687112e-001 -2.13715369939970756263e-006 +9.99436495781280687112e-001 -2.13715369939970756263e-006 +5.63504218719479421651e-004 +2.13715369934419641140e-006
1.30051813471502601169e+006 +5.63504219984356513606e-004 +2.41633143521768900541e-006 +9.99436495780015698998e-001 -2.41633143527320015664e-006 +9.99436495780015476953e-001 -2.41633143521768900541e-006 +5.63504219984467535909e-004 +2.41633143543973361034e-006
1.45077720207253890112e+006 +5.63504221407329364268e-004 +2.69550917070260354080e-006 +9.99436495778592726147e-001 -2.69550917070260354080e-006 +9.99436495778592726147e-001 -2.69550917070260354080e-006 +5.63504221407329364268e-004 +2.69550917070260354080e-006
1.60103626943005179055e+006 +5.63504222983124414270e-004 +2.97468690646507383235e-006 +9.99436495777016764563e-001 -2.97468690652058498358e-006 +9.99436495777016986608e-001 -2.97468690635405152989e-006 +5.63504222983013391968e-004 +2.97468690640956268112e-006
1.75129533678756467998e+006 +5.63504224714961310383e-004 +3.25386464183896606528e-006 +9.99436495775285260734e-001 -3.25386464189447721651e-006 +9.99436495775285260734e-001 -3.25386464183896606528e-006 +5.63504224714961310383e-004 +3.25386464189447721651e-006
1.90155440414507780224e+006 +5.63504226601674318431e-004 +3.53304237671325793713e-006 +9.99436495773398325682e-001 -3.53304237682428023959e-006 +9.99436495773398325682e-001 -3.53304237671325793713e-006 +5.63504226601785340733e-004 +3.53304237687979139082e-006
2.05181347150259069167e+006 +5.63504228645150817556e-004 +3.81222011225368362375e-006 +9.99436495771355071227e-001 -3.81222011225368362375e-006 +9.99436495771355071227e-001 -3.81222011236470592621e-006 +5.63504228644928772951e-004 +3.81222011230919477498e-006
2.20207253886010358110e+006 +5.63504230842504227894e-004 +4.09139784801615391530e-006 +9.99436495769157495772e-001 -4.09139784790513161283e-006 +9.99436495769157495772e-001 -4.09139784790513161283e-006 +5.63504230842504227894e-004 +4.09139784807166506653e-006
2.35233160621761670336e+006 +5.63504233196621129309e-004 +4.37057558455578032408e-006 +9.99436495766803378871e-001 -4.37057558455578032408e-006 +9.99436495766803378871e-001 -4.37057558455578032408e-006 +5.63504233196621129309e-004 +4.37057558455578032408e-006
2.50259067357512935996e+006 +5.63504235708833789431e-004 +4.64975331870842722992e-006 +9.99436495764291277233e-001 -4.64975331870842722992e-006 +9.99436495764291277233e-001 -4.64975331870842722992e-006 +5.63504235708722767129e-004 +4.64975331870842722992e-006
2.65284974093264248222e+006 +5.63504238368817134130e-004 +4.92893105491498673132e-006 +9.99436495761631293888e-001 -4.92893105491498673132e-006 +9.99436495761631293888e-001 -4.92893105491498673132e-006 +5.63504238368817134130e-004 +4.92893105491498673132e-006
2.80310880829015560448e+006 +5.63504241187562371351e-004 +5.20810879017785666178e-006 +9.99436495758812659673e-001 -5.20810879006683435932e-006 +9.99436495758812437629e-001 -5.20810879017785666178e-006 +5.63504241187340326746e-004 +5.20810879012234551055e-006
2.95336787564766826108e+006 +5.63504244159851452878e-004 +5.48728652582930465087e-006 +9.99436495755840037525e-001 -5.48728652555174889471e-006 +9.99436495755839815480e-001 -5.48728652571828234841e-006 +5.63504244159962475180e-004 +5.48728652527419313856e-006
3.10362694300518138334e+006 +5.63504247290347315413e-004 +5.76646426131421918626e-006 +9.99436495752709763707e-001 -5.76646426142524148872e-006 +9.99436495752709541662e-001 -5.76646426153626379119e-006 +5.63504247290569360018e-004 +5.76646426181381954734e-006
3.25388601036269450560e+006 +5.63504250579160981260e-004 +6.04564199635504451180e-006 +9.99436495749420839019e-001 -6.04564199629953336057e-006 +9.99436495749420839019e-001 -6.04564199641055566303e-006 +5.63504250579160981260e-004 +6.04564199646606681426e-006
3.40414507772020716220e+006 +5.63504254012303640309e-004 +6.32481973217302595458e-006 +9.99436495745987696360e-001 -6.32481973217302595458e-006 +9.99436495745987696360e-001 -6.32481973217302595458e-006 +5.63504254012414662611e-004 +6.32481973217302595458e-006
3.55440414507772028446e+006 +5.63504257601876723527e-004 +6.60399746887918581706e-006 +9.99436495742398234299e-001 -6.60399746887918581706e-006 +9.99436495742398234299e-001 -6.60399746887918581706e-006 +5.63504257601765701224e-004 +6.60399746887918581706e-006
3.70466321243523294106e+006 +5.63504261358205305044e-004 +6.88317520441961150368e-006 +9.99436495738642127762e-001 -6.88317520480818956230e-006 +9.99436495738642127762e-001 -6.88317520453063380614e-006 +5.63504261358094282741e-004 +6.88317520503023416722e-006
3.85492227979274606332e+006 +5.63504265267966708564e-004 +7.16235293862776956075e-006 +9.99436495734732033291e-001 -7.16235293835021380460e-006 +9.99436495734732033291e-001 -7.16235293851674725829e-006 +5.63504265267966708564e-004 +7.16235293835021380460e-006
4.00518134715025918558e+006 +5.63504269325387774359e-004 +7.44153067394615064245e-006 +9.99436495730674723248e-001 -7.44153067361308373506e-006 +9.99436495730674501203e-001 -7.44153067355757258383e-006 +5.63504269325165729754e-004 +7.44153067311348337398e-006
4.15544041450777184218e+006 +5.63504273546011624774e-004 +7.72070840993066553892e-006 +9.99436495726453877353e-001 -7.72070840987515438769e-006 +9.99436495726453877353e-001 -7.72070840981964323646e-006 +5.63504273545900602471e-004 +7.72070840965310978277e-006
4.30569948186528496444e+006 +5.63504277914517182069e-004 +7.99988614569313583047e-006 +9.99436495722085260773e-001 -7.99988614558211352801e-006 +9.99436495722085260773e-001 -7.99988614547109122555e-006 +5.63504277914739226674e-004 +7.99988614541558007431e-006
4.45595854922279808670e+006 +5.63504282436455561367e-004 +8.27906388123356151709e-006 +9.99436495717563655461e-001 -8.27906388101151691217e-006 +9.99436495717563433416e-001 -8.27906388117805036586e-006 +5.63504282436566583669e-004 +8.27906388084498345847e-006
4.60621761658031120896e+006 +5.63504287116489699372e-004 +8.55824161627438684263e-006 +9.99436495712883510301e-001 -8.55824161660745375002e-006 +9.99436495712883399278e-001 -8.55824161671847605248e-006 +5.63504287116711743977e-004 +8.55824161705154295987e-006
4.75647668393782339990e+006 +5.63504291959060488182e-004 +8.83741935137072331941e-006 +9.99436495708040828490e-001 -8.83741935109316756325e-006 +9.99436495708040828490e-001 -8.83741935109316756325e-006 +5.63504291959060488182e-004 +8.83741935081561180709e-006
4.90673575129533652216e+006 +5.63504296966832463056e-004 +9.11659708596745943510e-006 +9.99436495703033056515e-001 -9.11659708585643713263e-006 +9.99436495703032945492e-001 -9.11659708585643713263e-006 +5.63504296966832463056e-004 +9.11659708574541483017e-006
5.05699481865284964442e+006 +5.63504302104056442602e-004 +9.39577482367282001974e-006 +9.99436495697895943557e-001 -9.39577482367282001974e-006 +9.99436495697895943557e-001 -9.39577482367282001974e-006 +5.63504302104056442602e-004 +9.39577482367282001974e-006
5.20725388601036276668e+006 +5.63504307406925697421e-004 +9.67495255682626620342e-006 +9.99436495692593074303e-001 -9.67495255721484426203e-006 +9.99436495692593407369e-001 -9.67495255710382195957e-006 +5.63504307406703652816e-004 +9.67495255749240001819e-006
5.35751295336787588894e+006 +5.63504312863671863454e-004 +9.95413029364344836836e-006 +9.99436495687136439159e-001 -9.95413029386549297328e-006 +9.99436495687136328137e-001 -9.95413029392100412451e-006 +5.63504312863782885756e-004 +9.95413029408753757821e-006
5.50777202072538901120e+006 +5.63504318478402765891e-004 +1.02333080291283629037e-005 +9.99436495681521486212e-001 -1.02333080287397848451e-005 +9.99436495681521264167e-001 -1.02333080287952959964e-005 +5.63504318478624810496e-004 +1.02333080284622290890e-005
5.65803108808290120214e+006 +5.63504324258778943602e-004 +1.05124857668337234884e-005 +9.99436495675741332079e-001 -1.05124857661120785224e-005 +9.99436495675741332079e-001 -1.05124857661120785224e-005 +5.63504324258445876694e-004 +1.05124857653904335564e-005
5.80829015544041432440e+006 +5.63504330169606326706e-004 +1.07916635010973926967e-005 +9.99436495669830282651e-001 -1.07916635015414819065e-005 +9.99436495669830282651e-001 -1.07916635014304596041e-005 +5.63504330169717349008e-004 +1.07916635017635265115e-005
5.95854922279792744666e+006 +5.63504336259179616775e-004 +1.10708412350279949976e-005 +9.99436495663740820383e-001 -1.10708412352222840269e-005 +9.99436495663740820383e-001 -1.10708412352222840269e-005 +5.63504336259179616775e-004 +1.10708412354443286318e-005
6.10880829015544056892e+006 +5.63504342495413368397e-004 +1.13500189700133091719e-005 +9.99436495657504475609e-001 -1.13500189697912645670e-005 +9.99436495657504475609e-001 -1.13500189697357534158e-005 +5.63504342495524390699e-004 +1.13500189694859532352e-005
6.25906735751295369118e+006 +5.63504348868648641258e-004 +1.16291967064974244295e-005 +9.99436495651131351359e-001 -1.16291967064419132782e-005 +9.99436495651131351359e-001 -1.16291967064419132782e-005 +5.63504348868648641258e-004 +1.16291967064419132782e-005
6.40932642487046588212e+006 +5.63504355421295954898e-004 +1.19083744404280267304e-005 +9.99436495644578593023e-001 -1.19083744410386493939e-005 +9.99436495644578815067e-001 -1.19083744410108938183e-005 +5.63504355421406977200e-004 +1.19083744416215164819e-005
6.55958549222797900438e+006 +5.63504362138256276182e-004 +1.21875521734149394604e-005 +9.99436495637861743724e-001 -1.21875521733871838848e-005 +9.99436495637861854746e-001 -1.21875521733594283091e-005 +5.63504362138145253880e-004 +1.21875521733871838848e-005
6.70984455958549212664e+006 +5.63504368982892245299e-004 +1.24667299121195007672e-005 +9.99436495631016996732e-001 -1.24667299123137897965e-005 +9.99436495631017107755e-001 -1.24667299124803232502e-005 +5.63504368983003267601e-004 +1.24667299127301234307e-005
6.86010362694300524890e+006 +5.63504375978962634974e-004 +1.27459076476044153026e-005 +9.99436495624020926343e-001 -1.27459076474933930001e-005 +9.99436495624020926343e-001 -1.27459076474378818489e-005 +5.63504375979073657277e-004 +1.27459076474101262733e-005
7.01036269430051837116e+006 +5.63504383160773336670e-004 +1.30250853806468391838e-005 +9.99436495616839115641e-001 -1.30250853803137722764e-005 +9.99436495616839115641e-001 -1.30250853803137722764e-005 +5.63504383160662314367e-004 +1.30250853801194832471e-005
7.16062176165803149343e+006 +5.63504390487024053868e-004 +1.33042631190183335832e-005 +9.99436495609512753902e-001 -1.33042631192126226125e-005 +9.99436495609512864924e-001 -1.33042631192681337637e-005 +5.63504390487135076171e-004 +1.33042631195734450955e-005
7.31088082901554368436e+006 +5.63504397967040659978e-004 +1.35834408536983364257e-005 +9.99436495602032959340e-001 -1.35834408536983364257e-005 +9.99436495602032959340e-001 -1.35834408536983364257e-005 +5.63504397967040659978e-004 +1.35834408536983364257e-005
7.46113989637305680662e+006 +5.63504405579506872925e-004 +1.38626185884616059951e-005 +9.99436495594420493127e-001 -1.38626185886281394488e-005 +9.99436495594420493127e-001 -1.38626185886281394488e-005 +5.63504405579617895228e-004 +1.38626185886836506000e-005
7.61139896373056992888e+006 +5.63504413367499346066e-004 +1.41417963235301868963e-005 +9.99436495586632611676e-001 -1.41417963226142529010e-005 +9.99436495586632833721e-001 -1.41417963225864973253e-005 +5.63504413367055256856e-004 +1.41417963217538300569e-005
7.76165803108808305115e+006 +5.63504421302374325364e-004 +1.44209740634837491058e-005 +9.99436495578697736697e-001 -1.44209740627898597154e-005 +9.99436495578697847719e-001 -1.44209740627065929885e-005 +5.63504421301708191550e-004 +1.44209740620682147494e-005
7.91191709844559617341e+006 +5.63504429408889784270e-004 +1.47001517959433058991e-005 +9.99436495570590999193e-001 -1.47001517960265726259e-005 +9.99436495570590999193e-001 -1.47001517960265726259e-005 +5.63504429408778761967e-004 +1.47001517961653505040e-005
8.06217616580310836434e+006 +5.63504437675499403326e-004 +1.49793295285971517217e-005 +9.99436495562324611619e-001 -1.49793295289857297803e-005 +9.99436495562324722641e-001 -1.49793295290412409315e-005 +5.63504437675388381024e-004 +1.49793295294020634145e-005
8.21243523316062148660e+006 +5.63504446065676845024e-004 +1.52585072649980002524e-005 +9.99436495553934323155e-001 -1.52585072653310671598e-005 +9.99436495553934323155e-001 -1.52585072652200448573e-005 +5.63504446065787867326e-004 +1.52585072656086229159e-005
8.36269430051813460886e+006 +5.63504454645813446234e-004 +1.55376850007604705439e-005 +9.99436495545354186554e-001 -1.55376850011768041782e-005 +9.99436495545353964509e-001 -1.55376850010657818757e-005 +5.63504454646035490839e-004 +1.55376850014266043587e-005
8.51295336787564679980e+006 +5.63504463345632089499e-004 +1.58168627335253386690e-005 +9.99436495536654367911e-001 -1.58168627344135170887e-005 +9.99436495536654367911e-001 -1.58168627344135170887e-005 +5.63504463345854134104e-004 +1.58168627351906732059e-005
8.66321243523316085339e+006 +5.63504472214093610205e-004 +1.60960404706200765901e-005 +9.99436495527785906390e-001 -1.60960404698984316241e-005 +9.99436495527786017412e-001 -1.60960404699261871997e-005 +5.63504472213871565600e-004 +1.60960404690935199312e-005
8.81347150259067304432e+006 +5.63504481267629309116e-004 +1.63752182065490803353e-005 +9.99436495518732370691e-001 -1.63752182065490803353e-005 +9.99436495518732370691e-001 -1.63752182065490803353e-005 +5.63504481267629309116e-004 +1.63752182065490803353e-005
8.96373056994818709791e+006 +5.63504490425192905434e-004 +1.66543959438103517101e-005 +9.99436495509574918117e-001 -1.66543959437548405589e-005 +9.99436495509574918117e-001 -1.66543959438103517101e-005 +5.63504490425081883131e-004 +1.66543959437548405589e-005
9.11398963730569928885e+006 +5.63504499789813095845e-004 +1.69335736743825293615e-005 +9.99436495500210408949e-001 -1.69335736752984633569e-005 +9.99436495500210742016e-001 -1.69335736753817300837e-005 +5.63504499789369006635e-004 +1.69335736762699085034e-005
9.26424870466321334243e+006 +5.63504509279666443433e-004 +1.72127514138920023612e-005 +9.99436495490720555601e-001 -1.72127514137809800587e-005 +9.99436495490720333557e-001 -1.72127514138364912100e-005 +5.63504509279444398828e-004 +1.72127514137532244831e-005
9.41450777202072553337e+006 +5.63504518934943021691e-004 +1.74919291494324280478e-005 +9.99436495481065056978e-001 -1.74919291496544726527e-005 +9.99436495481065390045e-001 -1.74919291496544726527e-005 +5.63504518934720977086e-004 +1.74919291498210061064e-005
9.56476683937823772430e+006 +5.63504528724667608230e-004 +1.77711068886365897157e-005 +9.99436495471275443414e-001 -1.77711068889419010475e-005 +9.99436495471275554436e-001 -1.77711068889141454719e-005 +5.63504528724556585928e-004 +1.77711068892194568036e-005
9.71502590673575177789e+006 +5.63504538676817823273e-004 +1.80502846161834096250e-005 +9.99436495461323182177e-001 -1.80502846162944319275e-005 +9.99436495461323182177e-001 -1.80502846162389207763e-005 +5.63504538676928845575e-004 +1.80502846162944319275e-005
9.86528497409326396883e+006 +5.63504548780513481177e-004 +1.83294623563867720151e-005 +9.99436495451219597541e-001 -1.83294623566643277712e-005 +9.99436495451219708563e-001 -1.83294623565810610444e-005 +5.63504548780513481177e-004 +1.83294623568586168005e-005
1.00155440414507780224e+007 +5.63504559053074061126e-004 +1.86086400907892191015e-005 +9.99436495440946925939e-001 -1.86086400911222860088e-005 +9.99436495440946925939e-001 -1.86086400910667748576e-005 +5.63504559053074061126e-004 +1.86086400914275973406e-005
1.01658031088082902133e+007 +5.63504569519368558872e-004 +1.88878178234985760753e-005 +9.99436495430480631441e-001 -1.88878178234985760753e-005 +9.99436495430480631441e-001 -1.88878178234985760753e-005 +5.63504569519368558872e-004 +1.88878178234985760753e-005
1.03160621761658024043e+007 +5.63504580126661380746e-004 +1.91669955547646431171e-005 +9.99436495419873671686e-001 -1.91669955549034209952e-005 +9.99436495419873671686e-001 -1.91669955549034209952e-005 +5.63504580126217291536e-004 +1.91669955550421988733e-005
1.04663212435233164579e+007 +5.63504590862184961964e-004 +1.94461732924700037017e-005 +9.99436495409137926060e-001 -1.94461732914152918283e-005 +9.99436495409138037083e-001 -1.94461732915263141308e-005 +5.63504590861740872754e-004 +1.94461732906103801355e-005
1.06165803108808286488e+007 +5.63504601752695677419e-004 +1.97253510318962099745e-005 +9.99436495398247082278e-001 -1.97253510314243651891e-005 +9.99436495398246971256e-001 -1.97253510315076319159e-005 +5.63504601753028744326e-004 +1.97253510309802759792e-005
1.07668393782383427024e+007 +5.63504612741128063647e-004 +2.00045287691852369250e-005 +9.99436495387258982959e-001 -2.00045287691852369250e-005 +9.99436495387258982959e-001 -2.00045287691852369250e-005 +5.63504612741128063647e-004 +2.00045287691852369250e-005
1.09170984455958548933e+007 +5.63504623956379013805e-004 +2.02837064993965920934e-005 +9.99436495376043398942e-001 -2.02837065004235483912e-005 +9.99436495376043620986e-001 -2.02837065003680372399e-005 +5.63504623956712080712e-004 +2.02837065012562156596e-005
1.10673575129533670843e+007 +5.63504635318734514726e-004 +2.05628842344374174189e-005 +9.99436495364681265485e-001 -2.05628842340488393603e-005 +9.99436495364681043441e-001 -2.05628842340210837847e-005 +5.63504635319178603936e-004 +2.05628842336325057261e-005
1.12176165803108811378e+007 +5.63504646849177781576e-004 +2.08420619719207333986e-005 +9.99436495353150822218e-001 -2.08420619720317557011e-005 +9.99436495353150822218e-001 -2.08420619720317557011e-005 +5.63504646849288803878e-004 +2.08420619721150224279e-005
1.13678756476683933288e+007 +5.63504658517954837293e-004 +2.11212397091264936222e-005 +9.99436495341482156185e-001 -2.11212397094873161052e-005 +9.99436495341481934140e-001 -2.11212397094595605296e-005 +5.63504658517954837293e-004 +2.11212397098481385882e-005
1.15181347150259073824e+007 +5.63504670397674267690e-004 +2.14004174320658879793e-005 +9.99436495329602436755e-001 -2.14004174318438433744e-005 +9.99436495329602436755e-001 -2.14004174318438433744e-005 +5.63504670397563245388e-004 +2.14004174316217987695e-005
1.16683937823834195733e+007 +5.63504682308813009683e-004 +2.16795951736847847258e-005 +9.99436495317691186990e-001 -2.16795951739623404819e-005 +9.99436495317691409035e-001 -2.16795951739623404819e-005 +5.63504682308590965079e-004 +2.16795951742676518137e-005
1.18186528497409317642e+007 +5.63504694443661691139e-004 +2.19587729148318366867e-005 +9.99436495305556338309e-001 -2.19587729152759258966e-005 +9.99436495305556449331e-001 -2.19587729152204147454e-005 +5.63504694443661691139e-004 +2.19587729156645039552e-005
1.19689119170984458178e+007 +5.63504706787898435039e-004 +2.22379506496783729830e-005 +9.99436495293212101565e-001 -2.22379506506220625539e-005 +9.99436495293212101565e-001 -2.22379506506220625539e-005 +5.63504706788009457341e-004 +2.22379506515102409736e-005
1.21191709844559580088e+007 +5.63504719219842797884e-004 +2.25171283816660849908e-005 +9.99436495280780157202e-001 -2.25171283823877299568e-005 +9.99436495280780157202e-001 -2.25171283823877299568e-005 +5.63504719219842797884e-004 +2.25171283831093749228e-005
1.22694300518134720623e+007 +5.63504731763586619309e-004 +2.27963061113500842225e-005 +9.99436495268236524403e-001 -2.27963061104619058028e-005 +9.99436495268236302358e-001 -2.27963061104619058028e-005 +5.63504731763586619309e-004 +2.27963061096292385344e-005
