#   Hz   S  RI   R   50
! 
1.000000e+06    7.413327e-01 -5.272390e-01    1.293337e-01  2.636195e-01    1.293337e-01  2.636195e-01   -6.466683e-02 -1.318097e-01
1.058000e+06    7.148113e-01 -5.467349e-01    1.425944e-01  2.733674e-01    1.425944e-01  2.733674e-01   -7.129718e-02 -1.366837e-01
1.116000e+06    6.876606e-01 -5.647093e-01    1.561697e-01  2.823547e-01    1.561697e-01  2.823547e-01   -7.808486e-02 -1.411773e-01
1.174000e+06    6.599820e-01 -5.811584e-01    1.700090e-01  2.905792e-01    1.700090e-01  2.905792e-01   -8.500449e-02 -1.452896e-01
1.232000e+06    6.318744e-01 -5.960853e-01    1.840628e-01  2.980426e-01    1.840628e-01  2.980426e-01   -9.203140e-02 -1.490213e-01
1.290000e+06    6.034330e-01 -6.095003e-01    1.982835e-01  3.047501e-01    1.982835e-01  3.047501e-01   -9.914175e-02 -1.523751e-01
1.348000e+06    5.747495e-01 -6.214199e-01    2.126253e-01  3.107099e-01    2.126253e-01  3.107099e-01   -1.063126e-01 -1.553550e-01
1.406000e+06    5.459113e-01 -6.318663e-01    2.270443e-01  3.159332e-01    2.270443e-01  3.159332e-01   -1.135222e-01 -1.579666e-01
1.464000e+06    5.170015e-01 -6.408670e-01    2.414993e-01  3.204335e-01    2.414993e-01  3.204335e-01   -1.207496e-01 -1.602167e-01
1.522000e+06    4.880984e-01 -6.484537e-01    2.559508e-01  3.242269e-01    2.559508e-01  3.242269e-01   -1.279754e-01 -1.621134e-01
1.580000e+06    4.592757e-01 -6.546625e-01    2.703622e-01  3.273312e-01    2.703622e-01  3.273312e-01   -1.351811e-01 -1.636656e-01
1.638000e+06    4.306018e-01 -6.595326e-01    2.846991e-01  3.297663e-01    2.846991e-01  3.297663e-01   -1.423495e-01 -1.648832e-01
1.696000e+06    4.021407e-01 -6.631063e-01    2.989297e-01  3.315532e-01    2.989297e-01  3.315532e-01   -1.494648e-01 -1.657766e-01
1.754000e+06    3.739509e-01 -6.654282e-01    3.130245e-01  3.327141e-01    3.130245e-01  3.327141e-01   -1.565123e-01 -1.663570e-01
1.812000e+06    3.460865e-01 -6.665447e-01    3.269567e-01  3.332723e-01    3.269567e-01  3.332723e-01   -1.634784e-01 -1.666362e-01
1.870000e+06    3.185966e-01 -6.665038e-01    3.407017e-01  3.332519e-01    3.407017e-01  3.332519e-01   -1.703509e-01 -1.666259e-01
1.928000e+06    2.915255e-01 -6.653545e-01    3.542372e-01  3.326772e-01    3.542372e-01  3.326772e-01   -1.771186e-01 -1.663386e-01
1.986000e+06    2.649135e-01 -6.631464e-01    3.675433e-01  3.315732e-01    3.675433e-01  3.315732e-01   -1.837716e-01 -1.657866e-01
2.044000e+06    2.387959e-01 -6.599296e-01    3.806020e-01  3.299648e-01    3.806020e-01  3.299648e-01   -1.903010e-01 -1.649824e-01
2.102000e+06    2.132046e-01 -6.557542e-01    3.933977e-01  3.278771e-01    3.933977e-01  3.278771e-01   -1.966989e-01 -1.639385e-01
2.160000e+06    1.881669e-01 -6.506698e-01    4.059166e-01  3.253349e-01    4.059166e-01  3.253349e-01   -2.029583e-01 -1.626674e-01
2.218000e+06    1.637069e-01 -6.447258e-01    4.181466e-01  3.223629e-01    4.181466e-01  3.223629e-01   -2.090733e-01 -1.611814e-01
2.276000e+06    1.398449e-01 -6.379707e-01    4.300776e-01  3.189854e-01    4.300776e-01  3.189854e-01   -2.150388e-01 -1.594927e-01
2.334000e+06    1.165981e-01 -6.304524e-01    4.417010e-01  3.152262e-01    4.417010e-01  3.152262e-01   -2.208505e-01 -1.576131e-01
2.392000e+06    9.398053e-02 -6.222175e-01    4.530097e-01  3.111088e-01    4.530097e-01  3.111088e-01   -2.265049e-01 -1.555544e-01
2.450000e+06    7.200348e-02 -6.133116e-01    4.639983e-01  3.066558e-01    4.639983e-01  3.066558e-01   -2.319991e-01 -1.533279e-01
2.508000e+06    5.067556e-02 -6.037790e-01    4.746622e-01  3.018895e-01    4.746622e-01  3.018895e-01   -2.373311e-01 -1.509447e-01
2.566000e+06    3.000294e-02 -5.936625e-01    4.849985e-01  2.968312e-01    4.849985e-01  2.968312e-01   -2.424993e-01 -1.484156e-01
2.624000e+06    9.989623e-03 -5.830037e-01    4.950052e-01  2.915018e-01    4.950052e-01  2.915018e-01   -2.475026e-01 -1.457509e-01
2.682000e+06   -9.362469e-03 -5.718427e-01    5.046812e-01  2.859213e-01    5.046812e-01  2.859213e-01   -2.523406e-01 -1.429607e-01
2.740000e+06   -2.805324e-02 -5.602180e-01    5.140266e-01  2.801090e-01    5.140266e-01  2.801090e-01   -2.570133e-01 -1.400545e-01
2.798000e+06   -4.608428e-02 -5.481667e-01    5.230421e-01  2.740833e-01    5.230421e-01  2.740833e-01   -2.615211e-01 -1.370417e-01
2.856000e+06   -6.345869e-02 -5.357243e-01    5.317293e-01  2.678622e-01    5.317293e-01  2.678622e-01   -2.658647e-01 -1.339311e-01
2.914000e+06   -8.018093e-02 -5.229248e-01    5.400905e-01  2.614624e-01    5.400905e-01  2.614624e-01   -2.700452e-01 -1.307312e-01
2.972000e+06   -9.625670e-02 -5.098008e-01    5.481283e-01  2.549004e-01    5.481283e-01  2.549004e-01   -2.740642e-01 -1.274502e-01
3.030000e+06   -1.116927e-01 -4.963831e-01    5.558464e-01  2.481916e-01    5.558464e-01  2.481916e-01   -2.779232e-01 -1.240958e-01
3.088000e+06   -1.264968e-01 -4.827014e-01    5.632484e-01  2.413507e-01    5.632484e-01  2.413507e-01   -2.816242e-01 -1.206754e-01
3.146000e+06   -1.406775e-01 -4.687837e-01    5.703387e-01  2.343919e-01    5.703387e-01  2.343919e-01   -2.851694e-01 -1.171959e-01
3.204000e+06   -1.542440e-01 -4.546567e-01    5.771220e-01  2.273284e-01    5.771220e-01  2.273284e-01   -2.885610e-01 -1.136642e-01
3.262000e+06   -1.672064e-01 -4.403458e-01    5.836032e-01  2.201729e-01    5.836032e-01  2.201729e-01   -2.918016e-01 -1.100864e-01
3.320000e+06   -1.795752e-01 -4.258748e-01    5.897876e-01  2.129374e-01    5.897876e-01  2.129374e-01   -2.948938e-01 -1.064687e-01
3.378000e+06   -1.913612e-01 -4.112665e-01    5.956806e-01  2.056332e-01    5.956806e-01  2.056332e-01   -2.978403e-01 -1.028166e-01
3.436000e+06   -2.025759e-01 -3.965423e-01    6.012879e-01  1.982711e-01    6.012879e-01  1.982711e-01   -3.006440e-01 -9.913557e-02
3.494000e+06   -2.132308e-01 -3.817225e-01    6.066154e-01  1.908613e-01    6.066154e-01  1.908613e-01   -3.033077e-01 -9.543063e-02
3.552000e+06   -2.233380e-01 -3.668262e-01    6.116690e-01  1.834131e-01    6.116690e-01  1.834131e-01   -3.058345e-01 -9.170656e-02
3.610000e+06   -2.329095e-01 -3.518714e-01    6.164547e-01  1.759357e-01    6.164547e-01  1.759357e-01   -3.082274e-01 -8.796786e-02
3.668000e+06   -2.419576e-01 -3.368751e-01    6.209788e-01  1.684375e-01    6.209788e-01  1.684375e-01   -3.104894e-01 -8.421877e-02
3.726000e+06   -2.504946e-01 -3.218530e-01    6.252473e-01  1.609265e-01    6.252473e-01  1.609265e-01   -3.126237e-01 -8.046326e-02
3.784000e+06   -2.585330e-01 -3.068203e-01    6.292665e-01  1.534101e-01    6.292665e-01  1.534101e-01   -3.146332e-01 -7.670507e-02
3.842000e+06   -2.660852e-01 -2.917909e-01    6.330426e-01  1.458954e-01    6.330426e-01  1.458954e-01   -3.165213e-01 -7.294772e-02
3.900000e+06   -2.731635e-01 -2.767779e-01    6.365818e-01  1.383889e-01    6.365818e-01  1.383889e-01   -3.182909e-01 -6.919447e-02
3.958000e+06   -2.797805e-01 -2.617937e-01    6.398902e-01  1.308968e-01    6.398902e-01  1.308968e-01   -3.199451e-01 -6.544841e-02
4.016000e+06   -2.859483e-01 -2.468496e-01    6.429741e-01  1.234248e-01    6.429741e-01  1.234248e-01   -3.214871e-01 -6.171241e-02
4.074000e+06   -2.916791e-01 -2.319566e-01    6.458396e-01  1.159783e-01    6.458396e-01  1.159783e-01   -3.229198e-01 -5.798915e-02
4.132000e+06   -2.969852e-01 -2.171245e-01    6.484926e-01  1.085623e-01    6.484926e-01  1.085623e-01   -3.242463e-01 -5.428113e-02
4.190000e+06   -3.018783e-01 -2.023627e-01    6.509391e-01  1.011813e-01    6.509391e-01  1.011813e-01   -3.254696e-01 -5.059067e-02
4.248000e+06   -3.063703e-01 -1.876798e-01    6.531851e-01  9.383990e-02    6.531851e-01  9.383990e-02   -3.265926e-01 -4.691995e-02
4.306000e+06   -3.104729e-01 -1.730839e-01    6.552364e-01  8.654195e-02    6.552364e-01  8.654195e-02   -3.276182e-01 -4.327097e-02
4.364000e+06   -3.141974e-01 -1.585824e-01    6.570987e-01  7.929121e-02    6.570987e-01  7.929121e-02   -3.285494e-01 -3.964560e-02
4.422000e+06   -3.175552e-01 -1.441823e-01    6.587776e-01  7.209113e-02    6.587776e-01  7.209113e-02   -3.293888e-01 -3.604556e-02
4.480000e+06   -3.205574e-01 -1.298898e-01    6.602787e-01  6.494490e-02    6.602787e-01  6.494490e-02   -3.301393e-01 -3.247245e-02
4.538000e+06   -3.232148e-01 -1.157109e-01    6.616074e-01  5.785545e-02    6.616074e-01  5.785545e-02   -3.308037e-01 -2.892772e-02
4.596000e+06   -3.255381e-01 -1.016510e-01    6.627690e-01  5.082549e-02    6.627690e-01  5.082549e-02   -3.313845e-01 -2.541274e-02
4.654000e+06   -3.275377e-01 -8.771498e-02    6.637689e-01  4.385749e-02    6.637689e-01  4.385749e-02   -3.318844e-01 -2.192875e-02
4.712000e+06   -3.292239e-01 -7.390745e-02    6.646120e-01  3.695373e-02    6.646120e-01  3.695373e-02   -3.323060e-01 -1.847686e-02
4.770000e+06   -3.306068e-01 -6.023253e-02    6.653034e-01  3.011626e-02    6.653034e-01  3.011626e-02   -3.326517e-01 -1.505813e-02
4.828000e+06   -3.316961e-01 -4.669398e-02    6.658480e-01  2.334699e-02    6.658480e-01  2.334699e-02   -3.329240e-01 -1.167349e-02
4.886000e+06   -3.325014e-01 -3.329521e-02    6.662507e-01  1.664760e-02    6.662507e-01  1.664760e-02   -3.331253e-01 -8.323802e-03
4.944000e+06   -3.330321e-01 -2.003930e-02    6.665160e-01  1.001965e-02    6.665160e-01  1.001965e-02   -3.332580e-01 -5.009826e-03
5.002000e+06   -3.332973e-01 -6.929029e-03    6.666487e-01  3.464514e-03    6.666487e-01  3.464514e-03   -3.333243e-01 -1.732257e-03
5.060000e+06   -3.333060e-01  6.033149e-03    6.666530e-01 -3.016575e-03    6.666530e-01 -3.016575e-03   -3.333265e-01  1.508287e-03
5.118000e+06   -3.330669e-01  1.884504e-02    6.665335e-01 -9.422519e-03    6.665335e-01 -9.422519e-03   -3.332667e-01  4.711260e-03
5.176000e+06   -3.325885e-01  3.150471e-02    6.662943e-01 -1.575236e-02    6.662943e-01 -1.575236e-02   -3.331471e-01  7.876178e-03
5.234000e+06   -3.318791e-01  4.401049e-02    6.659395e-01 -2.200524e-02    6.659395e-01 -2.200524e-02   -3.329698e-01  1.100262e-02
5.292000e+06   -3.309466e-01  5.636091e-02    6.654733e-01 -2.818046e-02    6.654733e-01 -2.818046e-02   -3.327367e-01  1.409023e-02
5.350000e+06   -3.297991e-01  6.855476e-02    6.648996e-01 -3.427738e-02    6.648996e-01 -3.427738e-02   -3.324498e-01  1.713869e-02
5.408000e+06   -3.284442e-01  8.059100e-02    6.642221e-01 -4.029550e-02    6.642221e-01 -4.029550e-02   -3.321111e-01  2.014775e-02
5.466000e+06   -3.268893e-01  9.246881e-02    6.634447e-01 -4.623441e-02    6.634447e-01 -4.623441e-02   -3.317223e-01  2.311720e-02
5.524000e+06   -3.251417e-01  1.041875e-01    6.625709e-01 -5.209376e-02    6.625709e-01 -5.209376e-02   -3.312854e-01  2.604688e-02
5.582000e+06   -3.232085e-01  1.157467e-01    6.616042e-01 -5.787333e-02    6.616042e-01 -5.787333e-02   -3.308021e-01  2.893667e-02
5.640000e+06   -3.210965e-01  1.271459e-01    6.605482e-01 -6.357296e-02    6.605482e-01 -6.357296e-02   -3.302741e-01  3.178648e-02
5.698000e+06   -3.188124e-01  1.383851e-01    6.594062e-01 -6.919254e-02    6.594062e-01 -6.919254e-02   -3.297031e-01  3.459627e-02
5.756000e+06   -3.163627e-01  1.494641e-01    6.581813e-01 -7.473207e-02    6.581813e-01 -7.473207e-02   -3.290907e-01  3.736604e-02
5.814000e+06   -3.137537e-01  1.603832e-01    6.568769e-01 -8.019160e-02    6.568769e-01 -8.019160e-02   -3.284384e-01  4.009580e-02
5.872000e+06   -3.109917e-01  1.711425e-01    6.554958e-01 -8.557123e-02    6.554958e-01 -8.557123e-02   -3.277479e-01  4.278561e-02
5.930000e+06   -3.080824e-01  1.817423e-01    6.540412e-01 -9.087113e-02    6.540412e-01 -9.087113e-02   -3.270206e-01  4.543556e-02
5.988000e+06   -3.050319e-01  1.921830e-01    6.525159e-01 -9.609151e-02    6.525159e-01 -9.609151e-02   -3.262580e-01  4.804576e-02
6.046000e+06   -3.018456e-01  2.024653e-01    6.509228e-01 -1.012327e-01    6.509228e-01 -1.012327e-01   -3.254614e-01  5.061633e-02
6.104000e+06   -2.985290e-01  2.125897e-01    6.492645e-01 -1.062949e-01    6.492645e-01 -1.062949e-01   -3.246323e-01  5.314744e-02
6.162000e+06   -2.950876e-01  2.225570e-01    6.475438e-01 -1.112785e-01    6.475438e-01 -1.112785e-01   -3.237719e-01  5.563926e-02
6.220000e+06   -2.915263e-01  2.323680e-01    6.457632e-01 -1.161840e-01    6.457632e-01 -1.161840e-01   -3.228816e-01  5.809200e-02
6.278000e+06   -2.878503e-01  2.420235e-01    6.439251e-01 -1.210117e-01    6.439251e-01 -1.210117e-01   -3.219626e-01  6.050587e-02
6.336000e+06   -2.840644e-01  2.515244e-01    6.420322e-01 -1.257622e-01    6.420322e-01 -1.257622e-01   -3.210161e-01  6.288111e-02
6.394000e+06   -2.801732e-01  2.608719e-01    6.400866e-01 -1.304359e-01    6.400866e-01 -1.304359e-01   -3.200433e-01  6.521796e-02
6.452000e+06   -2.761815e-01  2.700668e-01    6.380908e-01 -1.350334e-01    6.380908e-01 -1.350334e-01   -3.190454e-01  6.751670e-02
6.510000e+06   -2.720936e-01  2.791104e-01    6.360468e-01 -1.395552e-01    6.360468e-01 -1.395552e-01   -3.180234e-01  6.977761e-02
6.568000e+06   -2.679139e-01  2.880039e-01    6.339569e-01 -1.440019e-01    6.339569e-01 -1.440019e-01   -3.169785e-01  7.200097e-02
6.626000e+06   -2.636464e-01  2.967484e-01    6.318232e-01 -1.483742e-01    6.318232e-01 -1.483742e-01   -3.159116e-01  7.418710e-02
6.684000e+06   -2.592954e-01  3.053452e-01    6.296477e-01 -1.526726e-01    6.296477e-01 -1.526726e-01   -3.148238e-01  7.633630e-02
6.742000e+06   -2.548646e-01  3.137956e-01    6.274323e-01 -1.568978e-01    6.274323e-01 -1.568978e-01   -3.137161e-01  7.844889e-02
6.800000e+06   -2.503579e-01  3.221009e-01    6.251790e-01 -1.610504e-01    6.251790e-01 -1.610504e-01   -3.125895e-01  8.052522e-02
6.858000e+06   -2.457790e-01  3.302625e-01    6.228895e-01 -1.651312e-01    6.228895e-01 -1.651312e-01   -3.114448e-01  8.256562e-02
6.916000e+06   -2.411315e-01  3.382818e-01    6.205658e-01 -1.691409e-01    6.205658e-01 -1.691409e-01   -3.102829e-01  8.457045e-02
6.974000e+06   -2.364189e-01  3.461602e-01    6.182094e-01 -1.730801e-01    6.182094e-01 -1.730801e-01   -3.091047e-01  8.654005e-02
7.032000e+06   -2.316444e-01  3.538991e-01    6.158222e-01 -1.769496e-01    6.158222e-01 -1.769496e-01   -3.079111e-01  8.847478e-02
7.090000e+06   -2.268114e-01  3.615001e-01    6.134057e-01 -1.807500e-01    6.134057e-01 -1.807500e-01   -3.067029e-01  9.037502e-02
7.148000e+06   -2.219230e-01  3.689645e-01    6.109615e-01 -1.844823e-01    6.109615e-01 -1.844823e-01   -3.054808e-01  9.224113e-02
7.206000e+06   -2.169823e-01  3.762939e-01    6.084912e-01 -1.881470e-01    6.084912e-01 -1.881470e-01   -3.042456e-01  9.407349e-02
7.264000e+06   -2.119922e-01  3.834899e-01    6.059961e-01 -1.917449e-01    6.059961e-01 -1.917449e-01   -3.029981e-01  9.587247e-02
7.322000e+06   -2.069556e-01  3.905538e-01    6.034778e-01 -1.952769e-01    6.034778e-01 -1.952769e-01   -3.017389e-01  9.763846e-02
7.380000e+06   -2.018753e-01  3.974873e-01    6.009376e-01 -1.987437e-01    6.009376e-01 -1.987437e-01   -3.004688e-01  9.937184e-02
7.438000e+06   -1.967539e-01  4.042920e-01    5.983769e-01 -2.021460e-01    5.983769e-01 -2.021460e-01   -2.991885e-01  1.010730e-01
7.496000e+06   -1.915940e-01  4.109692e-01    5.957970e-01 -2.054846e-01    5.957970e-01 -2.054846e-01   -2.978985e-01  1.027423e-01
7.554000e+06   -1.863982e-01  4.175207e-01    5.931991e-01 -2.087604e-01    5.931991e-01 -2.087604e-01   -2.965996e-01  1.043802e-01
7.612000e+06   -1.811689e-01  4.239480e-01    5.905845e-01 -2.119740e-01    5.905845e-01 -2.119740e-01   -2.952922e-01  1.059870e-01
7.670000e+06   -1.759084e-01  4.302526e-01    5.879542e-01 -2.151263e-01    5.879542e-01 -2.151263e-01   -2.939771e-01  1.075631e-01
7.728000e+06   -1.706191e-01  4.364360e-01    5.853095e-01 -2.182180e-01    5.853095e-01 -2.182180e-01   -2.926548e-01  1.091090e-01
7.786000e+06   -1.653031e-01  4.424999e-01    5.826515e-01 -2.212500e-01    5.826515e-01 -2.212500e-01   -2.913258e-01  1.106250e-01
7.844000e+06   -1.599625e-01  4.484459e-01    5.799812e-01 -2.242229e-01    5.799812e-01 -2.242229e-01   -2.899906e-01  1.121115e-01
7.902000e+06   -1.545994e-01  4.542753e-01    5.772997e-01 -2.271377e-01    5.772997e-01 -2.271377e-01   -2.886499e-01  1.135688e-01
7.960000e+06   -1.492158e-01  4.599900e-01    5.746079e-01 -2.299950e-01    5.746079e-01 -2.299950e-01   -2.873040e-01  1.149975e-01
8.018000e+06   -1.438137e-01  4.655912e-01    5.719068e-01 -2.327956e-01    5.719068e-01 -2.327956e-01   -2.859534e-01  1.163978e-01
8.076000e+06   -1.383948e-01  4.710807e-01    5.691974e-01 -2.355404e-01    5.691974e-01 -2.355404e-01   -2.845987e-01  1.177702e-01
8.134000e+06   -1.329609e-01  4.764600e-01    5.664805e-01 -2.382300e-01    5.664805e-01 -2.382300e-01   -2.832402e-01  1.191150e-01
8.192000e+06   -1.275139e-01  4.817305e-01    5.637570e-01 -2.408652e-01    5.637570e-01 -2.408652e-01   -2.818785e-01  1.204326e-01
8.250000e+06   -1.220554e-01  4.868938e-01    5.610277e-01 -2.434469e-01    5.610277e-01 -2.434469e-01   -2.805138e-01  1.217234e-01
8.308000e+06   -1.165869e-01  4.919514e-01    5.582935e-01 -2.459757e-01    5.582935e-01 -2.459757e-01   -2.791467e-01  1.229879e-01
8.366000e+06   -1.111101e-01  4.969049e-01    5.555551e-01 -2.484524e-01    5.555551e-01 -2.484524e-01   -2.777775e-01  1.242262e-01
8.424000e+06   -1.056265e-01  5.017556e-01    5.528132e-01 -2.508778e-01    5.528132e-01 -2.508778e-01   -2.764066e-01  1.254389e-01
8.482000e+06   -1.001374e-01  5.065052e-01    5.500687e-01 -2.532526e-01    5.500687e-01 -2.532526e-01   -2.750344e-01  1.266263e-01
8.540000e+06   -9.464442e-02  5.111550e-01    5.473222e-01 -2.555775e-01    5.473222e-01 -2.555775e-01   -2.736611e-01  1.277888e-01
8.598000e+06   -8.914877e-02  5.157066e-01    5.445744e-01 -2.578533e-01    5.445744e-01 -2.578533e-01   -2.722872e-01  1.289267e-01
8.656000e+06   -8.365178e-02  5.201614e-01    5.418259e-01 -2.600807e-01    5.418259e-01 -2.600807e-01   -2.709129e-01  1.300403e-01
8.714000e+06   -7.815471e-02  5.245208e-01    5.390774e-01 -2.622604e-01    5.390774e-01 -2.622604e-01   -2.695387e-01  1.311302e-01
8.772000e+06   -7.265877e-02  5.287862e-01    5.363294e-01 -2.643931e-01    5.363294e-01 -2.643931e-01   -2.681647e-01  1.321966e-01
8.830000e+06   -6.716514e-02  5.329591e-01    5.335826e-01 -2.664796e-01    5.335826e-01 -2.664796e-01   -2.667913e-01  1.332398e-01
8.888000e+06   -6.167493e-02  5.370409e-01    5.308375e-01 -2.685204e-01    5.308375e-01 -2.685204e-01   -2.654187e-01  1.342602e-01
8.946000e+06   -5.618922e-02  5.410329e-01    5.280946e-01 -2.705165e-01    5.280946e-01 -2.705165e-01   -2.640473e-01  1.352582e-01
9.004000e+06   -5.070907e-02  5.449366e-01    5.253545e-01 -2.724683e-01    5.253545e-01 -2.724683e-01   -2.626773e-01  1.362341e-01
9.062000e+06   -4.523546e-02  5.487532e-01    5.226177e-01 -2.743766e-01    5.226177e-01 -2.743766e-01   -2.613089e-01  1.371883e-01
9.120000e+06   -3.976937e-02  5.524842e-01    5.198847e-01 -2.762421e-01    5.198847e-01 -2.762421e-01   -2.599423e-01  1.381211e-01
9.178000e+06   -3.431171e-02  5.561309e-01    5.171559e-01 -2.780654e-01    5.171559e-01 -2.780654e-01   -2.585779e-01  1.390327e-01
9.236000e+06   -2.886339e-02  5.596945e-01    5.144317e-01 -2.798473e-01    5.144317e-01 -2.798473e-01   -2.572158e-01  1.399236e-01
9.294000e+06   -2.342527e-02  5.631765e-01    5.117126e-01 -2.815882e-01    5.117126e-01 -2.815882e-01   -2.558563e-01  1.407941e-01
9.352000e+06   -1.799815e-02  5.665780e-01    5.089991e-01 -2.832890e-01    5.089991e-01 -2.832890e-01   -2.544995e-01  1.416445e-01
9.410000e+06   -1.258284e-02  5.699004e-01    5.062914e-01 -2.849502e-01    5.062914e-01 -2.849502e-01   -2.531457e-01  1.424751e-01
9.468000e+06   -7.180086e-03  5.731449e-01    5.035900e-01 -2.865724e-01    5.035900e-01 -2.865724e-01   -2.517950e-01  1.432862e-01
9.526000e+06   -1.790626e-03  5.763127e-01    5.008953e-01 -2.881564e-01    5.008953e-01 -2.881564e-01   -2.504477e-01  1.440782e-01
9.584000e+06    3.584845e-03  5.794052e-01    4.982076e-01 -2.897026e-01    4.982076e-01 -2.897026e-01   -2.491038e-01  1.448513e-01
9.642000e+06    8.945659e-03  5.824235e-01    4.955272e-01 -2.912117e-01    4.955272e-01 -2.912117e-01   -2.477636e-01  1.456059e-01
