<Qucs Dataset 0.0.22>
<indep frequency 127>
1.000000000000e+00
1.115883992508e+00
1.245197084735e+00
1.389495494373e+00
1.550515779833e+00
1.730195738846e+00
1.930697728883e+00
2.154434690032e+00
2.404099183510e+00
2.682695795280e+00
2.993577294720e+00
3.340484983513e+00
3.727593720315e+00
4.159562163072e+00
4.641588833613e+00
5.179474679231e+00
5.779692884153e+00
6.449466771038e+00
7.196856730012e+00
8.030857221392e+00
8.961505019466e+00
1.000000000000e+01
1.115883992508e+01
1.245197084735e+01
1.389495494373e+01
1.550515779833e+01
1.730195738846e+01
1.930697728883e+01
2.154434690032e+01
2.404099183510e+01
2.682695795280e+01
2.993577294720e+01
3.340484983513e+01
3.727593720315e+01
4.159562163072e+01
4.641588833613e+01
5.179474679231e+01
5.779692884153e+01
6.449466771038e+01
7.196856730011e+01
8.030857221391e+01
8.961505019466e+01
1.000000000000e+02
1.115883992508e+02
1.245197084735e+02
1.389495494373e+02
1.550515779833e+02
1.730195738846e+02
1.930697728883e+02
2.154434690032e+02
2.404099183510e+02
2.682695795280e+02
2.993577294720e+02
3.340484983513e+02
3.727593720315e+02
4.159562163072e+02
4.641588833613e+02
5.179474679231e+02
5.779692884153e+02
6.449466771038e+02
7.196856730011e+02
8.030857221391e+02
8.961505019466e+02
1.000000000000e+03
1.115883992508e+03
1.245197084735e+03
1.389495494373e+03
1.550515779833e+03
1.730195738846e+03
1.930697728883e+03
2.154434690032e+03
2.404099183510e+03
2.682695795280e+03
2.993577294720e+03
3.340484983513e+03
3.727593720315e+03
4.159562163072e+03
4.641588833613e+03
5.179474679231e+03
5.779692884153e+03
6.449466771038e+03
7.196856730011e+03
8.030857221391e+03
8.961505019466e+03
1.000000000000e+04
1.115883992508e+04
1.245197084735e+04
1.389495494373e+04
1.550515779833e+04
1.730195738846e+04
1.930697728883e+04
2.154434690032e+04
2.404099183510e+04
2.682695795280e+04
2.993577294720e+04
3.340484983513e+04
3.727593720315e+04
4.159562163072e+04
4.641588833613e+04
5.179474679231e+04
5.779692884153e+04
6.449466771038e+04
7.196856730011e+04
8.030857221391e+04
8.961505019466e+04
1.000000000000e+05
1.115883992508e+05
1.245197084735e+05
1.389495494373e+05
1.550515779833e+05
1.730195738846e+05
1.930697728883e+05
2.154434690032e+05
2.404099183510e+05
2.682695795280e+05
2.993577294720e+05
3.340484983513e+05
3.727593720315e+05
4.159562163072e+05
4.641588833613e+05
5.179474679231e+05
5.779692884153e+05
6.449466771038e+05
7.196856730011e+05
8.030857221391e+05
8.961505019466e+05
1.000000000000e+06
</indep>
<dep ac.v(ns11) frequency>
6.284306408588e-12+j3.141692612837e-08
7.825073922163e-12+j3.505791846046e-08
9.743983397925e-12+j3.912095004768e-08
1.213318334692e-11+j4.365496997566e-08
1.510835900831e-11+j4.871461590649e-08
1.881339528609e-11+j5.436087958802e-08
2.342681604262e-11+j6.066185193704e-08
2.917177610584e-11+j6.769355787245e-08
3.632605327653e-11+j7.554089262522e-08
4.523537100454e-11+j8.429867312940e-08
5.632982968962e-11+j9.407282039142e-08
7.014699932029e-11+j1.049816915749e-07
8.735412393435e-11+j1.171575840988e-07
1.087849810233e-10+j1.307484385511e-07
1.354769629813e-10+j1.459197730125e-07
1.687239237214e-10+j1.628568888689e-07
2.101385732090e-10+j1.817673980148e-07
2.617321914755e-10+j2.028841343084e-07
3.260136605121e-10+j2.264685294021e-07
4.061151415158e-10+j2.528145562187e-07
5.059472840685e-10+j2.822533745807e-07
6.303981781031e-10+j3.151588558485e-07
7.855804895485e-10+j3.519542211122e-07
9.791494282041e-10+j3.931201063295e-07
1.220702650073e-09+j4.392044759400e-07
1.522291848133e-09+j4.908349550794e-07
1.899083557078e-09+j5.487343552130e-07
2.370206475533e-09+j6.137404504005e-07
2.959860578855e-09+j6.868314515153e-07
3.698767958582e-09+j7.691591652686e-07
4.626096838933e-09+j8.620925717115e-07
5.792036406049e-09+j9.672755883735e-07
7.261274914683e-09+j1.086704222967e-06
9.117768096090e-09+j1.222830304627e-06
1.147133432688e-08+j1.378701741230e-06
1.446690234275e-08+j1.558153076224e-06
1.829762430461e-08+j1.766065427653e-06
2.322368564123e-08+j2.008722260599e-06
2.959957035031e-08+j2.294297671668e-06
3.791397218400e-08+j2.633528060066e-06
4.884873727740e-08+j3.040637763043e-06
6.336658775474e-08+j3.534616579221e-06
8.284256880486e-08+j4.140985049579e-06
1.092621728649e-07+j4.894236012157e-06
1.455214422297e-07+j5.841213966338e-06
1.958834354721e-07+j7.045795023709e-06
2.666749507885e-07+j8.595370524794e-06
3.673530100112e-07+j1.060983171769e-05
5.121411916775e-07+j1.325402181305e-05
7.225451004178e-07+j1.675499352769e-05
1.031225292936e-06+j2.142592363096e-05
1.487967559832e-06+j2.769924384031e-05
2.168895378629e-06+j3.617252137750e-05
3.190695932132e-06+j4.767195928830e-05
4.732600634938e-06+j6.334021551643e-05
7.070360793060e-06+j8.475773153120e-05
1.062877783520e-05+j1.141101381768e-04
1.606293086232e-05+j1.544188506623e-04
2.438377764991e-05+j2.098580229451e-04
3.715234201773e-05+j2.861890070252e-04
5.677985510610e-05+j3.913537780229e-04
8.699145780922e-05+j5.362817928074e-04
1.335421519921e-04+j7.359805269102e-04
2.053212970863e-04+j1.010997880086e-03
3.160546425445e-04+j1.389362686408e-03
4.869234197735e-04+j1.909122692188e-03
7.505871610234e-04+j2.621596868031e-03
1.157347788709e-03+j3.595419399721e-03
1.784565216289e-03+j4.921334975765e-03
2.750980238353e-03+j6.717431657014e-03
4.238381300538e-03+j9.133925349560e-03
6.524129147513e-03+j1.235547583613e-02
1.002944436482e-02+j1.659683977572e-02
1.538991612250e-02+j2.208358688463e-02
2.355575360140e-02+j2.900208823734e-02
3.592785898932e-02+j3.738942029827e-02
5.452630761346e-02+j4.691023216949e-02
8.215604811680e-02+j5.642979701124e-02
1.224468726378e-01+j6.324404924502e-02
1.794326185353e-01+j6.181282845041e-02
2.559122551983e-01+j4.204842313216e-02
3.493352230765e-01-j1.184066730149e-02
4.446361992713e-01-j1.185704432540e-01
5.086763033097e-01-j2.876443503261e-01
5.000154659373e-01-j5.002519621600e-01
3.992639848172e-01-j7.068134706423e-01
2.284720217758e-01-j8.581478102336e-01
3.142731803515e-02-j9.365343005872e-01
-1.568632791716e-01-j9.530483256136e-01
-3.200106699121e-01-j9.282668624411e-01
-4.546992092160e-01-j8.799537999961e-01
-5.634838657589e-01-j8.201162111460e-01
-6.505903003717e-01-j7.560306188862e-01
-7.201648055956e-01-j6.918732154312e-01
-7.757398248549e-01-j6.299530664281e-01
-8.201738375241e-01-j5.714858406570e-01
-8.557383486978e-01-j5.170487786307e-01
-8.842304236374e-01-j4.668443184583e-01
-9.070731454922e-01-j4.208543284912e-01
-9.253964589784e-01-j3.789322178677e-01
-9.401000894716e-01-j3.408592200492e-01
-9.519021719890e-01-j3.063794486401e-01
-9.613769651595e-01-j2.752219782693e-01
-9.689842987348e-01-j2.471147565581e-01
-9.750927269250e-01-j2.217932462273e-01
-9.799978408706e-01-j1.990056088106e-01
-9.839368189264e-01-j1.785155977644e-01
-9.871000266213e-01-j1.601039327882e-01
-9.896402865518e-01-j1.435686746678e-01
-9.916802984243e-01-j1.287249539928e-01
-9.933185850134e-01-j1.154042954468e-01
-9.946342604397e-01-j1.034537029843e-01
-9.956908559180e-01-j9.273461837748e-02
-9.965393902855e-01-j8.312182885556e-02
-9.972208349202e-01-j7.450237391840e-02
-9.977680927749e-01-j6.677448353594e-02
-9.982075874455e-01-j5.984656754479e-02
-9.985605391941e-01-j5.363626750385e-02
-9.988439896338e-01-j4.806957644341e-02
-9.990716246020e-01-j4.308002803082e-02
-9.992544349802e-01-j3.860795411208e-02
-9.994012473786e-01-j3.459980796660e-02
-9.995191503174e-01-j3.100754964414e-02
-9.996138364836e-01-j2.778808923492e-02
-9.996898775919e-01-j2.490278371031e-02
-9.997509451206e-01-j2.231698296087e-02
-9.997999875814e-01-j1.999962077927e-02
</dep>
<dep ac.v(ns12) frequency>
9.999999799950e-01-j2.000252032538e-04
9.999999750898e-01-j2.232049221354e-04
9.999999689819e-01-j2.490707992796e-04
9.999999613763e-01-j2.779341173888e-04
9.999999519059e-01-j3.101422318317e-04
9.999999401134e-01-j3.460827508815e-04
9.999999254293e-01-j3.861882003743e-04
9.999999071448e-01-j4.309412289235e-04
9.999998843770e-01-j4.808804163306e-04
9.999998560266e-01-j5.366067550911e-04
9.999998207247e-01-j5.987908829939e-04
9.999997767669e-01-j6.681811538507e-04
9.999997220308e-01-j7.456126434760e-04
9.999996538736e-01-j8.320171992914e-04
9.999995690044e-01-j9.284346544847e-04
9.999994633256e-01-j1.036025341662e-03
9.999993317346e-01-j1.156084056566e-03
9.999991678779e-01-j1.290055639878e-03
9.999989638439e-01-j1.439552364566e-03
9.999987097815e-01-j1.606373337982e-03
9.999983934237e-01-j1.792526152098e-03
9.999979994958e-01-j2.000251042319e-03
9.999975089780e-01-j2.232047845449e-03
9.999968981867e-01-j2.490706080982e-03
9.999961376311e-01-j2.779338517432e-03
9.999951905896e-01-j3.101418627184e-03
9.999940113361e-01-j3.460822380001e-03
9.999925429332e-01-j3.861874877279e-03
9.999907144822e-01-j4.309402387045e-03
9.999884377003e-01-j4.808790404258e-03
9.999856026581e-01-j5.366048432776e-03
9.999820724718e-01-j5.987882265376e-03
9.999776766942e-01-j6.681774627167e-03
9.999722030846e-01-j7.456075146619e-03
9.999653873620e-01-j8.320100728273e-03
9.999569004440e-01-j9.284247522948e-03
9.999463325584e-01-j1.036011582613e-02
9.999331734580e-01-j1.156064938430e-02
9.999167877845e-01-j1.290029075314e-02
9.998963843914e-01-j1.439515453224e-02
9.998709781457e-01-j1.606322049837e-02
9.998393423621e-01-j1.792454887450e-02
9.997999495761e-01-j2.000152020410e-02
9.997508977928e-01-j2.231910254946e-02
9.996898186534e-01-j2.490514899587e-02
9.996137630844e-01-j2.779072871724e-02
9.995190589066e-01-j3.101049513633e-02
9.994011335319e-01-j3.460309498314e-02
9.992542931843e-01-j3.861162230348e-02
9.990714479849e-01-j4.308412167077e-02
9.988437696280e-01-j4.807414497546e-02
9.985602651155e-01-j5.364136615545e-02
9.982072459650e-01-j5.985225801824e-02
9.977676672564e-01-j6.678083478706e-02
9.972203045886e-01-j7.450946303586e-02
9.965387291780e-01-j8.312974205622e-02
9.956900315619e-01-j9.274345213582e-02
9.946332321758e-01-j1.034635653176e-01
9.933173018664e-01-j1.154153073812e-01
9.916786963824e-01-j1.287372512404e-01
9.896382850753e-01-j1.435824095473e-01
9.870975241340e-01-j1.601192764252e-01
9.839336869511e-01-j1.785327426048e-01
9.799939163423e-01-j1.990247714695e-01
9.750878020255e-01-j2.218146706641e-01
9.689781073210e-01-j2.471387175026e-01
9.613691644630e-01-j2.752487846813e-01
9.518923176869e-01-j3.064094467115e-01
9.400876013905e-01-j3.408927947330e-01
9.253805734861e-01-j3.789697909256e-01
9.070528489340e-01-j4.208963492029e-01
8.842043588762e-01-j4.668912396909e-01
8.557046839987e-01-j5.171010045802e-01
8.201300843378e-01-j5.715436207641e-01
7.756825909023e-01-j6.300162882983e-01
7.200894791781e-01-j6.919410106181e-01
6.504907004214e-01-j7.561006285946e-01
5.633520087446e-01-j8.201832575775e-01
4.545256500730e-01-j8.800076062410e-01
3.197865708606e-01-j9.282885643709e-01
1.565865723184e-01-j9.530065546055e-01
-3.173864420622e-02-j9.363852620476e-01
-2.287617047260e-01-j8.578506762456e-01
-3.994360109066e-01-j7.063710210418e-01
-4.999844070926e-01-j4.997480373577e-01
-5.084429003923e-01-j2.872086439980e-01
-4.442872926336e-01-j1.182864009985e-01
-3.489680437757e-01-j1.171033424933e-02
-2.555839989879e-01+j4.206685338775e-02
-1.791618813062e-01+j6.176425764973e-02
-1.222318731309e-01+j6.316097055759e-02
-8.198795519952e-02+j5.633212624457e-02
-5.439546413974e-02+j4.680916416543e-02
-3.582591775680e-02+j3.729088584608e-02
-2.347608050302e-02+j2.890902758987e-02
-1.532740823933e-02+j2.199728906756e-02
-9.980218073166e-03+j1.651769752980e-02
-6.485229990104e-03+j1.228340462720e-02
-4.207552197930e-03+j9.068595351466e-03
-2.726486488578e-03+j6.658396470429e-03
-1.765065077576e-03+j4.868103133936e-03
-1.141797184997e-03+j3.547493884442e-03
-7.381692550738e-04+j2.578496538247e-03
-4.769961750896e-04+j1.870393377781e-03
-3.081114283837e-04+j1.354582332915e-03
-1.989610198255e-04+j9.797782635963e-04
-1.284464115622e-04+j7.079670078007e-04
-8.290693886567e-05+j5.111519756961e-04
-5.350465915701e-05+j3.688155953414e-04
-3.452531519135e-05+j2.659785364854e-04
-2.227613543145e-05+j1.917372246905e-04
-1.437165763486e-05+j1.381733340672e-04
-9.271406882393e-06+j9.954702155259e-05
-5.980834112868e-06+j7.170362902617e-05
-3.857977420585e-06+j5.163936747403e-05
-2.488530698115e-06+j3.718451116336e-05
-1.605146214001e-06+j2.677294948580e-05
-1.035325191193e-06+j1.927492216129e-05
-6.677769205590e-07+j1.387582360543e-05
-4.307050456608e-07+j9.988507653355e-06
-2.777944982803e-07+j7.189901428442e-06
-1.791692218338e-07+j5.175229410676e-06
-1.155580040382e-07+j3.724977927446e-06
-7.453051680247e-08+j2.681067244537e-06
-4.806912389396e-08+j1.929672487241e-06
-3.100249551363e-08+j1.388842490277e-06
-1.999520186018e-08+j9.995790816301e-07
</dep>
<dep ac.v(ns21) frequency>
9.999999799950e-01-j2.000252032538e-04
9.999999750898e-01-j2.232049221354e-04
9.999999689819e-01-j2.490707992796e-04
9.999999613763e-01-j2.779341173888e-04
9.999999519059e-01-j3.101422318317e-04
9.999999401134e-01-j3.460827508815e-04
9.999999254293e-01-j3.861882003743e-04
9.999999071448e-01-j4.309412289235e-04
9.999998843770e-01-j4.808804163306e-04
9.999998560266e-01-j5.366067550911e-04
9.999998207247e-01-j5.987908829939e-04
9.999997767669e-01-j6.681811538507e-04
9.999997220308e-01-j7.456126434760e-04
9.999996538736e-01-j8.320171992914e-04
9.999995690044e-01-j9.284346544847e-04
9.999994633256e-01-j1.036025341662e-03
9.999993317346e-01-j1.156084056566e-03
9.999991678779e-01-j1.290055639878e-03
9.999989638439e-01-j1.439552364566e-03
9.999987097815e-01-j1.606373337982e-03
9.999983934237e-01-j1.792526152098e-03
9.999979994958e-01-j2.000251042319e-03
9.999975089780e-01-j2.232047845449e-03
9.999968981867e-01-j2.490706080982e-03
9.999961376311e-01-j2.779338517432e-03
9.999951905896e-01-j3.101418627184e-03
9.999940113361e-01-j3.460822380001e-03
9.999925429332e-01-j3.861874877279e-03
9.999907144822e-01-j4.309402387045e-03
9.999884377003e-01-j4.808790404258e-03
9.999856026581e-01-j5.366048432776e-03
9.999820724718e-01-j5.987882265376e-03
9.999776766942e-01-j6.681774627167e-03
9.999722030846e-01-j7.456075146619e-03
9.999653873620e-01-j8.320100728273e-03
9.999569004440e-01-j9.284247522948e-03
9.999463325584e-01-j1.036011582613e-02
9.999331734580e-01-j1.156064938430e-02
9.999167877845e-01-j1.290029075314e-02
9.998963843914e-01-j1.439515453224e-02
9.998709781457e-01-j1.606322049837e-02
9.998393423621e-01-j1.792454887450e-02
9.997999495761e-01-j2.000152020410e-02
9.997508977928e-01-j2.231910254946e-02
9.996898186534e-01-j2.490514899587e-02
9.996137630844e-01-j2.779072871724e-02
9.995190589066e-01-j3.101049513633e-02
9.994011335319e-01-j3.460309498314e-02
9.992542931843e-01-j3.861162230348e-02
9.990714479849e-01-j4.308412167077e-02
9.988437696280e-01-j4.807414497546e-02
9.985602651155e-01-j5.364136615545e-02
9.982072459650e-01-j5.985225801824e-02
9.977676672564e-01-j6.678083478706e-02
9.972203045886e-01-j7.450946303586e-02
9.965387291780e-01-j8.312974205622e-02
9.956900315619e-01-j9.274345213582e-02
9.946332321758e-01-j1.034635653176e-01
9.933173018664e-01-j1.154153073812e-01
9.916786963824e-01-j1.287372512404e-01
9.896382850753e-01-j1.435824095473e-01
9.870975241340e-01-j1.601192764252e-01
9.839336869511e-01-j1.785327426048e-01
9.799939163423e-01-j1.990247714695e-01
9.750878020255e-01-j2.218146706641e-01
9.689781073210e-01-j2.471387175026e-01
9.613691644630e-01-j2.752487846813e-01
9.518923176869e-01-j3.064094467115e-01
9.400876013905e-01-j3.408927947330e-01
9.253805734861e-01-j3.789697909256e-01
9.070528489340e-01-j4.208963492029e-01
8.842043588762e-01-j4.668912396909e-01
8.557046839987e-01-j5.171010045802e-01
8.201300843378e-01-j5.715436207641e-01
7.756825909023e-01-j6.300162882983e-01
7.200894791781e-01-j6.919410106181e-01
6.504907004214e-01-j7.561006285946e-01
5.633520087446e-01-j8.201832575775e-01
4.545256500730e-01-j8.800076062410e-01
3.197865708606e-01-j9.282885643709e-01
1.565865723184e-01-j9.530065546055e-01
-3.173864420622e-02-j9.363852620476e-01
-2.287617047260e-01-j8.578506762456e-01
-3.994360109066e-01-j7.063710210418e-01
-4.999844070926e-01-j4.997480373577e-01
-5.084429003923e-01-j2.872086439980e-01
-4.442872926336e-01-j1.182864009985e-01
-3.489680437757e-01-j1.171033424933e-02
-2.555839989879e-01+j4.206685338775e-02
-1.791618813062e-01+j6.176425764973e-02
-1.222318731309e-01+j6.316097055759e-02
-8.198795519952e-02+j5.633212624457e-02
-5.439546413974e-02+j4.680916416543e-02
-3.582591775680e-02+j3.729088584608e-02
-2.347608050302e-02+j2.890902758987e-02
-1.532740823933e-02+j2.199728906756e-02
-9.980218073166e-03+j1.651769752980e-02
-6.485229990104e-03+j1.228340462720e-02
-4.207552197930e-03+j9.068595351466e-03
-2.726486488578e-03+j6.658396470429e-03
-1.765065077576e-03+j4.868103133936e-03
-1.141797184997e-03+j3.547493884442e-03
-7.381692550738e-04+j2.578496538247e-03
-4.769961750896e-04+j1.870393377781e-03
-3.081114283837e-04+j1.354582332915e-03
-1.989610198255e-04+j9.797782635963e-04
-1.284464115622e-04+j7.079670078007e-04
-8.290693886567e-05+j5.111519756961e-04
-5.350465915701e-05+j3.688155953414e-04
-3.452531519135e-05+j2.659785364854e-04
-2.227613543145e-05+j1.917372246905e-04
-1.437165763486e-05+j1.381733340672e-04
-9.271406882393e-06+j9.954702155259e-05
-5.980834112868e-06+j7.170362902617e-05
-3.857977420585e-06+j5.163936747403e-05
-2.488530698115e-06+j3.718451116336e-05
-1.605146214001e-06+j2.677294948580e-05
-1.035325191193e-06+j1.927492216129e-05
-6.677769205590e-07+j1.387582360543e-05
-4.307050456608e-07+j9.988507653355e-06
-2.777944982803e-07+j7.189901428442e-06
-1.791692218338e-07+j5.175229410676e-06
-1.155580040382e-07+j3.724977927446e-06
-7.453051680247e-08+j2.681067244537e-06
-4.806912389396e-08+j1.929672487241e-06
-3.100249551363e-08+j1.388842490277e-06
-1.999520186018e-08+j9.995790816301e-07
</dep>
<dep ac.v(ns22) frequency>
6.284306408588e-12+j3.141692612837e-08
7.825073922163e-12+j3.505791846046e-08
9.743983397925e-12+j3.912095004768e-08
1.213318334692e-11+j4.365496997566e-08
1.510835900831e-11+j4.871461590649e-08
1.881339528609e-11+j5.436087958802e-08
2.342681604262e-11+j6.066185193704e-08
2.917177610584e-11+j6.769355787245e-08
3.632605327653e-11+j7.554089262522e-08
4.523537100454e-11+j8.429867312940e-08
5.632982968962e-11+j9.407282039142e-08
7.014699932029e-11+j1.049816915749e-07
8.735412393435e-11+j1.171575840988e-07
1.087849810233e-10+j1.307484385511e-07
1.354769629813e-10+j1.459197730125e-07
1.687239237214e-10+j1.628568888689e-07
2.101385732090e-10+j1.817673980148e-07
2.617321914755e-10+j2.028841343084e-07
3.260136605121e-10+j2.264685294021e-07
4.061151415158e-10+j2.528145562187e-07
5.059472840685e-10+j2.822533745807e-07
6.303981781031e-10+j3.151588558485e-07
7.855804895485e-10+j3.519542211122e-07
9.791494282041e-10+j3.931201063295e-07
1.220702650073e-09+j4.392044759400e-07
1.522291848133e-09+j4.908349550794e-07
1.899083557078e-09+j5.487343552130e-07
2.370206475533e-09+j6.137404504005e-07
2.959860578855e-09+j6.868314515153e-07
3.698767958582e-09+j7.691591652686e-07
4.626096838933e-09+j8.620925717115e-07
5.792036406049e-09+j9.672755883735e-07
7.261274914683e-09+j1.086704222967e-06
9.117768096090e-09+j1.222830304627e-06
1.147133432688e-08+j1.378701741230e-06
1.446690234275e-08+j1.558153076224e-06
1.829762430461e-08+j1.766065427653e-06
2.322368564123e-08+j2.008722260599e-06
2.959957035031e-08+j2.294297671668e-06
3.791397218400e-08+j2.633528060066e-06
4.884873727740e-08+j3.040637763043e-06
6.336658775474e-08+j3.534616579221e-06
8.284256880486e-08+j4.140985049579e-06
1.092621728649e-07+j4.894236012157e-06
1.455214422297e-07+j5.841213966338e-06
1.958834354721e-07+j7.045795023709e-06
2.666749507885e-07+j8.595370524794e-06
3.673530100112e-07+j1.060983171769e-05
5.121411916775e-07+j1.325402181305e-05
7.225451004178e-07+j1.675499352769e-05
1.031225292936e-06+j2.142592363096e-05
1.487967559832e-06+j2.769924384031e-05
2.168895378629e-06+j3.617252137750e-05
3.190695932132e-06+j4.767195928830e-05
4.732600634938e-06+j6.334021551643e-05
7.070360793060e-06+j8.475773153120e-05
1.062877783520e-05+j1.141101381768e-04
1.606293086232e-05+j1.544188506623e-04
2.438377764991e-05+j2.098580229451e-04
3.715234201773e-05+j2.861890070252e-04
5.677985510610e-05+j3.913537780229e-04
