<Qucs Dataset 0.0.22>
<indep frequency 101>
1.000000000000e+06
1.290000000000e+06
1.580000000000e+06
1.870000000000e+06
2.160000000000e+06
2.450000000000e+06
2.740000000000e+06
3.030000000000e+06
3.320000000000e+06
3.610000000000e+06
3.900000000000e+06
4.190000000000e+06
4.480000000000e+06
4.770000000000e+06
5.060000000000e+06
5.350000000000e+06
5.640000000000e+06
5.930000000000e+06
6.220000000000e+06
6.510000000000e+06
6.800000000000e+06
7.090000000000e+06
7.380000000000e+06
7.670000000000e+06
7.960000000000e+06
8.250000000000e+06
8.540000000000e+06
8.830000000000e+06
9.120000000000e+06
9.410000000000e+06
9.700000000000e+06
9.990000000000e+06
1.028000000000e+07
1.057000000000e+07
1.086000000000e+07
1.115000000000e+07
1.144000000000e+07
1.173000000000e+07
1.202000000000e+07
1.231000000000e+07
1.260000000000e+07
1.289000000000e+07
1.318000000000e+07
1.347000000000e+07
1.376000000000e+07
1.405000000000e+07
1.434000000000e+07
1.463000000000e+07
1.492000000000e+07
1.521000000000e+07
1.550000000000e+07
1.579000000000e+07
1.608000000000e+07
1.637000000000e+07
1.666000000000e+07
1.695000000000e+07
1.724000000000e+07
1.753000000000e+07
1.782000000000e+07
1.811000000000e+07
1.840000000000e+07
1.869000000000e+07
1.898000000000e+07
1.927000000000e+07
1.956000000000e+07
1.985000000000e+07
2.014000000000e+07
2.043000000000e+07
2.072000000000e+07
2.101000000000e+07
2.130000000000e+07
2.159000000000e+07
2.188000000000e+07
2.217000000000e+07
2.246000000000e+07
2.275000000000e+07
2.304000000000e+07
2.333000000000e+07
2.362000000000e+07
2.391000000000e+07
2.420000000000e+07
2.449000000000e+07
2.478000000000e+07
2.507000000000e+07
2.536000000000e+07
2.565000000000e+07
2.594000000000e+07
2.623000000000e+07
2.652000000000e+07
2.681000000000e+07
2.710000000000e+07
2.739000000000e+07
2.768000000000e+07
2.797000000000e+07
2.826000000000e+07
2.855000000000e+07
2.884000000000e+07
2.913000000000e+07
2.942000000000e+07
2.971000000000e+07
3.000000000000e+07
</indep>
<dep ac.v(v1) frequency>
6.099112464166e-01+j2.070634399957e-01
6.631173243504e-01+j2.344175531920e-01
7.153910346683e-01+j2.475933531469e-01
7.635915322880e-01+j2.496308774497e-01
8.062458064145e-01+j2.435913859268e-01
8.429942161636e-01+j2.320613545600e-01
8.741023573865e-01+j2.170231263574e-01
9.001252381749e-01+j1.999071670292e-01
9.217084075921e-01+j1.817050089574e-01
9.394839407010e-01+j1.630838566013e-01
9.540236574987e-01+j1.444813900026e-01
9.658236817723e-01+j1.261771647484e-01
9.753046483310e-01+j1.083437350226e-01
9.828187920683e-01+j9.108220586299e-02
9.886593371791e-01+j7.444652909449e-02
9.930699629241e-01+j5.845992764274e-02
9.962533834976e-01+j4.312591810138e-02
9.983787210056e-01+j2.843566606818e-02
9.995876564492e-01+j1.437286676078e-02
9.999994744171e-01+j9.169612799377e-04
9.997151603594e-01-j1.195476410445e-02
9.988207111741e-01-j2.426582689506e-02
9.973898042126e-01-j3.603969730091e-02
9.954859485173e-01-j4.729928001041e-02
9.931642206604e-01-j5.806661618790e-02
9.904726682760e-01-j6.836272979859e-02
9.874534479959e-01-j7.820756713879e-02
9.841437510138e-01-j8.761999519451e-02
9.805765586068e-01-j9.661783579589e-02
9.767812612350e-01-j1.052179202319e-01
9.727841679316e-01-j1.134361542165e-01
9.686089272267e-01-j1.212875866460e-01
9.642768765308e-01-j1.287864779926e-01
9.598073334922e-01-j1.359463658042e-01
9.552178401453e-01-j1.427801258681e-01
9.505243685281e-01-j1.493000283230e-01
9.457414947558e-01-j1.555177884757e-01
9.408825471807e-01-j1.614446123790e-01
9.359597331997e-01-j1.670912374173e-01
9.309842484032e-01-j1.724679682473e-01
9.259663710711e-01-j1.775847084986e-01
9.209155444662e-01-j1.824509886553e-01
9.158404489241e-01-j1.870759905360e-01
9.107490653813e-01-j1.914685687717e-01
9.056487316835e-01-j1.956372696535e-01
9.005461927827e-01-j1.995903476924e-01
8.954476457347e-01-j2.033357801997e-01
8.903587802496e-01-j2.068812801657e-01
8.852848154224e-01-j2.102343076819e-01
8.802305331589e-01-j2.134020801222e-01
8.752003087311e-01-j2.163915812728e-01
8.701981388204e-01-j2.192095695755e-01
8.652276673517e-01-j2.218625856243e-01
8.602922093712e-01-j2.243569590398e-01
8.553947731814e-01-j2.266988148224e-01
8.505380809149e-01-j2.288940792751e-01
8.457245877002e-01-j2.309484855681e-01
8.409564995515e-01-j2.328675790095e-01
8.362357900956e-01-j2.346567220721e-01
8.315642162326e-01-j2.363210992205e-01
8.269433328172e-01-j2.378657215729e-01
8.223745064324e-01-j2.392954314258e-01
8.178589283238e-01-j2.406149066643e-01
8.133976265505e-01-j2.418286650763e-01
8.089914774051e-01-j2.429410685838e-01
8.046412161508e-01-j2.439563274021e-01
8.003474471155e-01-j2.448785041343e-01
7.961106531834e-01-j2.457115178073e-01
7.919312047194e-01-j2.464591478506e-01
7.878093679566e-01-j2.471250380235e-01
7.837453128811e-01-j2.477127002874e-01
7.797391206378e-01-j2.482255186266e-01
7.757907904874e-01-j2.486667528145e-01
7.719002463369e-01-j2.490395421253e-01
7.680673428670e-01-j2.493469089888e-01
7.642918712802e-01-j2.495917625868e-01
7.605735646876e-01-j2.497769023892e-01
7.569121031565e-01-j2.499050216271e-01
7.533071184356e-01-j2.499787107027e-01
7.497581983764e-01-j2.500004605319e-01
7.462648910681e-01-j2.499726658197e-01
7.428267087001e-01-j2.498976282659e-01
7.394431311692e-01-j2.497775597004e-01
7.361136094453e-01-j2.496145851461e-01
7.328375687084e-01-j2.494107458093e-01
7.296144112719e-01-j2.491680019968e-01
7.264435193023e-01-j2.488882359580e-01
7.233242573492e-01-j2.485732546537e-01
7.202559746952e-01-j2.482247924496e-01
7.172380075371e-01-j2.478445137358e-01
7.142696810090e-01-j2.474340154714e-01
7.113503110547e-01-j2.469948296564e-01
7.084792061621e-01-j2.465284257291e-01
7.056556689640e-01-j2.460362128919e-01
7.028789977173e-01-j2.455195423650e-01
7.001484876650e-01-j2.449797095691e-01
6.974634322912e-01-j2.444179562388e-01
6.948231244734e-01-j2.438354724673e-01
6.922268575408e-01-j2.432333986836e-01
6.896739262430e-01-j2.426128275638e-01
6.871636276363e-01-j2.419748058778e-01
</dep>
<dep ac.v(v2) frequency>
3.900887535834e-01-j2.070634399957e-01
3.368826756496e-01-j2.344175531920e-01
2.846089653317e-01-j2.475933531469e-01
2.364084677120e-01-j2.496308774497e-01
1.937541935855e-01-j2.435913859268e-01
1.570057838364e-01-j2.320613545600e-01
1.258976426135e-01-j2.170231263574e-01
9.987476182506e-02-j1.999071670292e-01
7.829159240786e-02-j1.817050089574e-01
6.051605929903e-02-j1.630838566013e-01
4.597634250128e-02-j1.444813900026e-01
3.417631822766e-02-j1.261771647484e-01
2.469535166895e-02-j1.083437350226e-01
1.718120793174e-02-j9.108220586299e-02
1.134066282090e-02-j7.444652909449e-02
6.930037075916e-03-j5.845992764274e-02
3.746616502370e-03-j4.312591810138e-02
1.621278994390e-03-j2.843566606820e-02
4.123435508136e-04-j1.437286676080e-02
5.255829201543e-07-j9.169612799382e-04
2.848396405826e-04+j1.195476410444e-02
1.179288825891e-03+j2.426582689506e-02
2.610195787413e-03+j3.603969730091e-02
4.514051482741e-03+j4.729928001041e-02
6.835779339631e-03+j5.806661618790e-02
9.527331723997e-03+j6.836272979859e-02
1.254655200410e-02+j7.820756713879e-02
1.585624898615e-02+j8.761999519451e-02
1.942344139317e-02+j9.661783579589e-02
2.321873876498e-02+j1.052179202319e-01
2.721583206838e-02+j1.134361542165e-01
3.139107277331e-02+j1.212875866460e-01
3.572312346924e-02+j1.287864779926e-01
4.019266650778e-02+j1.359463658042e-01
4.478215985474e-02+j1.427801258681e-01
4.947563147185e-02+j1.493000283230e-01
5.425850524419e-02+j1.555177884757e-01
5.911745281932e-02+j1.614446123790e-01
6.404026680032e-02+j1.670912374173e-01
6.901575159684e-02+j1.724679682473e-01
7.403362892888e-02+j1.775847084986e-01
7.908445553384e-02+j1.824509886553e-01
8.415955107591e-02+j1.870759905360e-01
8.925093461871e-02+j1.914685687717e-01
9.435126831651e-02+j1.956372696535e-01
9.945380721725e-02+j1.995903476924e-01
1.045523542653e-01+j2.033357801997e-01
1.096412197504e-01+j2.068812801657e-01
1.147151845776e-01+j2.102343076819e-01
1.197694668411e-01+j2.134020801222e-01
1.247996912689e-01+j2.163915812728e-01
1.298018611796e-01+j2.192095695755e-01
1.347723326483e-01+j2.218625856243e-01
1.397077906288e-01+j2.243569590398e-01
1.446052268186e-01+j2.266988148224e-01
1.494619190851e-01+j2.288940792751e-01
1.542754122998e-01+j2.309484855681e-01
1.590435004485e-01+j2.328675790095e-01
1.637642099044e-01+j2.346567220721e-01
1.684357837674e-01+j2.363210992205e-01
1.730566671828e-01+j2.378657215729e-01
1.776254935676e-01+j2.392954314258e-01
1.821410716762e-01+j2.406149066643e-01
1.866023734495e-01+j2.418286650763e-01
1.910085225949e-01+j2.429410685838e-01
1.953587838492e-01+j2.439563274021e-01
1.996525528845e-01+j2.448785041343e-01
2.038893468166e-01+j2.457115178073e-01
2.080687952806e-01+j2.464591478506e-01
2.121906320434e-01+j2.471250380235e-01
2.162546871189e-01+j2.477127002874e-01
2.202608793622e-01+j2.482255186266e-01
2.242092095126e-01+j2.486667528145e-01
2.280997536631e-01+j2.490395421253e-01
2.319326571330e-01+j2.493469089888e-01
2.357081287198e-01+j2.495917625868e-01
2.394264353124e-01+j2.497769023892e-01
2.430878968435e-01+j2.499050216271e-01
2.466928815644e-01+j2.499787107027e-01
2.502418016236e-01+j2.500004605319e-01
2.537351089319e-01+j2.499726658197e-01
2.571732912999e-01+j2.498976282659e-01
2.605568688308e-01+j2.497775597004e-01
2.638863905547e-01+j2.496145851461e-01
2.671624312916e-01+j2.494107458093e-01
2.703855887281e-01+j2.491680019968e-01
2.735564806977e-01+j2.488882359580e-01
2.766757426508e-01+j2.485732546537e-01
2.797440253048e-01+j2.482247924496e-01
2.827619924628e-01+j2.478445137358e-01
2.857303189910e-01+j2.474340154714e-01
2.886496889453e-01+j2.469948296564e-01
2.915207938379e-01+j2.465284257291e-01
2.943443310359e-01+j2.460362128919e-01
2.971210022827e-01+j2.455195423650e-01
2.998515123350e-01+j2.449797095691e-01
3.025365677088e-01+j2.444179562388e-01
3.051768755266e-01+j2.438354724673e-01
3.077731424592e-01+j2.432333986836e-01
3.103260737570e-01+j2.426128275638e-01
3.128363723637e-01+j2.419748058778e-01
</dep>
