<Qucs Dataset 0.0.19>
<indep MaxGain 1>
  +1.08052374746912363435e+002
</indep>
<indep Rout 1>
  +5.00000000000000000000e+001
</indep>
<indep Rin 1>
  +1.00000000000000000000e+000
</indep>
<indep acfrequency 33>
  +1.00000000000000000000e+006
  +1.11214148025112366304e+006
  +1.23685867209516023286e+006
  +1.37556183444535057060e+006
  +1.52981937473700311966e+006
  +1.70137558393685892224e+006
  +1.89217036038265796378e+006
  +2.10436114548327121884e+006
  +2.34034731932071503252e+006
  +2.60279733201108919457e+006
  +2.89467887761648790911e+006
  +3.21929245180406095460e+006
  +3.58030867271063802764e+006
  +3.98180978702434478328e+006
  +4.42833583061966486275e+006
  +4.92493596571444347501e+006
  +5.47722557505165785551e+006
  +6.09144975870726350695e+006
  +6.77455395152404345572e+006
  +7.53426245968904811889e+006
  +8.37916580451904889196e+006
  +9.31881786110741458833e+006
  +1.03638438902426045388e+007
  +1.15260606851859744638e+007
  +1.28186101918870098889e+007
  +1.42561081135673597455e+007
  +1.58548091800428591669e+007
  +1.76327909505919590592e+007
  +1.96101582287499606609e+007
  +2.18092704004807360470e+007
  +2.42549942663876526058e+007
  +2.69749852269028797746e+007
  +2.99999999999999627471e+007
</indep>
<dep Gaindb acfrequency>
  +2.25421825506802910866e+001
  +2.25220558294811148414e+001
  +2.24971232574264909942e+001
  +2.24664047616173334632e+001
  +2.24287307669335618243e+001
  +2.23827221327576424414e+001
  +2.23267737978891709361e+001
  +2.22590454273683633346e+001
  +2.21774630448375873470e+001
  +2.20797359326984121708e+001
  +2.19633926188569930105e+001
  +2.18258381634780178615e+001
  +2.16644319920107903954e+001
  +2.14765813778208851659e+001
  +2.12598411584907225347e+001
  +2.10120067886126413725e+001
  +2.07311870374162765529e+001
  +2.04158456782822455011e+001
  +2.00648082550216173559e+001
  +1.96772387135053357099e+001
  +1.92525985149281027020e+001
  +1.87906049788340396844e+001
  +1.82912044371454527436e+001
  +1.77545695686568230087e+001
  +1.71811210126447733160e+001
  +1.65715640271418358509e+001
  +1.59269245802720931238e+001
  +1.52485678810918923176e+001
  +1.45381862980286147291e+001
  +1.37977513405658225309e+001
  +1.30294331044584303925e+001
  +1.22354974438443537821e+001
  +1.14181943563582581902e+001
</dep>
<dep Gain acfrequency>
  +1.79563579844571194144e+002
  +1.78733344865304388804e+002
  +1.77710187765391879111e+002
  +1.76457643910002957455e+002
  +1.74933536765181855799e+002
  +1.73090093799791162610e+002
  +1.70874548398964179796e+002
  +1.68230425252751615517e+002
  +1.65099707743681790362e+002
  +1.61426040076749245600e+002
  +1.57159001861983085746e+002
  +1.52259295624705714545e+002
  +1.46704420159565017912e+002
  +1.40494116563535698106e+002
  +1.33654663198181708594e+002
  +1.26241073478495337667e+002
  +1.18336495530428408074e+002
  +1.10048611617461730816e+002
  +1.01503455088133662798e+002
  +9.28375928658486344602e+001
  +8.41898724385827676997e+001
  +7.56938330340509963889e+001
  +6.74715121780944002694e+001
  +5.96289218395071429768e+001
  +5.22531048718579356205e+001
  +4.54105124338280177199e+001
  +3.91464566602155841224e+001
  +3.34854999980356353717e+001
  +2.84327345072410224702e+001
  +2.39759118967099631448e+001
  +2.00883057777176254888e+001
  +1.67320727571908385301e+001
  +1.38617938443460211317e+001
</dep>
<dep NFdb acfrequency>
  +1.34665983662197397130e+000
  +1.34680970158712254303e+000
  +1.34701825898073113130e+000
  +1.34728243539715486499e+000
  +1.34759599355009473953e+000
  +1.34794697963176624000e+000
  +1.34831423731523969423e+000
  +1.34866280432180118964e+000
  +1.34893810171724037872e+000
  +1.34905902312061076742e+000
  +1.34891035744558518417e+000
  +1.34833543220192386691e+000
  +1.34713038709887600319e+000
  +1.34504195006711513294e+000
  +1.34177080268178849920e+000
  +1.33698240542243018680e+000
  +1.33032641618690683494e+000
  +1.32146465055997541782e+000
  +1.31010611197631687830e+000
  +1.29604620265611036878e+000
  +1.27920596488328852658e+000
  +1.25966618021952503348e+000
  +1.23769054892386076716e+000
  +1.21373240491222245119e+000
  +1.18842106372177225282e+000
  +1.16252725598640793692e+000
  +1.13691170555420950627e+000
  +1.11246540668896587434e+000
  +1.09005278511859793333e+000
  +1.07046849586137082788e+000
  +1.05441521598585818964e+000
  +1.04250479880793367471e+000
  +1.03528042487886851042e+000
</dep>
<dep NF acfrequency>
  +1.36353403776229176181e+000
  +1.36358109097511315255e+000
  +1.36364657459478832990e+000
  +1.36372952619495224624e+000
  +1.36382799024781942165e+000
  +1.36393821591401942506e+000
  +1.36405356114424081149e+000
  +1.36416304518500530740e+000
  +1.36424952163179136200e+000
  +1.36428750720844527144e+000
  +1.36424080634987765492e+000
  +1.36406021815518885276e+000
  +1.36368178229474157348e+000
  +1.36302617210461529673e+000
  +1.36199991435697076447e+000
  +1.36049904274020660999e+000
  +1.35841554140457110300e+000
  +1.35564652469081958763e+000
  +1.35210559903758742450e+000
  +1.34773535173137282150e+000
  +1.34251948137371512892e+000
  +1.33649278328753795542e+000
  +1.32974710929802020232e+000
  +1.32243166752009599918e+000
  +1.31474675134257923403e+000
  +1.30693119916295441563e+000
  +1.29924534819901715821e+000
  +1.29195248218742175794e+000
  +1.28530228169887639211e+000
  +1.27951932506306698123e+000
  +1.27479843487095800825e+000
  +1.27130712176252047563e+000
  +1.26919409393440152378e+000
</dep>
<dep SNRout acfrequency>
  +2.83232858744715088051e+002
  +2.83236927286299248863e+002
  +2.83239860028953103210e+002
  +2.83241789930037100476e+002
  +2.83242804487191222051e+002
  +2.83242949699812015751e+002
  +2.83242232151965311004e+002
  +2.83240619310577471879e+002
  +2.83238038052281694945e+002
  +2.83234371352649702658e+002
  +2.83229452988735374674e+002
  +2.83223060016467343303e+002
  +2.83214902684932440025e+002
  +2.83204611334898629593e+002
  +2.83191719694872688251e+002
  +2.83175643828644240330e+002
  +2.83155655797050371802e+002
  +2.83130850866584466985e+002
  +2.83100106818803055830e+002
  +2.83062033578337093331e+002
  +2.83014910971435369902e+002
  +2.82956611939632125541e+002
  +2.82884507951033924655e+002
  +2.82795352662531058741e+002
  +2.82685139079759039760e+002
  +2.82548924532946102772e+002
  +2.82380616741665107838e+002
  +2.82172713104608646972e+002
  +2.81915984176543929607e+002
  +2.81599091190003434804e+002
  +2.81208126626312150620e+002
  +2.80726066540668568905e+002
  +2.80132124072469139264e+002
</dep>
<dep SNRin acfrequency>
  +3.86197643511138210215e+002
  +3.86216518313490723813e+002
  +3.86239064917189182324e+002
  +3.86265191979899668695e+002
  +3.86294464795922067424e+002
  +3.86325883483785958106e+002
  +3.86357575433332044668e+002
  +3.86386385758804181023e+002
  +3.86407357920752417613e+002
  +3.86413114448457577055e+002
  +3.86393177327387093101e+002
  +3.86333309032642603142e+002
  +3.86215003265820485012e+002
  +3.86015297310182234014e+002
  +3.85707097971019891247e+002
  +3.85260192356212201048e+002
  +3.84643043471316559589e+002
  +3.83825354010039973218e+002
  +3.82781239517842664100e+002
  +3.81492709386497836022e+002
  +3.79953031498399582233e+002
  +3.78169469840810734240e+002
  +3.76164856713080155259e+002
  +3.73977529788444599035e+002
  +3.71659368257938410807e+002
  +3.69272004762046378801e+002
  +3.66881702723177909320e+002
  +3.64553737101058345615e+002
  +3.62347257709496261668e+002
  +3.60311479097806227401e+002
  +3.58483679696216881894e+002
  +3.56889047657531136792e+002
  +3.55542037394076828605e+002
</dep>
<dep Nout acfrequency>
  +8.96009571018010412453e-019
  +8.94479895184012500637e-019
  +8.92533141485017653541e-019
  +8.90087146501762823949e-019
  +8.87040275285940200216e-019
  +8.83268400134814991389e-019
  +8.78621630544392860090e-019
  +8.72920993588546615241e-019
  +8.65955397952544247250e-019
  +8.57479400132419552409e-019
  +8.47212530995038656780e-019
  +8.34841225345537985657e-019
  +8.20024691184676702296e-019
  +8.02406283293708483566e-019
  +7.81631975927189104474e-019
  +7.57377170929105660886e-019
  +7.29382106998835292214e-019
  +6.97494378065091985514e-019
  +6.61714545175692413972e-019
  +6.22237939269164752090e-019
  +5.79483403941201095574e-019
  +5.34099199654553147209e-019
  +4.86938752908366396323e-019
  +4.39004664320389513536e-019
  +3.91367151056883973469e-019
  +3.45070262240674912884e-019
  +3.01042867575554692418e-019
  +2.60029972927560902611e-019
  +2.22554005214289785349e-019
  +1.88907838326237363953e-019
  +1.59174440984066995001e-019
  +1.33264054167399253878e-019
  +1.10959104909605619097e-019
</dep>
<dep Nin acfrequency>
  +3.65955610718817904801e-021
  +3.67015182641619624892e-021
  +3.68307192131714874686e-021
  +3.69882521747639566958e-021
  +3.71801093718164068594e-021
  +3.74132798211040031631e-021
  +3.76958106540863743060e-021
  +3.80368124484418507560e-021
  +3.84463760112134331125e-021
  +3.89353604751032327948e-021
  +3.95150079000784008324e-021
  +4.01963415028020106677e-021
  +4.09893179082821482061e-021
  +4.19017332727688634424e-021
  +4.29379317738901036319e-021
  +4.40974311625593668949e-021
  +4.53736544989310418279e-021
  +4.67530210032653590841e-021
  +4.82146750699236485993e-021
  +4.97310920314740034404e-021
  +5.12696738334499938135e-021
  +5.27952452045195783174e-021
  +5.42731264917848811516e-021
  +5.56722709546613339626e-021
  +5.69678938091070869323e-021
  +5.81431297717754015118e-021
  +5.91895057650309023289e-021
  +6.01063120858751636374e-021
  +6.08991885882262735748e-021
  +6.15783424890343522695e-021
  +6.21567790398391944213e-021
  +6.26488058049271433719e-021
  +6.30689305173764304820e-021
</dep>
<dep Sout acfrequency>
  +2.53779352262056893138e-016
  +2.53349737031290713031e-016
  +2.52800962065418213607e-016
  +2.52109876568878473894e-016
  +2.51247775265079841893e-016
  +2.50179547030818850411e-016
  +2.48862751852393230903e-016
  +2.47246682833224588901e-016
  +2.45271507956861461301e-016
  +2.42867638844353011503e-016
  +2.39955541718926800751e-016
  +2.36446286470260421565e-016
  +2.32243213113110008759e-016
  +2.27245159592875275122e-016
  +2.21351703431322012710e-016
  +2.14470767998966648405e-016
  +2.06528668833889557596e-016
  +1.97482176736228651844e-016
  +1.87331458422794215427e-016
  +1.76131936459123585440e-016
  +1.64002443975843339929e-016
  +1.51126899973921484610e-016
  +1.37747429518773316049e-016
  +1.24148478866980611196e-016
  +1.10633677527764318096e-016
  +9.74992314844043697861e-017
  +8.50086706116645456045e-017
  +7.33733629494877995468e-017
  +6.27415314124181948967e-017
  +5.31962755913365371913e-017
  +4.47611463559199615863e-017
  +3.74106937376765863233e-017
  +3.10832097435077616369e-017
</dep>
<dep Sin acfrequency>
  +1.41331194489286897474e-018
  +1.41747326008036232697e-018
  +1.42254625491229087195e-018
  +1.42872743272861404939e-018
  +1.43624704508396646047e-018
  +1.44537183809141064474e-018
  +1.45640620083067787597e-018
  +1.46969064877389389735e-018
  +1.48559625761207797965e-018
  +1.50451339033580168835e-018
  +1.52683294546280958357e-018
  +1.55291856237836474025e-018
  +1.58306895498109441589e-018
  +1.61747100270998273100e-018
  +1.65614650573847969535e-018
  +1.69889848121024480804e-018
  +1.74526605598848321744e-018
  +1.79449948376171601718e-018
  +1.84556730862154022339e-018
  +1.89720490398362897308e-018
  +1.94800679969534980370e-018
  +1.99655498891087733529e-018
  +2.04156428501531354757e-018
  +2.08201783693372166159e-018
  +2.11726514240780608791e-018
  +2.14706300939633282084e-018
  +2.17155466584178931162e-018
  +2.19119806942682989658e-018
  +2.20666539816772401847e-018
  +2.21873836626152537699e-018
  +2.22821908682662397766e-018
  +2.23586726406020570665e-018
  +2.24236560524134826365e-018
</dep>
<dep Zin acfrequency>
  +4.15559302397912766480e+000
  +4.13947089858868189083e+000
  +4.12006240749845087379e+000
  +4.09667921116798883219e+000
  +4.06854294110674885587e+000
  +4.03478874199502612896e+000
  +3.99447887155419678606e+000
  +3.94663004232111491731e+000
  +3.89025810397209470537e+000
  +3.82444261346788705325e+000
  +3.74841138727581357770e+000
  +3.66164104103149457003e+000
  +3.56396407829679606749e+000
  +3.45566738553489116725e+000
  +3.33756297000860646662e+000
  +3.21101174564325653193e+000
  +3.07788672899892912227e+000
  +2.94047284139295417305e+000
  +2.80131388200930375731e+000
  +2.66302880402085362377e+000
  +2.52812523414581447057e+000
  +2.39883659536965865300e+000
  +2.27700156081540772135e+000
  +2.16399419354341793209e+000
  +2.06070347900372530248e+000
  +1.96755422810468849626e+000
  +1.88455804692047212967e+000
  +1.81138257793993329159e+000
  +1.74742844994302770623e+000
  +1.69190541654612558453e+000
  +1.64390145362088468950e+000
  +1.60244083579614282620e+000
  +1.56652926417226545652e+000
</dep>
<dep VCC.in acfrequency>
  +3.31762743804613057654e-011
  +3.31485634571358410099e-011
  +3.31132169191560505402e-011
  +3.30687159393241345469e-011
  +3.30131703487516816399e-011
  +3.29442550684764590866e-011
  +3.28591377491946087998e-011
  +3.27543994123424620015e-011
  +3.26259516879223751632e-011
  +3.24689568949902525575e-011
  +3.22777608792378640620e-011
  +3.20458532792867923240e-011
  +3.17658755479120307407e-011
  +3.14297029449876341980e-011
  +3.10286314293085277880e-011
  +3.05537015120630154069e-011
  +2.99961853195179386128e-011
  +2.93482465625630687983e-011
  +2.86037531138259444190e-011
  +2.77591792311434058076e-011
  +2.68144861286643355570e-011
  +2.57738299457458854555e-011
  +2.46459342616003685985e-011
  +2.34439961961808668189e-011
  +2.21850735121507041121e-011
  +2.08890076295108710514e-011
  +1.95770402721670260682e-011
  +1.82703438343573959272e-011
  +1.69886873633000666926e-011
  +1.57494060388021476500e-011
  +1.45667570755455845317e-011
  +1.34516599008716330886e-011
  +1.24117561957823803814e-011
</dep>
<dep Vac.in acfrequency>
  +3.43289913847176494803e-011
  +3.44389387607680134088e-011
  +3.45726248765458395588e-011
  +3.47354113256323804607e-011
  +3.49336322364526917359e-011
  +3.51747174009345290096e-011
  +3.54672939305257561899e-011
  +3.58212450135025863323e-011
  +3.62476964175378113220e-011
  +3.67588932914391735960e-011
  +3.73679234065931522438e-011
  +3.80882411526344300343e-011
  +3.89329532381419251456e-011
  +3.99138463555817888485e-011
  +4.10401722834309783172e-011
  +4.23172573673798569654e-011
  +4.37450664484404845326e-011
  +4.53169150848850105861e-011
  +4.70185709906047002696e-011
  +4.88279947021157116392e-011
  +5.07159209473786319131e-011
  +5.26473667936132922765e-011
  +5.45839816072734685366e-011
  +5.64869645661778862004e-011
  +5.83201255423643103772e-011
  +6.00526114696532512997e-011
  +6.16608906191140507126e-011
  +6.31297620704300712468e-011
  +6.44523767666783180929e-011
  +6.56294476422305185578e-011
  +6.66679383303945736844e-011
  +6.75795401787377363002e-011
  +6.83791964772081486185e-011
</dep>
<dep _net3.vn acfrequency>
  +2.11183227651013524120e-010
  +2.11121224258098987769e-010
  +2.11048455640883128195e-010
  +2.10961805442131284009e-010
  +2.10857621291575142333e-010
  +2.10731596800484465932e-010
  +2.10578646956662132683e-010
  +2.10392781845916931426e-010
  +2.10166987775249058936e-010
  +2.09893130647179929105e-010
  +2.09561904030966293206e-010
  +2.09162853644569341963e-010
  +2.08684520048038457783e-010
  +2.08114750205217262042e-010
  +2.07441232418831965792e-010
  +2.06652302183221749074e-010
  +2.05738041399157560642e-010
  +2.04691643346316448330e-010
  +2.03510938739314840400e-010
  +2.02199882752001895526e-010
  +2.00769713599619171815e-010
  +1.99239449739622265390e-010
  +1.97635437642208575884e-010
  +1.95989817591873452587e-010
  +1.94338018483580672732e-010
  +1.92715650508339390322e-010
  +1.91155338431360368149e-010
  +1.89684053993189006570e-010
  +1.88321356873266860550e-010
  +1.87078703683444303004e-010
  +1.85959731470394947548e-010
  +1.84961247004773377787e-010
  +1.84074587986750378851e-010
</dep>
<dep _net4.vn acfrequency>
  +2.67732638431403862174e-008
  +2.67504002988218878807e-008
  +2.67212745427311955530e-008
  +2.66846344775679914019e-008
  +2.66389230305722445015e-008
  +2.65822256424824595392e-008
  +2.65122104781080715377e-008
  +2.64260627954832941104e-008
  +2.63204163789641887060e-008
  +2.61912871028887495565e-008
  +2.60340166857905396511e-008
  +2.58432385794898103671e-008
  +2.56128825583482811953e-008
  +2.53362393940964876448e-008
  +2.50061108679808770918e-008
  +2.46150713332966933855e-008
  +2.41558623443475569141e-008
  +2.36219284236504453612e-008
  +2.30080776280973549427e-008
  +2.23112158210916825768e-008
  +2.15310641435336635944e-008
  +2.06707367968256637110e-008
  +1.97370464438500303327e-008
  +1.87404303967734853478e-008
  +1.76944545224063677806e-008
  +1.66149393556684370359e-008
  +1.55188367495906001295e-008
  +1.44230363773391302305e-008
  +1.33432831106677728370e-008
  +1.22933425341112935763e-008
  +1.12844828320687140771e-008
  +1.03252720706971885333e-008
  +9.42163913168427889794e-009
</dep>
<dep _net0.vn acfrequency>
  +1.06091164043885697796e-010
  +1.06060974684845654215e-010
  +1.06024919029260327092e-010
  +1.05981455972464119452e-010
  +1.05928756640102804131e-010
  +1.05864645875193467475e-010
  +1.05786539883519369848e-010
  +1.05691382640143969176e-010
  +1.05575585777792362291e-010
  +1.05434979634291389559e-010
  +1.05264787033206258659e-010
  +1.05059636133548626711e-010
  +1.04813633874868138385e-010
  +1.04520526113257748443e-010
  +1.04173972553646206992e-010
  +1.03767961054360500209e-010
  +1.03297373039721029078e-010
  +1.02758686089658888491e-010
  +1.02150760185006921791e-010
  +1.01475604970231693070e-010
  +1.00738979303685032836e-010
  +9.99506516461111082593e-011
  +9.91241724754908233563e-011
  +9.82760894845135149287e-011
  +9.74246614080970842122e-011
  +9.65882592916650173970e-011
  +9.57837341489623695883e-011
  +9.50250390223515504546e-011
  +9.43223174837889536162e-011
  +9.36815422351459073568e-011
  +9.31046569842520194917e-011
  +9.25900839749832119149e-011
  +9.21334253517819256395e-011
</dep>
<dep _net6.vn acfrequency>
  +0.00000000000000000000e+000
  +0.00000000000000000000e+000
  +0.00000000000000000000e+000
  +0.00000000000000000000e+000
  +0.00000000000000000000e+000
  +0.00000000000000000000e+000
  +0.00000000000000000000e+000
  +0.00000000000000000000e+000
  +0.00000000000000000000e+000
  +0.00000000000000000000e+000
  +0.00000000000000000000e+000
  +0.00000000000000000000e+000
  +0.00000000000000000000e+000
  +0.00000000000000000000e+000
  +0.00000000000000000000e+000
  +0.00000000000000000000e+000
  +0.00000000000000000000e+000
  +0.00000000000000000000e+000
  +0.00000000000000000000e+000
  +0.00000000000000000000e+000
  +0.00000000000000000000e+000
  +0.00000000000000000000e+000
  +0.00000000000000000000e+000
  +0.00000000000000000000e+000
  +0.00000000000000000000e+000
  +0.00000000000000000000e+000
  +0.00000000000000000000e+000
  +0.00000000000000000000e+000
  +0.00000000000000000000e+000
  +0.00000000000000000000e+000
  +0.00000000000000000000e+000
  +0.00000000000000000000e+000
  +0.00000000000000000000e+000
</dep>
<dep Vin.vn acfrequency>
  +1.06602494264288681660e-010
  +1.06569829340883817077e-010
  +1.06531451819724403465e-010
  +1.06485718070276989001e-010
  +1.06430700134924846338e-010
