<Qucs Dataset 0.0.19>
<indep frequency 213>
  +1.00000000000000000000e+006
  +1.01617276996301603504e+006
  +1.03260709841430897359e+006
  +1.04930721547914110124e+006
  +1.06627741969561832957e+006
  +1.08352207912111398764e+006
  +1.10104563245658902451e+006
  +1.11885259018909279257e+006
  +1.13694753575274581090e+006
  +1.15533512670849310234e+006
  +1.17402009594294172712e+006
  +1.19300725288658519275e+006
  +1.21230148475172976032e+006
  +1.23190775779044232331e+006
  +1.25183111857284209691e+006
  +1.27207669528606603853e+006
  +1.29264969905424141325e+006
  +1.31355542527980753221e+006
  +1.33479925500652985647e+006
  +1.35638665630455594510e+006
  +1.37832318567787413485e+006
  +1.40061448949453397654e+006
  +1.42326630543999630027e+006
  +1.44628446399398939684e+006
  +1.46967488993124826811e+006
  +1.49344360384652763605e+006
  +1.51759672370427520946e+006
  +1.54214046641337126493e+006
  +1.56708114942733338103e+006
  +1.59242519237040076405e+006
  +1.61817911868991889060e+006
  +1.64434955733544728719e+006
  +1.67094324446502071805e+006
  +1.69796702517900941893e+006
  +1.72542785528201633133e+006
  +1.75333280307327257469e+006
  +1.78168905116598703898e+006
  +1.81050389833611925133e+006
  +1.83978476140105328523e+006
  +1.86953917712865490466e+006
  +1.89977480417720344849e+006
  +1.93049942506669531576e+006
  +1.96172094818203407340e+006
  +1.99344740980861219577e+006
  +2.02568697620081692003e+006
  +2.05844794568399083801e+006
  +2.09173875079038133845e+006
  +2.12556796042964095250e+006
  +2.15994428209442691877e+006
  +2.19487656410167180002e+006
  +2.23037379787010326982e+006
  +2.26644512023459561169e+006
  +2.30309981579795014113e+006
  +2.34034731932071503252e+006
  +2.37819721814965037629e+006
  +2.41665925468546990305e+006
  +2.45574332889049220830e+006
  +2.49545950083684967831e+006
  +2.53581799329590750858e+006
  +2.57682919436955917627e+006
  +2.61850366016408242285e+006
  +2.66085211750723235309e+006
  +2.70388546670928085223e+006
  +2.74761478436871198937e+006
  +2.79205132622329005972e+006
  +2.83720653004723368213e+006
  +2.88309201859525451437e+006
  +2.92971960259420378134e+006
  +2.97710128378309914842e+006
  +3.02524925800232309848e+006
  +3.07417591833277978003e+006
  +3.12389385828582057729e+006
  +3.17441587504475563765e+006
  +3.22575497275880118832e+006
  +3.27792436589028453454e+006
  +3.33093748261599382386e+006
  +3.38480796828353032470e+006
  +3.43954968892356427386e+006
  +3.49517673481888836250e+006
  +3.55170342413120064884e+006
  +3.60914430658653099090e+006
  +3.66751416722028469667e+006
  +3.72682803018284169957e+006
  +3.78710116260670870543e+006
  +3.84834907853621849790e+006
  +3.91058754292076965794e+006
  +3.97383257567266467959e+006
  +4.03810045579055836424e+006
  +4.10340772554960940033e+006
  +4.16977119475938612595e+006
  +4.23720794509064219892e+006
  +4.30573533447205647826e+006
  +4.37537100155810452998e+006
  +4.44613287026915419847e+006
  +4.51803915440502297133e+006
  +4.59110836233311519027e+006
  +4.66535930175240803510e+006
  +4.74081108453446812928e+006
  +4.81748313164276070893e+006
  +4.89539517813153099269e+006
  +4.97456727822550944984e+006
  +5.05501981048179883510e+006
  +5.13677348303520958871e+006
  +5.21984933892846014351e+006
  +5.30426876152855157852e+006
  +5.39005348003076668829e+006
  +5.47722557505165785551e+006
  +5.56580748431251756847e+006
  +5.65582200841473694891e+006
  +5.74729231670859362930e+006
  +5.84024195325693115592e+006
  +5.93469484289531223476e+006
  +6.03067529739015735686e+006
  +6.12820802169649116695e+006
  +6.22731812031690031290e+006
  +6.32803110376330651343e+006
  +6.43037289512328244746e+006
  +6.53436983673252537847e+006
  +6.64004869695527199656e+006
  +6.74743667707435414195e+006
  +6.85656141829269658774e+006
  +6.96745100884803570807e+006
  +7.08013399124271981418e+006
  +7.19463936959041934460e+006
  +7.31099661708166636527e+006
  +7.42923568357011675835e+006
  +7.54938700328152533621e+006
  +7.67148150264738406986e+006
  +7.79555060826523322612e+006
  +7.92162625498775579035e+006
  +8.04974089414266590029e+006
  +8.17992750188551750034e+006
  +8.31221958768766093999e+006
  +8.44665120296140946448e+006
  +8.58325694982474111021e+006
  +8.72207199000771529973e+006
  +8.86313205390297435224e+006
  +9.00647344976258277893e+006
  +9.15213307304360717535e+006
  +9.30014841590485349298e+006
  +9.45055757685719057918e+006
  +9.60339927056994102895e+006
  +9.75871283783586882055e+006
  +9.91653825569731928408e+006
  +1.00769161477361600846e+007
  +1.02398877945301029831e+007
  +1.04054951442781351507e+007
  +1.05737808235978260636e+007
  +1.07447881484972238541e+007
  +1.09185611355242151767e+007
  +1.10951445130961742252e+007
  +1.12745837330128997564e+007
  +1.14569249821556806564e+007
  +1.16422151943756192923e+007
  +1.18305020625741872936e+007
  +1.20218340509791877121e+007
  +1.22162604076192267239e+007
  +1.24138311769999582320e+007
  +1.26145972129852958024e+007
  +1.28186101918870098889e+007
  +1.30259226257659718394e+007
  +1.32365878759485371411e+007
  +1.34506601667614988983e+007
  +1.36681945994892362505e+007
  +1.38892471665565203875e+007
  +1.41138747659407109022e+007
  +1.43421352158170882612e+007
  +1.45740872694409675896e+007
  +1.48097906302705649287e+007
  +1.50493059673343598843e+007
  +1.52926949308471027762e+007
  +1.55400201680782753974e+007
  +1.57913453394772429019e+007
  +1.60467351350591555238e+007
  +1.63062552910559121519e+007
  +1.65699726068363729864e+007
  +1.68379549621002227068e+007
  +1.71102713343498930335e+007
  +1.73869918166451230645e+007
  +1.76681876356445737183e+007
  +1.79539311699392572045e+007
  +1.82442959686825089157e+007
  +1.85393567705211900175e+007
  +1.88391895228331238031e+007
  +1.91438714012755639851e+007
  +1.94534808296499587595e+007
  +1.97680975000878311694e+007
  +2.00878023935632295907e+007
  +2.04126778007368519902e+007
  +2.07428073431373313069e+007
  +2.10782759946850538254e+007
  +2.14191701035640686750e+007
  +2.17655774144477173686e+007
  +2.21175870910837985575e+007
  +2.24752897392448820174e+007
  +2.28387774300498254597e+007
  +2.32081437236625403166e+007
  +2.35834836933739520609e+007
  +2.39648939500734396279e+007
  +2.43524726671160496771e+007
  +2.47463196055919565260e+007
  +2.51465361400044672191e+007
  +2.55532252843634411693e+007
  +2.59664917187005765736e+007
  +2.63864418160136826336e+007
  +2.68131836696465760469e+007
  +2.72468271211118847132e+007
  +2.76874837883636914194e+007
  +2.81352670945276357234e+007
  +2.85902922970954552293e+007
  +2.90526765175917707384e+007
  +2.95225387717206999660e+007
  +2.99999999999999627471e+007
</indep>
<dep S[2,2] frequency>
  -9.51319066326048456972e-002-j3.36793247572653164923e-003
  -9.51315536359953473067e-002-j3.42301838693703786021e-003
  -9.51311898603310890365e-002-j3.47898531154477996807e-003
  -9.51308149310947648303e-002-j3.53584765112252563668e-003
  -9.51304284622874751776e-002-j3.59362003756941161825e-003
  -9.51300300560250500226e-002-j3.65231733688670123783e-003
  -9.51296193021377023413e-002-j3.71195465297508020441e-003
  -9.51291957777348207159e-002-j3.77254733152704302412e-003
  -9.51287590467838617414e-002-j3.83411096395014361349e-003
  -9.51283086596521609835e-002-j3.89666139138361566907e-003
  -9.51278441526480778023e-002-j3.96021470876412040596e-003
  -9.51273650475459309206e-002-j4.02478726893451543845e-003
  -9.51268708510816241031e-002-j4.09039568686986321211e-003
  -9.51263610544631488253e-002-j4.15705684391831642444e-003
  -9.51258351328327922403e-002-j4.22478789215097183529e-003
  -9.51252925447345631937e-002-j4.29360625874253276635e-003
  -9.51247327315563051542e-002-j4.36352965045588847559e-003
  -9.51241551169451637904e-002-j4.43457605818153854926e-003
  -9.51235591062317142885e-002-j4.50676376154601765478e-003
  -9.51229440857963570721e-002-j4.58011133360930466907e-003
  -9.51223094224650234096e-002-j4.65463764561946380383e-003
  -9.51216544628261662098e-002-j4.73036187185438272707e-003
  -9.51209785325840551096e-002-j4.80730349454122629638e-003
  -9.51202809358607792589e-002-j4.88548230883789624812e-003
  -9.51195609544583930983e-002-j4.96491842792373683224e-003
  -9.51188178471449319318e-002-j5.04563228814458586413e-003
  -9.51180508488828069247e-002-j5.12764465424736526344e-003
  -9.51172591700450986707e-002-j5.21097662470376699062e-003
  -9.51164419955886630831e-002-j5.29564963712125802431e-003
  -9.51155984842242396837e-002-j5.38168547371919991917e-003
  -9.51147277675694624577e-002-j5.46910626692032053597e-003
  -9.51138289492317046125e-002-j5.55793450501029795419e-003
  -9.51129011038690519442e-002-j5.64819303789948490291e-003
  -9.51119432762990157926e-002-j5.73990508296673418442e-003
  -9.51109544804463746814e-002-j5.83309423101291413261e-003
  -9.51099336983779464205e-002-j5.92778445227598593803e-003
  -9.51088798792314449315e-002-j6.02400010258591356305e-003
  -9.51077919381347891559e-002-j6.12176592958091347896e-003
  -9.51066687551048728366e-002-j6.22110707903572590638e-003
  -9.51055091738732816253e-002-j6.32204910130407249369e-003
  -9.51043120007352138501e-002-j6.42461795782833799962e-003
  -9.51030760032418598371e-002-j6.52884002779063887800e-003
  -9.51017999090421062292e-002-j6.63474211484973985797e-003
  -9.51004824044945351602e-002-j6.74235145398552337959e-003
  -9.50991221333333802690e-002-j6.85169571845289926415e-003
  -9.50977176952693126211e-002-j6.96280302684890162190e-003
  -9.50962676445941124115e-002-j7.07570195028964232797e-003
  -9.50947704886230260612e-002-j7.19042151970200604794e-003
  -9.50932246861897478851e-002-j7.30699123322622878796e-003
  -9.50916286461046533773e-002-j7.42544106374015688843e-003
  -9.50899807254496076681e-002-j7.54580146650066230229e-003
  -9.50882792279136301872e-002-j7.66810338691492621166e-003
  -9.50865224020644994596e-002-j7.79237826840095682002e-003
  -9.50847084395332053930e-002-j7.91865806042804654119e-003
  -9.50828354731449998383e-002-j8.04697522662076170086e-003
  -9.50809015750360142505e-002-j8.17736275304209447867e-003
  -9.50789047546134469258e-002-j8.30985415659049597714e-003
  -9.50768429565462813713e-002-j8.44448349349832816380e-003
  -9.50747140586525318895e-002-j8.58128536801502916909e-003
  -9.50725158697314221001e-002-j8.72029494118525816404e-003
  -9.50702461272653343016e-002-j8.86154793979609944898e-003
  -9.50679024951081030892e-002-j9.00508066543148633087e-003
  -9.50654825611132459073e-002-j9.15093000371150488981e-003
  -9.50629838346305211516e-002-j9.29913343360264099680e-003
  -9.50604037439276572385e-002-j9.44972903698501620617e-003
  -9.50577396336292901324e-002-j9.60275550824435386588e-003
  -9.50549887618553634994e-002-j9.75825216410583506921e-003
  -9.50521482974724385429e-002-j9.91625895359285469688e-003
  -9.50492153172802778371e-002-j1.00768164681138971961e-002
  -9.50461868028049661206e-002-j1.02399659517407037868e-002
  -9.50430596373592617709e-002-j1.04057493116280763701e-002
  -9.50398306028031880643e-002-j1.05742091286030182040e-002
  -9.50364963761769487860e-002-j1.07453886679274301930e-002
  -9.50330535263672615542e-002-j1.09193318901677494104e-002
  -9.50294985104989109459e-002-j1.10960834623418935774e-002
  -9.50258276703913606909e-002-j1.12756887691261575846e-002
  -9.50220372287611247941e-002-j1.14581939242907882015e-002
  -9.50181232852931323407e-002-j1.16436457823066719097e-002
  -9.50140818126782304986e-002-j1.18320919501339327784e-002
  -9.50099086524828218003e-002-j1.20235807991640741843e-002
  -9.50055995109009288058e-002-j1.22181614773500257787e-002
  -9.50011499543464976725e-002-j1.24158839215859906346e-002
  -9.49965554046663385179e-002-j1.26167988701424982345e-002
  -9.49918111349596916426e-002-j1.28209578754244768461e-002
  -9.49869122641697760656e-002-j1.30284133168544896675e-002
  -9.49818537524141914830e-002-j1.32392184139532437248e-002
  -9.49766303957062518748e-002-j1.34534272396138604444e-002
  -9.49712368206333534815e-002-j1.36710947336109445160e-002
  -9.49656674787739962795e-002-j1.38922767162675542263e-002
  -9.49599166411324580039e-002-j1.41170299023576500952e-002
  -9.49539783922137559102e-002-j1.43454119152130327164e-002
  -9.49478466238921070541e-002-j1.45774813009707238098e-002
  -9.49415150292137743904e-002-j1.48132975431966157354e-002
  -9.49349770958739513915e-002-j1.50529210775027094682e-002
  -9.49282260996548998833e-002-j1.52964133065821711321e-002
  -9.49212550973553836897e-002-j1.55438366153321655405e-002
  -9.49140569198870798218e-002-j1.57952543862606431535e-002
  -9.49066241647962272054e-002-j1.60507310150926896242e-002
  -9.48989491886060854142e-002-j1.63103319266055257764e-002
  -9.48910240991643894048e-002-j1.65741235907189421450e-002
  -9.48828407474702206770e-002-j1.68421735387568466402e-002
  -9.48743907192888258351e-002-j1.71145503800158582663e-002
  -9.48656653266441995953e-002-j1.73913238185294111160e-002
  -9.48566555988528126164e-002-j1.76725646700237604136e-002
  -9.48473522732948826075e-002-j1.79583448792583755260e-002
  -9.48377457860488659591e-002-j1.82487375374084659363e-002
  -9.48278262619658418586e-002-j1.85438168998903196716e-002
  -9.48175835049015480749e-002-j1.88436584042677574002e-002
  -9.48070069866693287963e-002-j1.91483386885380746367e-002
  -9.47960858369195635831e-002-j1.94579356095597871823e-002
  -9.47848088316730619241e-002-j1.97725282618409770041e-002
  -9.47731643819875735346e-002-j2.00921969964570207301e-002
  -9.47611405218916624804e-002-j2.04170234403438094484e-002
  -9.47487248966488726509e-002-j2.07470905157858265255e-002
  -9.47359047494684691770e-002-j2.10824824601524296597e-002
  -9.47226669090108774895e-002-j2.14232848459430941235e-002
  -9.47089977759738577134e-002-j2.17695846010620766564e-002
  -9.46948833085116126185e-002-j2.21214700293213550886e-002
  -9.46803090088560450610e-002-j2.24790308313120301698e-002
  -9.46652599079835788132e-002-j2.28423581254389093664e-002
  -9.46497205504265304299e-002-j2.32115444692790398595e-002
  -9.46336749785214870201e-002-j2.35866838811362306005e-002
  -9.46171067162572265730e-002-j2.39678718620100691949e-002
  -9.45999987524522856219e-002-j2.43552054176222262938e-002
  -9.45823335233948458978e-002-j2.47487830809037731572e-002
  -9.45640928948452419434e-002-j2.51487049346469995759e-002
  -9.45452581441407202689e-002-j2.55550726344337258977e-002
  -9.45258099402037643699e-002-j2.59679894318484844051e-002
  -9.45057283250143598252e-002-j2.63875601979818436016e-002
  -9.44849926921819127656e-002-j2.68138914470996622685e-002
  -9.44635817671866107048e-002-j2.72470913607341033713e-002
  -9.44414735847959319059e-002-j2.76872698118676915935e-002
  -9.44186454672605313121e-002-j2.81345383895057962742e-002
  -9.43950740013651534710e-002-j2.85890104234133302086e-002
  -9.43707350144188383823e-002-j2.90508010092270715918e-002
  -9.43456035501903933493e-002-j2.95200270336413890526e-002
  -9.43196538428793251896e-002-j2.99968072000147308043e-002
  -9.42928592921886687961e-002-j3.04812620541570558630e-002
  -9.42651924349764414046e-002-j3.09735140102564907028e-002
  -9.42366249190013105519e-002-j3.14736873772648306780e-002
  -9.42071274734421759689e-002-j3.19819083853212018931e-002
  -9.41766698790070799774e-002-j3.24983052124071317146e-002
  -9.41452209385933436181e-002-j3.30230080113923102347e-002
  -9.41127484442614292703e-002-j3.35561489370992255266e-002
  -9.40792191464973059922e-002-j3.40978621736919840224e-002
  -9.40445987193646582014e-002-j3.46482839621658489371e-002
  -9.40088517274143553593e-002-j3.52075526281590903133e-002
  -9.39719415881290487391e-002-j3.57758086097510891177e-002
  -9.39338305366620440751e-002-j3.63531944856836097824e-002
  -9.38944795874036008954e-002-j3.69398550034486794491e-002
  -9.38538484951932927558e-002-j3.75359371077620268542e-002
  -9.38118957143874165894e-002-j3.81415899690467560812e-002
  -9.37685783580075593591e-002-j3.87569650120577965935e-002
  -9.37238521549129677268e-002-j3.93822159446809982875e-002
  -9.36776714038873858925e-002-j4.00174987865927062058e-002
  -9.36299889303376930982e-002-j4.06629718983346558070e-002
  -9.35807560383556946704e-002-j4.13187960101955367720e-002
  -9.35299224606377377356e-002-j4.19851342510741756819e-002
  -9.34774363124792895263e-002-j4.26621521778391202262e-002
  -9.34232440350767356918e-002-j4.33500178037984698620e-002
  -9.33672903457304359520e-002-j4.40489016280898454392e-002
  -9.33095181827972020017e-002-j4.47589766643596009832e-002
  -9.32498686487375216814e-002-j4.54804184698057584191e-002
  -9.31882809503471465362e-002-j4.62134051735806489214e-002
  -9.31246923423437733547e-002-j4.69581175056896227282e-002
  -9.30590380604863209868e-002-j4.77147388251269316539e-002
  -9.29912512630617360543e-002-j4.84834551483786027615e-002
  -9.29212629609528217856e-002-j4.92644551770838115545e-002
  -9.28490019526158061325e-002-j5.00579303261108332634e-002
  -9.27743947533786750270e-002-j5.08640747506160229019e-002
  -9.26973655225739046060e-002-j5.16830853732322195726e-002
  -9.26178359913950588478e-002-j5.25151619107747866244e-002
  -9.25357253836972537542e-002-j5.33605069001964471553e-002
  -9.24509503411071742462e-002-j5.42193257247174861813e-002
  -9.23634248386034917289e-002-j5.50918266386151572744e-002
  -9.22730601031651609389e-002-j5.59782207919971436239e-002
  -9.21797645273124688359e-002-j5.68787222546797005540e-002
  -9.20834435808404183632e-002-j5.77935480394726197595e-002
  -9.19839997172446910412e-002-j5.87229181243364289911e-002
  -9.18813322844174162896e-002-j5.96670554744179668094e-002
  -9.17753374256240483930e-002-j6.06261860625353227183e-002
  -9.16659079785733243995e-002-j6.16005388886777804913e-002
  -9.15529333741053052975e-002-j6.25903459987522114982e-002
  -9.14362995358917185484e-002-j6.35958425026020152115e-002
  -9.13158887628989779373e-002-j6.46172665893607056642e-002
  -9.11915796244583409802e-002-j6.56548595429524983746e-002
  -9.10632468434823261205e-002-j6.67088657555960917733e-002
  -9.09307611800946880010e-002-j6.77795327397828634153e-002
  -9.07939893063648417737e-002-j6.88671111383899192671e-002
  -9.06527936858616545379e-002-j6.99718547337359886296e-002
  -9.05070324446337615143e-002-j7.10940204544341786130e-002
  -9.03565592343371637440e-002-j7.22338683795071684335e-002
  -9.02012231045828949405e-002-j7.33916617422380873625e-002
  -9.00408683557244460260e-002-j7.45676669297151706317e-002
  -8.98753344025565725772e-002-j7.57621534818579689397e-002
  -8.97044556236095136370e-002-j7.69753940866189367842e-002
  -8.95280612081436055760e-002-j7.82076645728270597457e-002
  -8.93459750033099853184e-002-j7.94592439006350237385e-002
  -8.91580153581692513853e-002-j8.07304141490267634929e-002
  -8.89639949528692186576e-002-j8.20214604993017570855e-002
  -8.87637206355430530280e-002-j8.33326712159681431968e-002
  -8.85569932493524003547e-002-j8.46643376241768691459e-002
  -8.83436074531445125757e-002-j8.60167540824669091259e-002
  -8.81233515434902692220e-002-j8.73902179531649003774e-002
  -8.78960072652713586550e-002-j8.87850295666639532932e-002
  -8.76613496268181524584e-002-j9.02014921837111099956e-002
  -8.74191466969722608127e-002-j9.16399119503465975356e-002
  -8.71691594085092225086e-002-j9.31005978498581354685e-002
  -8.69111413545320399265e-002-j9.45838616494450168393e-002
  -8.66448385733242787410e-002-j9.60900178401698917829e-002
  -8.63699893466380874685e-002-j9.76193835745605004162e-002
  -8.60863239573942395921e-002-j9.91722785919178784209e-002
  -8.57935644827749754882e-002-j1.00749025144522427744e-001
</dep>
<dep S[2,1] frequency>
  +1.09513190663260462365e+000+j3.36793247572644014257e-003
