<Qucs Dataset 0.0.19>
<indep S11G 1>
  +1.46265843880057490409e-004
</indep>
<indep C2 1>
  +9.67000000000000072841e-010
</indep>
<indep R5 1>
  +1.50000000000000000000e+002
</indep>
<indep L5 1>
  +1.01999999999999997502e-006
</indep>
<indep Zout 1>
  +5.00000000000000000000e+001
</indep>
<indep lcr 1>
  +7.48000000000000000000e+006
</indep>
<indep f 1>
  +5.99000000000000000000e+006
</indep>
<indep Zp 1>
  +5.00000000000000000000e+001
</indep>
<indep R1 1>
  +0.00000000000000000000e+000
</indep>
<indep sf2 1>
  +3.00000000000000000000e+007
</indep>
<indep sf1 1>
  +1.00000000000000000000e+006
</indep>
<indep C1 1>
  +3.08064522130907676367e-012
</indep>
<indep L1 1>
  +1.29544243007720227400e-005
</indep>
<indep frequency 200>
  +1.00000000000000000000e+006
  +1.01723833854609075934e+006
  +1.03477383740801131353e+006
  +1.05261161913588806055e+006
  +1.07075689458410139196e+006
  +1.08921496443350287154e+006
  +1.10799122073987592012e+006
  +1.12709114850908634253e+006
  +1.14652032729938835837e+006
  +1.16628443285134993494e+006
  +1.18638923874587728642e+006
  +1.20684061809081747197e+006
  +1.22764454523664037697e+006
  +1.24880709752169135027e+006
  +1.27033445704753138125e+006
  +1.29223291248488123529e+006
  +1.31450886091069644317e+006
  +1.33716880967691144906e+006
  +1.36021937831139541231e+006
  +1.38366730045168031938e+006
  +1.40751942581202206202e+006
  +1.43178272218436887488e+006
  +1.45646427747382665984e+006
  +1.48157130176920793019e+006
  +1.50711112944927811623e+006
  +1.53309122132530598901e+006
  +1.55951916682055150159e+006
  +1.58640268618732178584e+006
  +1.61374963276224653237e+006
  +1.64156799526043189690e+006
  +1.66986590010915882885e+006
  +1.69865161382181313820e+006
  +1.72793354541273717768e+006
  +1.75772024885370885022e+006
  +1.78802042557276808657e+006
  +1.81884292699611675926e+006
  +1.85019675713383872062e+006
  +1.88209107521019130945e+006
  +1.91453519833924039267e+006
  +1.94753860424661962315e+006
  +1.98111093403820414096e+006
  +2.01526199501651641913e+006
  +2.05000176354568172246e+006
  +2.08534038796576578170e+006
  +2.12128819155735615641e+006
  +2.15785567555724643171e+006
  +2.19505352222610544413e+006
  +2.23289259796902816743e+006
  +2.27138395650987839326e+006
  +2.31053884212035499513e+006
  +2.35036869290471868590e+006
  +2.39088514414114272222e+006
  +2.43210003168066730723e+006
  +2.47402539540473651141e+006
  +2.51667348274234961718e+006
  +2.56005675224783178419e+006
  +2.60418787724028574303e+006
  +2.64907974950577924028e+006
  +2.69474548306335369125e+006
  +2.74119841799594881013e+006
  +2.78845212434737151489e+006
  +2.83652040608643693849e+006
  +2.88541730513944989070e+006
  +2.93515710549219325185e+006
  +2.98575433736263168976e+006
  +3.03722378144554793835e+006
  +3.08958047323034424335e+006
  +3.14283970739328069612e+006
  +3.19701704226542264223e+006
  +3.25212830437761591747e+006
  +3.30818959308380167931e+006
  +3.36521728526403475553e+006
  +3.42322804010857315734e+006
  +3.48223880398443574086e+006
  +3.54226681538585387170e+006
  +3.60332960997005738318e+006
  +3.66544502567987516522e+006
  +3.72863120795462932438e+006
  +3.79290661503087123856e+006
  +3.85829002333448035643e+006
  +3.92480053296572528780e+006
  +3.99245757327886624262e+006
  +4.06128090855795051903e+006
  +4.13129064379044855013e+006
  +4.20250723054040502757e+006
  +4.27495147292285505682e+006
  +4.34864453368120919913e+006
  +4.42360794036941416562e+006
  +4.49986359164067730308e+006
  +4.57743376364460587502e+006
  +4.65634111653461866081e+006
  +4.73660870108752511442e+006
  +4.81825996543723158538e+006
  +4.90131876192451454699e+006
  +4.98580935406487714499e+006
  +5.07175642363651283085e+006
  +5.15918507789046876132e+006
  +5.24812085688508581370e+006
  +5.33858974094687122852e+006
  +5.43061815826000086963e+006
  +5.52423299258663505316e+006
  +5.61946159112032782286e+006
  +5.71633177247481420636e+006
  +5.81487183481051027775e+006
  +5.91511056410110089928e+006
  +6.01707724254263471812e+006
  +6.12080165710756275803e+006
  +6.22631410824625752866e+006
  +6.33364541873850859702e+006
  +6.44282694269762095064e+006
  +6.55389057472971733660e+006
  +6.66686875925094075501e+006
  +6.78179449996526539326e+006
  +6.89870136950568296015e+006
  +7.01762351924160309136e+006
  +7.13859568925529904664e+006
  +7.26165321849034633487e+006
  +7.38683205507499352098e+006
  +7.51416876682349201292e+006
  +7.64370055191845726222e+006
  +7.77546524977736920118e+006
  +7.90950135210639331490e+006
  +8.04584801414476614445e+006
  +8.18454506610298622400e+006
  +8.32563302479820791632e+006
  +8.46915310549019277096e+006
  +8.61514723392130993307e+006
  +8.76365805856406316161e+006
  +8.91472896307976916432e+006
  +9.06840407899197749794e+006
  +9.22472829857839271426e+006
  +9.38374728798499144614e+006
  +9.54550750056624040008e+006
  +9.71005619045525044203e+006
  +9.87744142636788263917e+006
  +1.00477121056447941810e+007
  +1.02209179685355499387e+007
  +1.03971096127289906144e+007
  +1.05763385081340279430e+007
  +1.07586570119153000414e+007
  +1.09441183837879691273e+007
  +1.11327768015762045979e+007
  +1.13246873770398404449e+007
  +1.15199061719738952816e+007
  +1.17184902145855817944e+007
  +1.19204975161536615342e+007
  +1.21259870879749543965e+007
  +1.23350189586029928178e+007
  +1.25476541913838405162e+007
  +1.27639549022941887379e+007
  +1.29839842780869677663e+007
  +1.32078065947497505695e+007
  +1.34354872362813390791e+007
  +1.36670927137920390815e+007
  +1.39026906849331986159e+007
  +1.41423499736616611481e+007
  +1.43861405903449375182e+007
  +1.46341337522129639983e+007
  +1.48864019041623864323e+007
  +1.51430187399195078760e+007
  +1.54040592235680390149e+007
  +1.56695996114479396492e+007
  +1.59397174744317717850e+007
  +1.62144917205850668252e+007
  +1.64940026182172950357e+007
  +1.67783318193302303553e+007
  +1.70675623834704943001e+007
  +1.73617788019932843745e+007
  +1.76610670227443873882e+007
  +1.79655144751676544547e+007
  +1.82752100958452932537e+007
  +1.85902443544784113765e+007
  +1.89107092803154624999e+007
  +1.92366984890362434089e+007
  +1.95683072100993245840e+007
  +1.99056323145609274507e+007
  +2.02487723433733358979e+007
  +2.05978275361711271107e+007
  +2.09528998605536259711e+007
  +2.13140930418721921742e+007
  +2.16815125935308597982e+007
  +2.20552658478094786406e+007
  +2.24354619872180558741e+007
  +2.28222120763916708529e+007
  +2.32156290945351943374e+007
  +2.36158279684272669256e+007
  +2.40229256059932596982e+007
  +2.44370409304569289088e+007
  +2.48582949150808230042e+007
  +2.52868106185055524111e+007
  +2.57227132206982336938e+007
  +2.61661300595206394792e+007
  +2.66171906679276898503e+007
  +2.70760268118072785437e+007
  +2.75427725284722447395e+007
  +2.80175641658160202205e+007
  +2.85005404221431799233e+007
  +2.89918423866866305470e+007
  +2.94916135808232426643e+007
  +2.99999999999999627471e+007
</indep>
<dep Rn frequency>
  +nan
  +nan
  +nan
  +nan
  +nan
  +nan
  +nan
  +nan
  +nan
  +nan
  +nan
  +nan
  +nan
  +nan
  +nan
  +nan
  +nan
  +nan
  +nan
  +nan
  +nan
  +nan
  +nan
  +nan
  +nan
  +nan
  +nan
  +nan
  +nan
  +nan
  +nan
  +nan
  +nan
  +nan
  +nan
  +nan
  +nan
  +nan
  +nan
  +nan
  +nan
  +nan
  +nan
  +nan
  +nan
  +nan
  +nan
  +nan
  +nan
  +nan
  +nan
  +nan
  +nan
  +nan
  +nan
  +nan
  +nan
  +nan
  +nan
  +nan
  +nan
  +nan
  +nan
  +nan
  +nan
  +nan
  +nan
  +nan
  +nan
  +nan
  +nan
  +nan
  +nan
  +nan
  +nan
  +nan
  +nan
  +nan
  +nan
  +nan
  +nan
  +nan
  +nan
  +nan
  +nan
  +nan
  +nan
  +nan
  +nan
  +nan
  +nan
  +nan
  +nan
  +nan
  +nan
  +nan
  +nan
  +nan
  +nan
  +nan
  +nan
  +nan
  +nan
  +nan
  +nan
  +nan
  +nan
  +nan
  +nan
  +nan
  +nan
  +nan
  +nan
  +nan
  +nan
  +nan
  +nan
  +nan
  +nan
  +nan
  +nan
  +nan
  +nan
  +nan
  +nan
  +nan
  +nan
  +nan
  +nan
  +nan
  +nan
  +nan
  +nan
  +nan
  +nan
  +nan
  +nan
  +nan
  +nan
  +nan
  +nan
  +nan
  +nan
  +nan
  +nan
  +nan
  +nan
  +nan
  +nan
  +nan
  +nan
  +nan
  +nan
  +nan
  +nan
  +nan
  +nan
  +nan
  +nan
  +nan
  +nan
  +nan
  +nan
  +nan
  +nan
  +nan
  +nan
  +nan
  +nan
  +nan
  +nan
  +nan
  +nan
  +nan
  +nan
  +nan
  +nan
  +nan
  +nan
  +nan
  +nan
  +nan
  +nan
  +nan
  +nan
  +nan
  +nan
  +nan
  +nan
  +nan
  +nan
  +nan
  +nan
  +nan
  +nan
  +nan
  +nan
  +nan
  +nan
  +nan
</dep>
<dep Fmin frequency>
  +nan
  +nan
  +nan
  +nan
  +nan
  +nan
  +nan
  +nan
  +nan
  +nan
  +nan
  +nan
  +nan
  +nan
  +nan
  +nan
  +nan
  +nan
  +nan
  +nan
  +nan
  +nan
  +nan
  +nan
  +nan
  +nan
  +nan
  +nan
  +nan
  +nan
  +nan
  +nan
  +nan
  +nan
  +nan
  +nan
  +nan
  +nan
  +nan
  +nan
  +nan
  +nan
  +nan
  +nan
  +nan
  +nan
  +nan
  +nan
  +nan
  +nan
  +nan
  +nan
  +nan
  +nan
  +nan
  +nan
  +nan
  +nan
  +nan
  +nan
  +nan
  +nan
  +nan
  +nan
  +nan
  +nan
  +nan
  +nan
  +nan
  +nan
  +nan
  +nan
  +nan
  +nan
  +nan
  +nan
  +nan
  +nan
  +nan
  +nan
  +nan
  +nan
  +nan
  +nan
  +nan
  +nan
  +nan
  +nan
  +nan
  +nan
  +nan
  +nan
  +nan
  +nan
  +nan
  +nan
  +nan
  +nan
  +nan
  +nan
  +nan
  +nan
  +nan
  +nan
  +nan
  +nan
  +nan
  +nan
  +nan
  +nan
  +nan
  +nan
  +nan
  +nan
  +nan
  +nan
  +nan
  +nan
  +nan
  +nan
  +nan
  +nan
  +nan
  +nan
  +nan
  +nan
  +nan
  +nan
  +nan
  +nan
  +nan
  +nan
  +nan
  +nan
  +nan
  +nan
  +nan
  +nan
  +nan
  +nan
  +nan
  +nan
  +nan
  +nan
  +nan
  +nan
  +nan
  +nan
  +nan
  +nan
  +nan
  +nan
  +nan
  +nan
  +nan
  +nan
  +nan
  +nan
  +nan
  +nan
  +nan
  +nan
  +nan
  +nan
  +nan
  +nan
  +nan
  +nan
  +nan
  +nan
  +nan
  +nan
  +nan
  +nan
  +nan
  +nan
  +nan
  +nan
  +nan
  +nan
  +nan
  +nan
  +nan
  +nan
  +nan
  +nan
  +nan
  +nan
  +nan
  +nan
  +nan
  +nan
  +nan
  +nan
  +nan
  +nan
  +nan
  +nan
  +nan
  +nan
</dep>
<dep Sopt frequency>
  +nan-jnan
  +nan-jnan
  +nan-jnan
  +nan-jnan
  +nan-jnan
  +nan-jnan
  +nan-jnan
  +nan-jnan
  +nan-jnan
  +nan-jnan
  +nan-jnan
  +nan-jnan
  +nan-jnan
  +nan-jnan
  +nan-jnan
  +nan-jnan
  +nan-jnan
  +nan-jnan
  +nan-jnan
  +nan-jnan
  +nan-jnan
  +nan-jnan
  +nan-jnan
  +nan-jnan
  +nan-jnan
  +nan-jnan
  +nan-jnan
  +nan-jnan
  +nan-jnan
  +nan-jnan
  +nan-jnan
  +nan-jnan
  +nan-jnan
  +nan-jnan
  +nan-jnan
  +nan-jnan
  +nan-jnan
  +nan-jnan
  +nan-jnan
  +nan-jnan
  +nan-jnan
  +nan-jnan
  +nan-jnan
  +nan-jnan
  +nan-jnan
  +nan-jnan
  +nan-jnan
  +nan-jnan
  +nan-jnan
  +nan-jnan
  +nan-jnan
  +nan-jnan
  +nan-jnan
  +nan-jnan
  +nan-jnan
  +nan-jnan
  +nan-jnan
  +nan-jnan
  +nan-jnan
  +nan-jnan
  +nan-jnan
  +nan-jnan
  +nan-jnan
  +nan-jnan
  +nan-jnan
  +nan-jnan
  +nan-jnan
  +nan-jnan
  +nan-jnan
  +nan-jnan
  +nan-jnan
  +nan-jnan
  +nan-jnan
  +nan-jnan
  +nan-jnan
  +nan-jnan
  +nan-jnan
  +nan-jnan
  +nan-jnan
  +nan-jnan
  +nan-jnan
  +nan-jnan
  +nan-jnan
  +nan-jnan
  +nan-jnan
  +nan-jnan
  +nan-jnan
  +nan-jnan
  +nan-jnan
  +nan-jnan
  +nan-jnan
  +nan-jnan
  +nan-jnan
  +nan-jnan
  +nan-jnan
  +nan-jnan
  +nan-jnan
  +nan-jnan
  +nan-jnan
  +nan-jnan
  +nan-jnan
  +nan-jnan
  +nan-jnan
  +nan-jnan
  +nan-jnan
  +nan-jnan
  +nan-jnan
  +nan-jnan
  +nan-jnan
  +nan-jnan
  +nan-jnan
  +nan-jnan
  +nan-jnan
  +nan-jnan
  +nan-jnan
  +nan-jnan
  +nan-jnan
  +nan-jnan
  +nan-jnan
  +nan-jnan
  +nan-jnan
  +nan-jnan
  +nan-jnan
  +nan-jnan
  +nan-jnan
  +nan-jnan
  +nan-jnan
  +nan-jnan
  +nan-jnan
  +nan-jnan
  +nan-jnan
  +nan-jnan
  +nan-jnan
  +nan-jnan
  +nan-jnan
  +nan-jnan
  +nan-jnan
  +nan-jnan
  +nan-jnan
  +nan-jnan
  +nan-jnan
  +nan-jnan
  +nan-jnan
  +nan-jnan
  +nan-jnan
  +nan-jnan
  +nan-jnan
  +nan-jnan
  +nan-jnan
  +nan-jnan
  +nan-jnan
  +nan-jnan
  +nan-jnan
  +nan-jnan
  +nan-jnan
  +nan-jnan
  +nan-jnan
  +nan-jnan
  +nan-jnan
  +nan-jnan
  +nan-jnan
  +nan-jnan
  +nan-jnan
  +nan-jnan
  +nan-jnan
  +nan-jnan
  +nan-jnan
  +nan-jnan
  +nan-jnan
  +nan-jnan
  +nan-jnan
  +nan-jnan
  +nan-jnan
  +nan-jnan
  +nan-jnan
  +nan-jnan
  +nan-jnan
  +nan-jnan
  +nan-jnan
  +nan-jnan
  +nan-jnan
  +nan-jnan
  +nan-jnan
  +nan-jnan
  +nan-jnan
  +nan-jnan
  +nan-jnan
  +nan-jnan
  +nan-jnan
  +nan-jnan
  +nan-jnan
  +nan-jnan
  +nan-jnan
  +nan-jnan
  +nan-jnan
  +nan-jnan
  +nan-jnan
  +nan-jnan
  +nan-jnan
  +nan-jnan
</dep>
<dep F frequency>
  +nan
  +nan
  +nan
  +nan
  +nan
  +nan
  +nan
  +nan
  +nan
  +nan
  +nan
  +nan
  +nan
  +nan
  +nan
  +nan
  +nan
  +nan
  +nan
  +nan
  +nan
  +nan
  +nan
  +nan
  +nan
  +nan
  +nan
  +nan
  +nan
  +nan
  +nan
  +nan
  +nan
  +nan
  +nan
  +nan
  +nan
  +nan
  +nan
  +nan
  +nan
  +nan
  +nan
  +nan
  +nan
  +nan
  +nan
  +nan
  +nan
  +nan
  +nan
  +nan
  +nan
  +nan
  +nan
  +nan
  +nan
  +nan
  +nan
  +nan
  +nan
  +nan
  +nan
  +nan
  +nan
  +nan
  +nan
  +nan
  +nan
  +nan
  +nan
  +nan
  +nan
  +nan
  +nan
  +nan
  +nan
  +nan
  +nan
  +nan
  +nan
  +nan
  +nan
  +nan
  +nan
  +nan
  +nan
  +nan
  +nan
  +nan
  +nan
  +nan
  +nan
  +nan
  +nan
  +nan
  +nan
  +nan
  +nan
  +nan
  +nan
  +nan
  +nan
  +nan
  +nan
  +nan
  +nan
  +nan
  +nan
  +nan
  +nan
  +nan
  +nan
  +nan
  +nan
  +nan
  +nan
  +nan
  +nan
  +nan
  +nan
  +nan
  +nan
  +nan
  +nan
  +nan
  +nan
  +nan
  +nan
  +nan
  +nan
  +nan
  +nan
  +nan
  +nan
  +nan
  +nan
  +nan
  +nan
  +nan
  +nan
  +nan
  +nan
  +nan
  +nan
  +nan
  +nan
  +nan
  +nan
  +nan
  +nan
  +nan
  +nan
  +nan
  +nan
  +nan
  +nan
  +nan
  +nan
  +nan
  +nan
  +nan
  +nan
  +nan
  +nan
  +nan
  +nan
  +nan
  +nan
  +nan
  +nan
  +nan
  +nan
  +nan
  +nan
  +nan
  +nan
  +nan
  +nan
  +nan
  +nan
  +nan
  +nan
  +nan
  +nan
  +nan
  +nan
  +nan
  +nan
  +nan
  +nan
  +nan
  +nan
  +nan
  +nan
  +nan
  +nan
  +nan
  +nan
  +nan
</dep>
<dep S[1,1] frequency>
  +4.99902047959608852867e-001-j1.20329043354607066046e-002
  +4.99898580418515148249e-001-j1.22431665888116415764e-002
  +4.99894987855000749732e-001-j1.24572141483769941589e-002
  +4.99891265566287823496e-001-j1.26751222665470331813e-002
  +4.99887408654807519071e-001-j1.28969681977363255510e-002
  +4.99883412018366057872e-001-j1.31228312909654962204e-002
  +4.99879270339628645203e-001-j1.33527930897360726931e-002
  +4.99874978074857423405e-001-j1.35869374399883655058e-002
  +4.99870529441824196226e-001-j1.38253506070367803565e-002
  +4.99865918406817377750e-001-j1.40681214024971669441e-002
  +4.99861138670641691473e-001-j1.43153413223599135923e-002
  +4.99856183653504593245e-001-j1.45671046975236299914e-002
  +4.99851046478661964478e-001-j1.48235088582919054268e-002
  +4.99845719954680633990e-001-j1.50846543145536117481e-002
  +4.99840196556150750951e-001-j1.53506449536227884689e-002
  +4.99834469618362642329e-001-j1.56215444245213913588e-002
  +4.99828541761691058642e-001-j1.58970864807012370046e-002
  +4.99822394827514393523e-001-j1.61777450312092230256e-002
  +4.99816020110269265686e-001-j1.64636325259984207803e-002
  +4.99809408499146234917e-001-j1.67548652282171924022e-002
  +4.99802550452991878327e-001-j1.70515634538802897391e-002
  +4.99795435972972601490e-001-j1.73538518351650551674e-002
  +4.99788054572730622294e-001-j1.76618596103460916147e-002
  +4.99780395245715325370e-001-j1.79757209438408914470e-002
  +4.99772446429320227335e-001-j1.82955752803796826977e-002
  +4.99764195965412716394e-001-j1.86215677379496513666e-002
  +4.99755631056754356933e-001-j1.89538495449192642694e-002
  +4.99746746189276724870e-001-j1.92923931841602544490e-002
  +4.99737548741662984675e-001-j1.96368813690165865127e-002
  +4.99728001054132842107e-001-j1.99880312866149642548e-002
  +4.99718088283630568203e-001-j2.03460085000573900893e-002
  +4.99707794805024141382e-001-j2.07109856864305594271e-002
  +4.99697104153200621912e-001-j2.10831431961908850881e-002
  +4.99685998959010169163e-001-j2.14626696766637356517e-002
  +4.99674460878188508861e-001-j2.18497627688730433615e-002
  +4.99662470512249712318e-001-j2.22446298884877088908e-002
  +4.99650007320152356183e-001-j2.26474891035510078607e-002
  +4.99637059269225636271e-001-j2.30580867264874797562e-002
  +4.99623614026424633927e-001-j2.34762158183804379996e-002
  +4.99609633809751430000e-001-j2.39028500176179381498e-002
  +4.99595093725144823171e-001-j2.43382321172594118242e-002
  +4.99579967331933161301e-001-j2.47826177986358760219e-002
  +4.99564226502393737839e-001-j2.52362768258919366315e-002
  +4.99547841263419334368e-001-j2.56994943937603921580e-002
  +4.99530779617380849000e-001-j2.61725726528182836561e-002
  +4.99513007338710846028e-001-j2.66558324410051533659e-002
  +4.99494571978244705779e-001-j2.71476867476476702024e-002
  +4.99475373719316217969e-001-j2.76499904640431087843e-002
  +4.99455368806633381862e-001-j2.81631971002385614322e-002
  +4.99434515407865708969e-001-j2.86876712548236982581e-002
  +4.99412768627006176114e-001-j2.92238010687642102425e-002
  +4.99390080174338890640e-001-j2.97720007311428058738e-002
  +4.99366397988063370761e-001-j3.03327133408244908885e-002
  +4.99341766161773947807e-001-j3.09048454865580649042e-002
  +4.99316127583313784655e-001-j3.14889389426343258016e-002
  +4.99289354020619746688e-001-j3.20865677037730293031e-002
  +4.99261380818645350566e-001-j3.26982510797898529020e-002
  +4.99232137973334932912e-001-j3.33245469349015624450e-002
  +4.99201549488219320505e-001-j3.39660561878026776017e-002
  +4.99169537488926950974e-001-j3.46233391999784603787e-002
  +4.99136214152330282001e-001-j3.52934994815290309367e-002
  +4.99101322169177186172e-001-j3.59803297147026981961e-002
  +4.99064762346487778011e-001-j3.66845597368061701604e-002
  +4.99026426199473238654e-001-j3.74069804178861695099e-002
  +4.98986194706575070246e-001-j3.81484513797540059077e-002
  +4.98944033586613377995e-001-j3.89092314967478189458e-002
  +4.98900379501287905004e-001-j3.96863341894309884506e-002
  +4.98854553471788697561e-001-j4.04845978047109686382e-002
  +4.98806406362736376447e-001-j4.13051007279356466317e-002
  +4.98755773808729097052e-001-j4.21490238811969147870e-002
  +4.98702474020718544701e-001-j4.30176649573967076479e-002
  +4.98645846625342614722e-001-j4.39070025860556351072e-002
  +4.98585931729875364571e-001-j4.48214571900329566967e-002
  +4.98522581521032293050e-001-j4.57638742728831426909e-002
  +4.98455503165987856562e-001-j4.67359470489256342840e-002
  +4.98384366324324812325e-001-j4.77395535546309215946e-002
  +4.98310124728028269736e-001-j4.87689647916369414804e-002
  +4.98231515676645142499e-001-j4.98317321927310846741e-002
  +4.98147981007240392426e-001-j5.09310239294289146539e-002
  +4.98059050607453979165e-001-j5.20694155589922352823e-002
  +4.97964467958893208799e-001-j5.32453407154112948185e-002
  +4.97863974083783078495e-001-j5.44572360775415140188e-002
  +4.97756504822265799515e-001-j5.57151835265745146164e-002
  +4.97641309434102951936e-001-j5.70228151765761609449e-002
  +4.97517786839685338673e-001-j5.83822703450102842293e-002
  +4.97386179884755308400e-001-j5.97893934360139156503e-002
