<Qucs Dataset 0.0.19>
<indep S11 1>
  +7.74743860619990648564e-002
</indep>
<indep C1 1>
  +2.47689431996082002327e-011
</indep>
<indep L1 1>
  +2.48154345059938607611e-006
</indep>
<indep R2 1>
  +1.40060500000000000000e+007
</indep>
<indep lcr 1>
  +1.00187699999999997090e+005
</indep>
<indep f 1>
  +2.03004400000000000000e+007
</indep>
<indep Zp 1>
  +1.97382800000000003138e+002
</indep>
<indep R1 1>
  +3.23627800000000021008e-001
</indep>
<indep frequency 116>
  +1.00000000000000000000e+006
  +1.25217391304347827099e+006
  +1.50434782608695654199e+006
  +1.75652173913043481298e+006
  +2.00869565217391308397e+006
  +2.26086956521739112213e+006
  +2.51304347826086962596e+006
  +2.76521739130434766412e+006
  +3.01739130434782616794e+006
  +3.26956521739130420610e+006
  +3.52173913043478270993e+006
  +3.77391304347826074809e+006
  +4.02608695652173925191e+006
  +4.27826086956521775573e+006
  +4.53043478260869532824e+006
  +4.78260869565217383206e+006
  +5.03478260869565233588e+006
  +5.28695652173913083971e+006
  +5.53913043478260841221e+006
  +5.79130434782608691603e+006
  +6.04347826086956541985e+006
  +6.29565217391304392368e+006
  +6.54782608695652149618e+006
  +6.80000000000000000000e+006
  +7.05217391304347850382e+006
  +7.30434782608695607632e+006
  +7.55652173913043458015e+006
  +7.80869565217391308397e+006
  +8.06086956521739158779e+006
  +8.31304347826086916029e+006
  +8.56521739130434766412e+006
  +8.81739130434782616794e+006
  +9.06956521739130467176e+006
  +9.32173913043478317559e+006
  +9.57391304347826167941e+006
  +9.82608695652173832059e+006
  +1.00782608695652168244e+007
  +1.03304347826086953282e+007
  +1.05826086956521738321e+007
  +1.08347826086956523359e+007
  +1.10869565217391308397e+007
  +1.13391304347826093435e+007
  +1.15913043478260878474e+007
  +1.18434782608695644885e+007
  +1.20956521739130429924e+007
  +1.23478260869565214962e+007
  +1.26000000000000000000e+007
  +1.28521739130434785038e+007
  +1.31043478260869570076e+007
  +1.33565217391304355115e+007
  +1.36086956521739121526e+007
  +1.38608695652173906565e+007
  +1.41130434782608691603e+007
  +1.43652173913043476641e+007
  +1.46173913043478261679e+007
  +1.48695652173913046718e+007
  +1.51217391304347831756e+007
  +1.53739130434782616794e+007
  +1.56260869565217383206e+007
  +1.58782608695652168244e+007
  +1.61304347826086953282e+007
  +1.63826086956521738321e+007
  +1.66347826086956523359e+007
  +1.68869565217391289771e+007
  +1.71391304347826093435e+007
  +1.73913043478260859847e+007
  +1.76434782608695663512e+007
  +1.78956521739130429924e+007
  +1.81478260869565233588e+007
  +1.84000000000000000000e+007
  +1.86521739130434766412e+007
  +1.89043478260869570076e+007
  +1.91565217391304336488e+007
  +1.94086956521739140153e+007
  +1.96608695652173906565e+007
  +1.99130434782608710229e+007
  +2.01652173913043476641e+007
  +2.04173913043478243053e+007
  +2.06695652173913046718e+007
  +2.09217391304347813129e+007
  +2.11739130434782616794e+007
  +2.14260869565217383206e+007
  +2.16782608695652186871e+007
  +2.19304347826086953282e+007
  +2.21826086956521756947e+007
  +2.24347826086956523359e+007
  +2.26869565217391289771e+007
  +2.29391304347826093435e+007
  +2.31913043478260859847e+007
  +2.34434782608695663512e+007
  +2.36956521739130429924e+007
  +2.39478260869565233588e+007
  +2.42000000000000000000e+007
  +2.44521739130434766412e+007
  +2.47043478260869570076e+007
  +2.49565217391304336488e+007
  +2.52086956521739140153e+007
  +2.54608695652173906565e+007
  +2.57130434782608710229e+007
  +2.59652173913043476641e+007
  +2.62173913043478243053e+007
  +2.64695652173913046718e+007
  +2.67217391304347813129e+007
  +2.69739130434782616794e+007
  +2.72260869565217383206e+007
  +2.74782608695652186871e+007
  +2.77304347826086953282e+007
  +2.79826086956521756947e+007
  +2.82347826086956523359e+007
  +2.84869565217391289771e+007
  +2.87391304347826093435e+007
  +2.89913043478260859847e+007
  +2.92434782608695663512e+007
  +2.94956521739130429924e+007
  +2.97478260869565233588e+007
  +3.00000000000000000000e+007
</indep>
<dep Rn frequency>
  +nan
  +nan
  +nan
  +nan
  +nan
  +nan
  +nan
  +nan
  +nan
  +nan
  +nan
  +nan
  +nan
  +nan
  +nan
  +nan
  +nan
  +nan
  +nan
  +nan
  +nan
  +nan
  +nan
  +nan
  +nan
  +nan
  +nan
  +nan
  +nan
  +nan
  +nan
  +nan
  +nan
  +nan
  +nan
  +nan
  +nan
  +nan
  +nan
  +nan
  +nan
  +nan
  +nan
  +nan
  +nan
  +nan
  +nan
  +nan
  +nan
  +nan
  +nan
  +nan
  +nan
  +nan
  +nan
  +nan
  +nan
  +nan
  +nan
  +nan
  +nan
  +nan
  +nan
  +nan
  +nan
  +nan
  +nan
  +nan
  +nan
  +nan
  +nan
  +nan
  +nan
  +nan
  +nan
  +nan
  +nan
  +nan
  +nan
  +nan
  +nan
  +nan
  +nan
  +nan
  +nan
  +nan
  +nan
  +nan
  +nan
  +nan
  +nan
  +nan
  +nan
  +nan
  +nan
  +nan
  +nan
  +nan
  +nan
  +nan
  +nan
  +nan
  +nan
  +nan
  +nan
  +nan
  +nan
  +nan
  +nan
  +nan
  +nan
  +nan
  +nan
  +nan
  +nan
  +nan
</dep>
<dep Fmin frequency>
  +nan
  +nan
  +nan
  +nan
  +nan
  +nan
  +nan
  +nan
  +nan
  +nan
  +nan
  +nan
  +nan
  +nan
  +nan
  +nan
  +nan
  +nan
  +nan
  +nan
  +nan
  +nan
  +nan
  +nan
  +nan
  +nan
  +nan
  +nan
  +nan
  +nan
  +nan
  +nan
  +nan
  +nan
  +nan
  +nan
  +nan
  +nan
  +nan
  +nan
  +nan
  +nan
  +nan
  +nan
  +nan
  +nan
  +nan
  +nan
  +nan
  +nan
  +nan
  +nan
  +nan
  +nan
  +nan
  +nan
  +nan
  +nan
  +nan
  +nan
  +nan
  +nan
  +nan
  +nan
  +nan
  +nan
  +nan
  +nan
  +nan
  +nan
  +nan
  +nan
  +nan
  +nan
  +nan
  +nan
  +nan
  +nan
  +nan
  +nan
  +nan
  +nan
  +nan
  +nan
  +nan
  +nan
  +nan
  +nan
  +nan
  +nan
  +nan
  +nan
  +nan
  +nan
  +nan
  +nan
  +nan
  +nan
  +nan
  +nan
  +nan
  +nan
  +nan
  +nan
  +nan
  +nan
  +nan
  +nan
  +nan
  +nan
  +nan
  +nan
  +nan
  +nan
  +nan
  +nan
</dep>
<dep Sopt frequency>
  +nan-jnan
  +nan-jnan
  +nan-jnan
  +nan-jnan
  +nan-jnan
  +nan-jnan
  +nan-jnan
  +nan-jnan
  +nan-jnan
  +nan-jnan
  +nan-jnan
  +nan-jnan
  +nan-jnan
  +nan-jnan
  +nan-jnan
  +nan-jnan
  +nan-jnan
  +nan-jnan
  +nan-jnan
  +nan-jnan
  +nan-jnan
  +nan-jnan
  +nan-jnan
  +nan-jnan
  +nan-jnan
  +nan-jnan
  +nan-jnan
  +nan-jnan
  +nan-jnan
  +nan-jnan
  +nan-jnan
  +nan-jnan
  +nan-jnan
  +nan-jnan
  +nan-jnan
  +nan-jnan
  +nan-jnan
  +nan-jnan
  +nan-jnan
  +nan-jnan
  +nan-jnan
  +nan-jnan
  +nan-jnan
  +nan-jnan
  +nan-jnan
  +nan-jnan
  +nan-jnan
  +nan-jnan
  +nan-jnan
  +nan-jnan
  +nan-jnan
  +nan-jnan
  +nan-jnan
  +nan-jnan
  +nan-jnan
  +nan-jnan
  +nan-jnan
  +nan-jnan
  +nan-jnan
  +nan-jnan
  +nan-jnan
  +nan-jnan
  +nan-jnan
  +nan-jnan
  +nan-jnan
  +nan-jnan
  +nan-jnan
  +nan-jnan
  +nan-jnan
  +nan-jnan
  +nan-jnan
  +nan-jnan
  +nan-jnan
  +nan-jnan
  +nan-jnan
  +nan-jnan
  +nan-jnan
  +nan-jnan
  +nan-jnan
  +nan-jnan
  +nan-jnan
  +nan-jnan
  +nan-jnan
  +nan-jnan
  +nan-jnan
  +nan-jnan
  +nan-jnan
  +nan-jnan
  +nan-jnan
  +nan-jnan
  +nan-jnan
  +nan-jnan
  +nan-jnan
  +nan-jnan
  +nan-jnan
  +nan-jnan
  +nan-jnan
  +nan-jnan
  +nan-jnan
  +nan-jnan
  +nan-jnan
  +nan-jnan
  +nan-jnan
  +nan-jnan
  +nan-jnan
  +nan-jnan
  +nan-jnan
  +nan-jnan
  +nan-jnan
  +nan-jnan
  +nan-jnan
  +nan-jnan
  +nan-jnan
  +nan-jnan
  +nan-jnan
  +nan-jnan
</dep>
<dep F frequency>
  +nan
  +nan
  +nan
  +nan
  +nan
  +nan
  +nan
  +nan
  +nan
  +nan
  +nan
  +nan
  +nan
  +nan
  +nan
  +nan
  +nan
  +nan
  +nan
  +nan
  +nan
  +nan
  +nan
  +nan
  +nan
  +nan
  +nan
  +nan
  +nan
  +nan
  +nan
  +nan
  +nan
  +nan
  +nan
  +nan
  +nan
  +nan
  +nan
  +nan
  +nan
  +nan
  +nan
  +nan
  +nan
  +nan
  +nan
  +nan
  +nan
  +nan
  +nan
  +nan
  +nan
  +nan
  +nan
  +nan
  +nan
  +nan
  +nan
  +nan
  +nan
  +nan
  +nan
  +nan
  +nan
  +nan
  +nan
  +nan
  +nan
  +nan
  +nan
  +nan
  +nan
  +nan
  +nan
  +nan
  +nan
  +nan
  +nan
  +nan
  +nan
  +nan
  +nan
  +nan
  +nan
  +nan
  +nan
  +nan
  +nan
  +nan
  +nan
  +nan
  +nan
  +nan
  +nan
  +nan
  +nan
  +nan
  +nan
  +nan
  +nan
  +nan
  +nan
  +nan
  +nan
  +nan
  +nan
  +nan
  +nan
  +nan
  +nan
  +nan
  +nan
  +nan
  +nan
  +nan
</dep>
<dep S[1,1] frequency>
  -8.75821244317754432629e-001+j4.51703432377391800312e-001
  -8.15410614187494386940e-001+j5.50077128736857212665e-001
  -7.42912616622064758687e-001+j6.41561750152262244562e-001
  -6.59051608288441670425e-001+j7.24816897762436074260e-001
  -5.64629039007901067926e-001+j7.97937293468374830852e-001
  -4.61173732403850733519e-001+j8.59046368817198979784e-001
  -3.50714977240158209959e-001+j9.06964997978821130253e-001
  -2.34770000872200901298e-001+j9.41061604999585687992e-001
  -1.15386149229206369515e-001+j9.60362958566612023859e-001
  +4.27146394080735181120e-003+j9.65907608284166108170e-001
  +1.23968384435825473844e-001+j9.54786946367215838549e-001
  +2.41473164778880811099e-001+j9.28865633099223875213e-001
  +3.54173020500089585916e-001+j8.88868627339502559437e-001
  +4.60477948998468500363e-001+j8.35249942860488148177e-001
  +5.59756347005472276734e-001+j7.69073540818903444993e-001
  +6.49484256106792390284e-001+j6.93333948275432820907e-001
  +7.26445871636498985424e-001+j6.09313173988149547888e-001
  +7.92277980100857703860e-001+j5.15786841255904127124e-001
  +8.44854763358990235034e-001+j4.18259448092057617430e-001
  +8.85664336430764587149e-001+j3.17895438512000305664e-001
  +9.13574235830007852499e-001+j2.15140669280192625701e-001
  +9.28963007131038409625e-001+j1.12304737311373331599e-001
  +9.35185693735087752998e-001+j1.14233802951945653120e-002
  +9.28513027394236800660e-001-j8.79470526686395859262e-002
  +9.12053370332949642219e-001-j1.81713998040873320194e-001
  +8.88807738947644532246e-001-j2.70626436956674543133e-001
  +8.56885077561543084812e-001-j3.54295477568255412493e-001
  +8.18835312166555473468e-001-j4.32335051778549084300e-001
  +7.75704221935304749636e-001-j5.04104142905355323556e-001
  +7.27582764722634278698e-001-j5.68897260489133138606e-001
  +6.75776501109368599174e-001-j6.27451659951641316226e-001
  +6.21420889369522999601e-001-j6.81240024082008122086e-001
  +5.64807430662476628314e-001-j7.26525350636952449435e-001
  +5.06032251089054918580e-001-j7.67649311562446090562e-001
  +4.46250521650909615090e-001-j8.02531090043114403443e-001
  +3.86036383987367059945e-001-j8.31282934506558546239e-001
  +3.25921954883684694693e-001-j8.54938806250762128869e-001
  +2.66326263995600887036e-001-j8.73981895371836570163e-001
  +2.07004872457851041290e-001-j8.87571529786673196760e-001
  +1.48929523405612940223e-001-j8.97458975208447196081e-001
  +9.22858776003735448157e-002-j9.02546865798951936100e-001
  +3.59817928653552998597e-002-j9.03392036540813903045e-001
  -1.83963650433685010910e-002-j9.01263235560538444879e-001
  -7.11950756560751907287e-002-j8.95528937772724353827e-001
  -1.22420314259426843417e-001-j8.86062865052074766226e-001
  -1.71236237775429567254e-001-j8.74187269970054581236e-001
  -2.18300486479042488153e-001-j8.58959826897353728725e-001
  -2.63549320009357379568e-001-j8.40381997621616694261e-001
  -3.06105384628802767999e-001-j8.19422410341873574957e-001
  -3.46583933470173466418e-001-j7.96089151148714813111e-001
  -3.84375666279163086259e-001-j7.69824800665309894043e-001
  -4.19184918109675230813e-001-j7.40916248629652773872e-001
  -4.50840594881245948500e-001-j7.09913984335331260667e-001
  -4.78784197529818822403e-001-j6.76859630495505903980e-001
  -5.02799148256759087516e-001-j6.41487383836851221552e-001
  -5.21399343655414737597e-001-j6.04497936881995157066e-001
  -5.34056871612230033008e-001-j5.66405358317995988315e-001
  -5.39804026689691074381e-001-j5.28773786472497731026e-001
  -5.38027204180110629750e-001-j4.93288675724913805443e-001
  -5.28492290523274177438e-001-j4.62160191630399896923e-001
  -5.11723395021842053509e-001-j4.38538825587665048733e-001
  -4.89318862524029118966e-001-j4.27149404567937263089e-001
  -4.66233840658933251788e-001-j4.34707457172386513289e-001
  -4.54236520506614893655e-001-j4.61232646051051464742e-001
  -4.62185755764802752577e-001-j4.99503796472174410592e-001
  -4.95863839840671005721e-001-j5.38700007103342426440e-001
  -5.52996096467247899575e-001-j5.65510668759760970481e-001
  -6.24054743811578216395e-001-j5.70996970791785241062e-001
  -6.98313934413560044590e-001-j5.53727834645783567602e-001
  -7.67843218298654872633e-001-j5.17503295798824369811e-001
  -8.28135350945798931477e-001-j4.66944189810178267308e-001
  -8.78448604106482289211e-001-j4.06895652798504758874e-001
  -9.18913480236768887011e-001-j3.40534305604840659143e-001
  -9.50241313870992199142e-001-j2.69872615232421175779e-001
  -9.73138889423984299043e-001-j1.96166955319520469603e-001
  -9.88180131911239989506e-001-j1.20177527333979378144e-001
  -9.95720926902529779312e-001-j4.23643698714688959894e-002
  -9.95887907792673110485e-001+j3.69520816802037868620e-002
  -9.88622743324296671119e-001+j1.17495865060197338114e-001
  -9.73700359862706976699e-001+j1.98961444476597359987e-001
  -9.50759498521517643077e-001+j2.80967153840063987857e-001
  -9.19382867695099470495e-001+j3.63013330687547153275e-001
  -8.79049727471043373939e-001+j4.44456823054924898830e-001
  -8.29117438340487677984e-001+j5.24433456613782156275e-001
  -7.69397252139324527853e-001+j6.01814742496831422969e-001
  -6.98936802617662444881e-001+j6.75153809014951478140e-001
  -6.18128306490023593511e-001+j7.43449725889011925339e-001
  -5.26660317612846040625e-001+j8.04287258792020232079e-001
  -4.25002844607136220922e-001+j8.55641592579170717769e-001
  -3.14121759025434155177e-001+j8.95793975015626298131e-001
  -1.95263067501162568274e-001+j9.22742255604644512346e-001
  -7.03070419357423315176e-002+j9.33987197918675016162e-001
  +5.78193072302649602179e-002+j9.28937815019407642225e-001
  +1.85916913028348784742e-001+j9.05132325800575676666e-001
  +3.12271681651192345441e-001+j8.64394266616918427459e-001
  +4.32511317287362029305e-001+j8.05295025607308811999e-001
  +5.42324104418069552480e-001+j7.30065557265893394501e-001
  +6.40036994836385764174e-001+j6.41285088142784176490e-001
  +7.24830656241367776715e-001+j5.40874821104591618770e-001
  +7.94496438908655289168e-001+j4.31960746006984086520e-001
  +8.45208867103854233349e-001+j3.14610998124172480672e-001
  +8.78812201561347539069e-001+j1.98410420733047571096e-001
  +8.98435708385897147110e-001+j8.10796923388371892916e-002
  +9.02165230304690313190e-001-j3.41204797186311498125e-002
  +8.92141722101527534505e-001-j1.43836155104500651447e-001
  +8.71682404541289201916e-001-j2.46222006581328728414e-001
  +8.42444807501378178927e-001-j3.41001134739625622050e-001
  +8.03549799992630653378e-001-j4.29116976623930612700e-001
  +7.56873923662176872895e-001-j5.08997958447074849708e-001
  +7.06757263619015807521e-001-j5.80050536818503381653e-001
  +6.52379503496257173722e-001-j6.42417069898900239266e-001
  +5.95730055558253868142e-001-j6.96909319926099946052e-001
  +5.38378564391146507973e-001-j7.44357428910317531212e-001
  +4.79717975951403863277e-001-j7.84799671754101813015e-001
  +4.19106970716701221491e-001-j8.18309785452590254806e-001
  +3.62114841932771880373e-001-j8.49909949016964816337e-001
</dep>
<indep _net0.V 1>
  +0.00000000000000000000e+000
</indep>
<indep _net1.V 1>
  +0.00000000000000000000e+000
</indep>
<indep _net2.V 1>
  +0.00000000000000000000e+000
</indep>
