<Qucs Dataset 0.0.22>
<indep frequency 15>
1.000000000000e+06
1.258925411794e+06
1.584893192461e+06
1.995262314969e+06
2.511886431510e+06
3.162277660168e+06
3.981071705535e+06
5.011872336273e+06
6.309573444802e+06
7.943282347243e+06
1.000000000000e+07
1.258925411794e+07
1.584893192461e+07
1.995262314969e+07
2.511886431510e+07
</indep>
<dep ac.vpr1#branch frequency>
1.219952514165e-03-j3.272803233443e-03
7.483708224934e-04-j2.631282831049e-03
4.270742790679e-04-j2.021966950976e-03
2.179578790311e-04-j1.460162029803e-03
8.994961363600e-05-j9.441425757621e-04
2.143377824339e-05-j4.624698645146e-04
1.220129505582e-10+j1.104594717824e-06
2.164361393163e-05+j4.647232437616e-04
9.040820332899e-05+j9.465243737277e-04
2.187462893468e-04+j1.462741588376e-03
4.283194173402e-04+j2.024780642473e-03
7.502424386731e-04+j2.634304589440e-03
1.222640094114e-03+j3.275904782103e-03
1.882220275352e-03+j3.908893652759e-03
2.747306365064e-03+j4.463784424356e-03
</dep>
<dep ac.vpr2#branch frequency>
-1.219952514165e-03+j3.272803233443e-03
-7.483708224934e-04+j2.631282831049e-03
-4.270742790679e-04+j2.021966950976e-03
-2.179578790311e-04+j1.460162029803e-03
-8.994961363600e-05+j9.441425757621e-04
-2.143377824339e-05+j4.624698645146e-04
-1.220129505584e-10-j1.104594717823e-06
-2.164361393163e-05-j4.647232437616e-04
-9.040820332899e-05-j9.465243737277e-04
-2.187462893468e-04-j1.462741588376e-03
-4.283194173402e-04-j2.024780642473e-03
-7.502424386731e-04-j2.634304589440e-03
-1.222640094114e-03-j3.275904782103e-03
-1.882220275352e-03-j3.908893652759e-03
-2.747306365064e-03-j4.463784424356e-03
</dep>
<dep ac.v(vp1) frequency>
9.390023742917e-01+j1.636401616722e-01
9.625814588753e-01+j1.315641415525e-01
9.786462860466e-01+j1.010983475488e-01
9.891021060484e-01+j7.300810149017e-02
9.955025193182e-01+j4.720712878811e-02
9.989283110878e-01+j2.312349322573e-02
9.999999938994e-01-j5.522973589118e-05
9.989178193034e-01-j2.323616218808e-02
9.954795898336e-01-j4.732621868639e-02
9.890626855327e-01-j7.313707941881e-02
9.785840291330e-01-j1.012390321236e-01
9.624878780663e-01-j1.317152294720e-01
9.388679952943e-01-j1.637952391052e-01
9.058889862324e-01-j1.954446826379e-01
8.626346817468e-01-j2.231892212178e-01
</dep>
<dep ac.v(vp2) frequency>
6.099762570827e-02-j1.636401616722e-01
3.741854112467e-02-j1.315641415525e-01
2.135371395339e-02-j1.010983475488e-01
1.089789395156e-02-j7.300810149017e-02
4.497480681800e-03-j4.720712878811e-02
1.071688912170e-03-j2.312349322573e-02
6.100647527083e-09+j5.522973589119e-05
1.082180696582e-03+j2.323616218808e-02
4.520410166449e-03+j4.732621868639e-02
1.093731446734e-02+j7.313707941881e-02
2.141597086701e-02+j1.012390321236e-01
3.751212193366e-02+j1.317152294720e-01
6.113200470572e-02+j1.637952391052e-01
9.411101376761e-02+j1.954446826379e-01
1.373653182532e-01+j2.231892212178e-01
</dep>
