<Qucs Dataset 0.0.22>
<indep frequency 23>
1.000000000000e+06
1.165914401180e+06
1.359356390879e+06
1.584893192461e+06
1.847849797422e+06
2.154434690032e+06
2.511886431510e+06
2.928644564625e+06
3.414548873834e+06
3.981071705535e+06
4.641588833613e+06
5.411695265465e+06
6.309573444802e+06
7.356422544596e+06
8.576958985909e+06
1.000000000000e+07
1.165914401180e+07
1.359356390879e+07
1.584893192461e+07
1.847849797422e+07
2.154434690032e+07
2.511886431510e+07
2.928644564625e+07
</indep>
<dep ac.v(ns11) frequency>
-9.983779606768e-01-j4.886283731052e-04
-9.982954155010e-01-j4.617385334409e-04
-9.982198724593e-01-j4.215421600050e-04
-9.981543470438e-01-j3.706906802382e-04
-9.981006260102e-01-j3.124756985838e-04
-9.980592854463e-01-j2.503234595861e-04
-9.980298983037e-01-j1.874742075359e-04
-9.980112777903e-01-j1.268785939170e-04
-9.980016545489e-01-j7.126892324164e-05
-9.979987608823e-01-j2.338848384620e-05
-9.979998371844e-01+j1.342290424355e-05
-9.980015508721e-01+j3.315886519646e-05
-9.980003570793e-01+j1.605891452546e-05
-9.980635883107e-01-j2.076546360776e-04
-9.982317326955e-01+j3.495082545514e-04
-9.981003608248e-01+j2.598312446366e-04
-9.980743547742e-01+j2.301169697623e-04
-9.980615690782e-01+j2.136229657178e-04
-9.980534594207e-01+j2.037451859051e-04
-9.980521512000e-01+j2.112367525609e-04
-9.979416485114e-01-j6.633345262072e-04
-9.980121265533e-01+j8.714586510527e-05
-9.980126362754e-01+j9.289109434481e-05
</dep>
<dep ac.v(ns12) frequency>
3.779606768245e-04+j4.886283731043e-04
2.954155009701e-04+j4.617385334401e-04
2.198724593426e-04+j4.215421600042e-04
1.543470438006e-04+j3.706906802375e-04
1.006260101656e-04+j3.124756985832e-04
5.928544628143e-05+j2.503234595856e-04
2.989830368257e-05+j1.874742075356e-04
1.127779027613e-05+j1.268785939167e-04
1.654548909979e-06+j7.126892324151e-05
-1.239117733578e-06+j2.338848384616e-05
-1.628156093356e-07-j1.342290424353e-05
1.550872129261e-06-j3.315886519638e-05
3.570792861088e-07-j1.605891452543e-05
6.358831074115e-05+j2.076546360772e-04
2.317326954701e-04-j3.495082545507e-04
1.003608248092e-04-j2.598312446362e-04
7.435477420287e-05-j2.301169697618e-04
6.156907822070e-05-j2.136229657174e-04
5.345942070754e-05-j2.037451859048e-04
5.215120001528e-05-j2.112367525605e-04
-5.835148861006e-05+j6.633345262060e-04
1.212655326738e-05-j8.714586510511e-05
1.263627537364e-05-j9.289109434465e-05
</dep>
