<Qucs Dataset 0.0.19>
<indep OG1 1>
  +6.19070830780974858953e+001
</indep>
<indep Z0 1>
  +5.00000000000000000000e+001
</indep>
<indep F2 1>
  +3.00000000000000000000e+007
</indep>
<indep F1 1>
  +1.00000000000000000000e+006
</indep>
<indep C1v 1>
  +5.39696389846868638444e-009
</indep>
<indep C1 1>
  +5.39696389846868623863e+003
</indep>
<indep L1v 1>
  +5.68468144085995150504e-009
</indep>
<indep L1 1>
  +5.68468144085995143178e-003
</indep>
<indep Fr1 1>
  +2.87337500000000000000e+007
</indep>
<indep LCr1 1>
  +1.05331100000000010830e+000
</indep>
<indep frequency 101>
  +1.00000000000000000000e+006
  +1.29000000000000000000e+006
  +1.58000000000000000000e+006
  +1.87000000000000000000e+006
  +2.16000000000000000000e+006
  +2.45000000000000000000e+006
  +2.74000000000000000000e+006
  +3.03000000000000000000e+006
  +3.32000000000000000000e+006
  +3.61000000000000000000e+006
  +3.90000000000000000000e+006
  +4.19000000000000000000e+006
  +4.48000000000000000000e+006
  +4.77000000000000000000e+006
  +5.06000000000000000000e+006
  +5.35000000000000000000e+006
  +5.64000000000000000000e+006
  +5.93000000000000000000e+006
  +6.22000000000000000000e+006
  +6.51000000000000000000e+006
  +6.80000000000000000000e+006
  +7.09000000000000000000e+006
  +7.38000000000000000000e+006
  +7.67000000000000000000e+006
  +7.96000000000000000000e+006
  +8.25000000000000000000e+006
  +8.54000000000000000000e+006
  +8.83000000000000000000e+006
  +9.12000000000000000000e+006
  +9.41000000000000000000e+006
  +9.70000000000000000000e+006
  +9.99000000000000000000e+006
  +1.02800000000000000000e+007
  +1.05700000000000000000e+007
  +1.08600000000000000000e+007
  +1.11500000000000000000e+007
  +1.14400000000000000000e+007
  +1.17300000000000000000e+007
  +1.20200000000000000000e+007
  +1.23100000000000000000e+007
  +1.26000000000000000000e+007
  +1.28900000000000000000e+007
  +1.31800000000000000000e+007
  +1.34700000000000000000e+007
  +1.37600000000000000000e+007
  +1.40500000000000000000e+007
  +1.43400000000000000000e+007
  +1.46300000000000000000e+007
  +1.49200000000000000000e+007
  +1.52100000000000000000e+007
  +1.55000000000000000000e+007
  +1.57900000000000000000e+007
  +1.60800000000000000000e+007
  +1.63700000000000000000e+007
  +1.66600000000000000000e+007
  +1.69500000000000000000e+007
  +1.72400000000000000000e+007
  +1.75300000000000000000e+007
  +1.78200000000000000000e+007
  +1.81100000000000000000e+007
  +1.84000000000000000000e+007
  +1.86900000000000000000e+007
  +1.89800000000000000000e+007
  +1.92700000000000000000e+007
  +1.95600000000000000000e+007
  +1.98500000000000000000e+007
  +2.01400000000000000000e+007
  +2.04300000000000000000e+007
  +2.07200000000000000000e+007
  +2.10100000000000000000e+007
  +2.13000000000000000000e+007
  +2.15900000000000000000e+007
  +2.18800000000000000000e+007
  +2.21700000000000000000e+007
  +2.24600000000000000000e+007
  +2.27500000000000000000e+007
  +2.30400000000000000000e+007
  +2.33300000000000000000e+007
  +2.36200000000000000000e+007
  +2.39100000000000000000e+007
  +2.42000000000000000000e+007
  +2.44900000000000000000e+007
  +2.47800000000000000000e+007
  +2.50700000000000000000e+007
  +2.53600000000000000000e+007
  +2.56500000000000000000e+007
  +2.59400000000000000000e+007
  +2.62300000000000000000e+007
  +2.65200000000000000000e+007
  +2.68100000000000000000e+007
  +2.71000000000000000000e+007
  +2.73900000000000000000e+007
  +2.76800000000000000000e+007
  +2.79700000000000000000e+007
  +2.82600000000000000000e+007
  +2.85500000000000000000e+007
  +2.88400000000000000000e+007
  +2.91300000000000000000e+007
  +2.94200000000000000000e+007
  +2.97100000000000000000e+007
  +3.00000000000000000000e+007
</indep>
<dep vs1 frequency>
  +6.30494813273344121285e+001
  +7.05872331441873086533e+001
  +7.87083373710839140358e+001
  +8.85120814129313373542e+001
  +9.60210300029522016985e+001
  +1.02488695709620813545e+002
  +1.09166783067954000330e+002
  +1.14733047030481017714e+002
  +1.25149652881219481060e+002
  +1.24880043775759602909e+002
  +1.27659136135390895106e+002
  +1.27875933134247418366e+002
  +1.28177239872867176018e+002
  +1.32624167423408835020e+002
  +1.33550879833554176912e+002
  +1.30580930425452493182e+002
  +1.27483261135770348460e+002
  +1.27190637955531130387e+002
  +1.19207784165835789736e+002
  +1.19470774641967864227e+002
  +1.13603486884818977387e+002
  +1.07438865084781440373e+002
  +1.04792663262443994654e+002
  +9.86373491005311109348e+001
  +9.54710515791572049693e+001
  +9.04027806966210647488e+001
  +8.51513367681489228289e+001
  +8.18194155789024364367e+001
  +7.62574099266777380990e+001
  +7.22679867591303519703e+001
  +6.73674683252377803910e+001
  +6.22714894961176526067e+001
  +5.81585936139259587208e+001
  +5.32195882263941015822e+001
  +4.90847048153748772847e+001
  +4.46899861202506869517e+001
  +4.01784756322901728254e+001
  +3.65948884955057351931e+001
  +3.25223013228538135877e+001
  +2.90831962496496032600e+001
  +2.56624218597444091472e+001
  +2.24285873024497739436e+001
  +1.95033059287610015531e+001
  +1.68569154167227139851e+001
  +1.43061410601689420474e+001
  +1.20473871591103911527e+001
  +1.00364193844165026093e+001
  +8.26762671313344021939e+000
  +6.76709342788108347833e+000
  +5.50052642607350517068e+000
  +4.49650956222306419363e+000
  +3.75262196554680116378e+000
  +3.27649351997593774044e+000
  +3.09130894904581055016e+000
  +3.19383852704540149858e+000
  +3.58053108726328961353e+000
  +4.23007102817169666764e+000
  +5.13869902453417459753e+000
  +6.28044859744218264552e+000
  +7.64002744825350088576e+000
  +9.25354649117104344214e+000
  +1.10649447852390387936e+001
  +1.30822717468134452901e+001
  +1.52888626713802437962e+001
  +1.76950815629991318190e+001
  +2.01884063590857039117e+001
  +2.29078942545337085335e+001
  +2.55879205253241401863e+001
  +2.87091403894524255236e+001
  +3.17109879036920681017e+001
  +3.47748769345930313079e+001
  +3.83020072805824582929e+001
  +4.13255460913496790454e+001
  +4.49584404319347683554e+001
  +4.76419939139199684064e+001
  +5.16755536539282118724e+001
  +5.47289876107384145598e+001
  +5.74545850960064115043e+001
  +6.09422211268082634206e+001
  +6.34036987089845354149e+001
  +6.65578029124318106824e+001
  +6.83390942680633628470e+001
  +7.19650835334574168201e+001
  +7.40236244389279818279e+001
  +7.60090068813544945669e+001
  +7.89560782350047389855e+001
  +8.32675543590385558446e+001
  +8.36197141977762044007e+001
  +8.46055604542367660770e+001
  +8.73355224080254401997e+001
  +8.74807048725543836554e+001
  +8.82581840009024745086e+001
  +9.05430607283498432025e+001
  +9.09645362304234055273e+001
  +8.96817095801534804878e+001
  +8.95592720861575628533e+001
  +8.73838471375263594609e+001
  +8.56569937445342048932e+001
  +8.48979634945907122301e+001
  +7.94344969754929906003e+001
  +8.11914700359780709960e+001
</dep>
<dep S[1,1] frequency>
  -4.90068481424026369808e-002+j9.67533806805863427769e-001
  +2.01795107724538624883e-001+j9.50885575776412750315e-001
  +3.90229084342286869358e-001+j8.93402422116789884932e-001
  +5.29751235563966416109e-001+j8.21691029863202415662e-001
  +6.32781624372728113137e-001+j7.47518683041723974725e-001
  +7.09374331730192597689e-001+j6.77133649153381700359e-001
  +7.67572547947152017400e-001+j6.12252706844368388417e-001
  +8.12602670122127168639e-001+j5.52642055158587774955e-001
  +8.48348951153489627686e-001+j4.98845708848188018614e-001
  +8.75602619951832306100e-001+j4.49217320629437644186e-001
  +8.97718198780048770580e-001+j4.04046752956351229447e-001
  +9.15149134689992815872e-001+j3.62912237117338776216e-001
  +9.29572738952998633977e-001+j3.24297744049878933215e-001
  +9.41697866476790546031e-001+j2.88954053709066904787e-001
  +9.51198318268833942213e-001+j2.56347761307896992999e-001
  +9.58783368380158762534e-001+j2.24868725509418304620e-001
  +9.64713377234637126101e-001+j1.96055979783450240461e-001
  +9.69834864360102244518e-001+j1.68701583117102565934e-001
  +9.72995279003596835743e-001+j1.42412394356528970718e-001
  +9.76331747345040357189e-001+j1.17681164705815063942e-001
  +9.78094998836020579347e-001+j9.34439686750741099752e-002
  +9.79025128033185199072e-001+j7.04472874819713906769e-002
  +9.79897484390348960659e-001+j4.84614293103123733308e-002
  +9.79557392883091404556e-001+j2.69191897466068627565e-002
  +9.79249675500410865503e-001+j6.05451102846076699704e-003
  +9.78017209010289545468e-001-j1.40989302338002144011e-002
  +9.76199495563494390460e-001-j3.38164979502795920441e-002
  +9.74380588997376007043e-001-j5.35517035695586562927e-002
  +9.71423105371411854669e-001-j7.23349379927009511482e-002
  +9.68368992650509241571e-001-j9.17197923158926675669e-002
  +9.64440341386533117607e-001-j1.10468307031061349632e-001
  +9.59752672884037094647e-001-j1.29051771301896739397e-001
  +9.54861434961484789596e-001-j1.47538885568673505677e-001
  +9.48711318134477954445e-001-j1.65931952365042434394e-001
  +9.42214770261838530097e-001-j1.84285696224455591841e-001
  +9.34587997183142560331e-001-j2.02274167457409059789e-001
  +9.25434563674177534942e-001-j2.20888422479804474863e-001
  +9.16100050385698305710e-001-j2.39151330329608086123e-001
  +9.04331709704379593795e-001-j2.57721043307595876204e-001
  +8.91818758053630089577e-001-j2.75888752651464064236e-001
  +8.77012716331627473210e-001-j2.94026539206786619030e-001
  +8.59778729894454030180e-001-j3.11987600840155254733e-001
  +8.40312682636207286535e-001-j3.29088407930722581796e-001
  +8.17889079378105732232e-001-j3.45830768337037075533e-001
  +7.91046113157461650012e-001-j3.60536776965741434520e-001
  +7.60141452281228313659e-001-j3.72970785162702489490e-001
  +7.24656590179097226390e-001-j3.81151505998512163398e-001
  +6.83969193381125273312e-001-j3.83598711508652157054e-001
  +6.39491607787029292531e-001-j3.77308641799441013553e-001
  +5.92075322522866764885e-001-j3.58847119460125818513e-001
  +5.46739025123630373315e-001-j3.25178831006648183521e-001
  +5.09581883535862756318e-001-j2.75273283196330487144e-001
  +4.88647836258386147890e-001-j2.11176383532787920183e-001
  +4.91113355871797274688e-001-j1.41743022793005712945e-001
  +5.17417739462223691405e-001-j7.69601777845701912062e-002
  +5.62717010736192735365e-001-j2.71045341909404435832e-002
  +6.17586437631581386398e-001+j3.43955045333440732544e-003
  +6.74039846700693723314e-001+j1.46054931117597930346e-002
  +7.25198733481545398938e-001+j1.16094268972665656814e-002
  +7.68517473444808918437e-001-j1.65427725575602920655e-003
  +8.04671903988833925325e-001-j2.09867863700776355329e-002
  +8.33105959838556398012e-001-j4.33009016538860799783e-002
  +8.55321821131968307306e-001-j6.74529796407058179764e-002
  +8.72422020542137244270e-001-j9.15914321375475709575e-002
  +8.85520257799492616080e-001-j1.15492756336870228129e-001
  +8.94982502224527354251e-001-j1.38324049298901685656e-001
  +9.02193666339311306501e-001-j1.60424091553001912924e-001
  +9.06837865965306688665e-001-j1.81271053067027815286e-001
  +9.10657969165689307189e-001-j2.01482652702431430658e-001
  +9.12581607311141240757e-001-j2.20567513421227739956e-001
  +9.13368753710153136183e-001-j2.38898719585972391100e-001
  +9.13831652225828627856e-001-j2.56369511309380848640e-001
  +9.12667269631010857900e-001-j2.73433186462287813878e-001
  +9.11669243178164223629e-001-j2.89340310559274282998e-001
  +9.09141233031865669822e-001-j3.04826726614812304472e-001
  +9.07172670307019535230e-001-j3.20223020337737751539e-001
  +9.04163759097313057822e-001-j3.34663878054084484859e-001
  +9.00687718905533674096e-001-j3.48572919251088741976e-001
  +8.97311416404699468963e-001-j3.62351263406819557034e-001
  +8.93140818610146602907e-001-j3.75706803455619242627e-001
  +8.89144209996997503254e-001-j3.88703525179212527885e-001
  +8.84455215313237008701e-001-j4.01102754941459804794e-001
  +8.80097748333637630580e-001-j4.13954756072399121525e-001
  +8.74994047663948615323e-001-j4.26356119767959951261e-001
  +8.70016731464918535721e-001-j4.37953653971616063689e-001
  +8.64901041711035212245e-001-j4.50049340303558642606e-001
  +8.59957471175157750487e-001-j4.62134820892639575085e-001
  +8.53553077303287777156e-001-j4.74062713349618525260e-001
  +8.47626214129797994623e-001-j4.85128532141906154695e-001
  +8.41507306249697051292e-001-j4.97087687815172263317e-001
  +8.34576487474570027914e-001-j5.08709565266048158172e-001
  +8.27721018447255763029e-001-j5.20159751741768316968e-001
  +8.21199306457633504408e-001-j5.31426133086424057339e-001
  +8.13706901066775012410e-001-j5.43009213876623930695e-001
  +8.05475322025926754321e-001-j5.54604009507131734402e-001
  +7.97413032899387919095e-001-j5.66083240435433010518e-001
  +7.88601007742058546235e-001-j5.77376276233169116736e-001
  +7.79593795674255907180e-001-j5.88733538224971653108e-001
  +7.70578145559440486068e-001-j6.00153781929555707464e-001
  +7.59623426961511416522e-001-j6.11441418928000191002e-001
  +7.50167939913878645264e-001-j6.23837580486418463721e-001
</dep>
<indep _net3.V 1>
  +0.00000000000000000000e+000
</indep>
<indep _net5.V 1>
  +0.00000000000000000000e+000
</indep>
<indep _net4.V 1>
  +0.00000000000000000000e+000
</indep>
<indep _net2.V 1>
  +0.00000000000000000000e+000
</indep>
<indep _net1.V 1>
  +0.00000000000000000000e+000
</indep>
<indep _net0.V 1>
  +0.00000000000000000000e+000
</indep>
