<Qucs Dataset 0.0.22>
<indep frequency 15>
1.000000000000e+06
1.258925411794e+06
1.584893192461e+06
1.995262314969e+06
2.511886431510e+06
3.162277660168e+06
3.981071705535e+06
5.011872336273e+06
6.309573444802e+06
7.943282347243e+06
1.000000000000e+07
1.258925411794e+07
1.584893192461e+07
1.995262314969e+07
2.511886431510e+07
</indep>
<dep ac.v(ns11) frequency>
6.136384448643e-01+j4.835210959152e-01
7.180853440976e-01+j4.451536267564e-01
8.043435236139e-01+j3.902497591042e-01
8.701800241742e-01+j3.275501595200e-01
9.174038331692e-01+j2.639957479629e-01
9.496770070270e-01+j2.036613120545e-01
9.708226669690e-01+j1.480921034771e-01
9.839835797741e-01+j9.710701236530e-02
9.913777001474e-01+j4.950364306437e-02
9.943162710026e-01+j3.494826530758e-03
9.932524328985e-01-j4.311629024311e-02
9.877006763375e-01-j9.300964547468e-02
9.757982612715e-01-j1.498083989509e-01
9.527264137423e-01-j2.197531540932e-01
9.028527818358e-01-j3.212824050674e-01
</dep>
<dep ac.v(ns12) frequency>
3.884013520744e-01-j4.834625950287e-01
2.857283724892e-01-j4.480089157992e-01
2.008626414446e-01-j3.968893801515e-01
1.359651423634e-01-j3.388364726500e-01
8.920791535727e-02-j2.808530120060e-01
5.691228933858e-02-j2.271736997720e-01
3.519214459758e-02-j1.796062208063e-01
2.075000226301e-02-j1.383318867920e-01
1.106653304369e-02-j1.026099263345e-01
4.295888016991e-03-j7.121455342015e-02
-9.379761017080e-04-j4.260351184967e-02
-5.760647785543e-03-j1.481202092963e-02
-1.123971975041e-02+j1.509409183445e-02
-1.825673220601e-02+j5.265078059487e-02
-2.365412558609e-02+j1.079370386954e-01
</dep>
