<Qucs Dataset 0.0.22>
<indep time 59>
0.000000000000e+00
1.000000000000e-07
2.000000000000e-07
4.000000000000e-07
8.000000000000e-07
1.600000000000e-06
3.200000000000e-06
6.400000000000e-06
1.280000000000e-05
2.560000000000e-05
4.560000000000e-05
6.560000000000e-05
8.560000000000e-05
1.056000000000e-04
1.256000000000e-04
1.456000000000e-04
1.656000000000e-04
1.856000000000e-04
2.056000000000e-04
2.256000000000e-04
2.456000000000e-04
2.656000000000e-04
2.856000000000e-04
3.056000000000e-04
3.256000000000e-04
3.456000000000e-04
3.656000000000e-04
3.856000000000e-04
4.056000000000e-04
4.256000000000e-04
4.456000000000e-04
4.656000000000e-04
4.856000000000e-04
5.056000000000e-04
5.256000000000e-04
5.456000000000e-04
5.656000000000e-04
5.856000000000e-04
6.056000000000e-04
6.256000000000e-04
6.456000000000e-04
6.656000000000e-04
6.856000000000e-04
7.056000000000e-04
7.256000000000e-04
7.456000000000e-04
7.656000000000e-04
7.856000000000e-04
8.056000000000e-04
8.256000000000e-04
8.456000000000e-04
8.656000000000e-04
8.856000000000e-04
9.056000000000e-04
9.256000000000e-04
9.456000000000e-04
9.656000000000e-04
9.856000000000e-04
1.000000000000e-03
</indep>
<dep tran.v(_net0) time>
8.306160351025e-01
8.306160351024e-01
8.306160351022e-01
8.306160351031e-01
8.306160351020e-01
8.306160351029e-01
8.306160351022e-01
8.306160351029e-01
8.306160351022e-01
8.306160351029e-01
8.306160351022e-01
8.306160351029e-01
8.306160351022e-01
8.306160351029e-01
8.306160351022e-01
8.306160351029e-01
8.306160351022e-01
8.306160351029e-01
8.306160351022e-01
8.306160351029e-01
8.306160351022e-01
8.306160351029e-01
8.306160351022e-01
8.306160351029e-01
8.306160351022e-01
8.306160351029e-01
8.306160351021e-01
8.306160351029e-01
8.306160351021e-01
8.306160351029e-01
8.306160351021e-01
8.306160351029e-01
8.306160351021e-01
8.306160351029e-01
8.306160351021e-01
8.306160351029e-01
8.306160351021e-01
8.306160351029e-01
8.306160351022e-01
8.306160351029e-01
8.306160351021e-01
8.306160351029e-01
8.306160351022e-01
8.306160351029e-01
8.306160351022e-01
8.306160351029e-01
8.306160351022e-01
8.306160351029e-01
8.306160351022e-01
8.306160351029e-01
8.306160351022e-01
8.306160351029e-01
8.306160351022e-01
8.306160351029e-01
8.306160351022e-01
8.306160351029e-01
8.306160351022e-01
8.306160351029e-01
8.306160351022e-01
</dep>
<dep tran.v(_net1) time>
1.000000000000e+01
1.000000000000e+01
1.000000000000e+01
9.999999999999e+00
1.000000000000e+01
1.000000000000e+01
1.000000000000e+01
1.000000000000e+01
1.000000000000e+01
1.000000000000e+01
1.000000000000e+01
1.000000000000e+01
1.000000000000e+01
1.000000000000e+01
1.000000000000e+01
1.000000000000e+01
1.000000000000e+01
1.000000000000e+01
1.000000000000e+01
1.000000000000e+01
1.000000000000e+01
1.000000000000e+01
1.000000000000e+01
1.000000000000e+01
1.000000000000e+01
1.000000000000e+01
1.000000000000e+01
1.000000000000e+01
1.000000000000e+01
1.000000000000e+01
1.000000000000e+01
1.000000000000e+01
1.000000000000e+01
1.000000000000e+01
1.000000000000e+01
1.000000000000e+01
1.000000000000e+01
1.000000000000e+01
1.000000000000e+01
1.000000000000e+01
1.000000000000e+01
1.000000000000e+01
1.000000000000e+01
1.000000000000e+01
1.000000000000e+01
1.000000000000e+01
1.000000000000e+01
1.000000000000e+01
1.000000000000e+01
1.000000000000e+01
1.000000000000e+01
1.000000000000e+01
1.000000000000e+01
1.000000000000e+01
1.000000000000e+01
1.000000000000e+01
1.000000000000e+01
1.000000000000e+01
1.000000000000e+01
</dep>
<dep tran.v(_net2) time>
2.806438685326e-23
-9.381384558083e-14
-3.277378368693e-13
5.886402476563e-13
-4.909406214892e-13
3.828048988908e-13
-3.812505866563e-13
3.845812557302e-13
-3.826938765883e-13
3.879119248040e-13
-3.812505866563e-13
3.755884492307e-13
-3.795852521193e-13
3.843592111252e-13
-3.858025010572e-13
3.862465902671e-13
-3.846922780326e-13
3.840261442178e-13
-3.866906794769e-13
3.871347686868e-13
-3.842481888228e-13
3.865796571745e-13
-3.903544154582e-13
3.892441924336e-13
-3.879119248040e-13
3.912425938779e-13
-3.923528169025e-13
3.895772593410e-13
-3.915756607853e-13
3.952393967666e-13
-3.945732629518e-13
3.973488205133e-13
-4.006794895872e-13
3.969047313035e-13
-3.913536161804e-13
3.915756607853e-13
-3.929079284148e-13
3.904654377607e-13
-3.899103262484e-13
3.923528169025e-13
-3.917977053902e-13
3.874678355942e-13
-3.846922780326e-13
3.843592111252e-13
-3.830269434957e-13
3.825828542858e-13
-3.840261442178e-13
3.850253449400e-13
-3.850253449400e-13
3.856914787548e-13
-3.858025010572e-13
3.866906794769e-13
-3.888001032237e-13
3.880229471065e-13
-3.874678355942e-13
3.883560140139e-13
-3.881339694090e-13
3.881339694090e-13
-3.881339694090e-13
</dep>
<dep tran.v(_net3) time>
0.000000000000e+00
-9.403589018575e-14
-3.278488591718e-13
5.883071807489e-13
-4.913847106991e-13
3.824718319834e-13
-3.815836535637e-13
3.842481888228e-13
-3.830269434957e-13
3.876898801991e-13
-3.814726312612e-13
3.755884492307e-13
-3.799183190267e-13
3.845812557302e-13
-3.858025010572e-13
3.861355679646e-13
-3.846922780326e-13
3.839151219154e-13
-3.868017017794e-13
3.870237463843e-13
-3.841371665203e-13
3.868017017794e-13
-3.903544154582e-13
3.892441924336e-13
-3.879119248040e-13
3.912425938779e-13
-3.923528169025e-13
3.894662370385e-13
-3.916866830878e-13
3.952393967666e-13
-3.946842852542e-13
3.974598428158e-13
-4.006794895872e-13
3.967937090010e-13
-3.914646384828e-13
3.917977053902e-13
-3.929079284148e-13
3.903544154582e-13
-3.900213485508e-13
3.925748615075e-13
-3.916866830878e-13
3.873568132917e-13
-3.846922780326e-13
3.841371665203e-13
-3.829159211932e-13
3.826938765883e-13
-3.840261442178e-13
3.849143226375e-13
-3.850253449400e-13
3.855804564523e-13
-3.858025010572e-13
3.869127240819e-13
-3.889111255262e-13
3.880229471065e-13
-3.874678355942e-13
3.883560140139e-13
-3.881339694090e-13
3.881339694090e-13
-3.882449917114e-13
</dep>
<dep tran.v(_net4) time>
1.000000000000e+01
1.000000000000e+01
1.000000000000e+01
1.000000000000e+01
1.000000000000e+01
1.000000000000e+01
1.000000000000e+01
1.000000000000e+01
1.000000000000e+01
1.000000000000e+01
1.000000000000e+01
1.000000000000e+01
1.000000000000e+01
1.000000000000e+01
1.000000000000e+01
1.000000000000e+01
1.000000000000e+01
1.000000000000e+01
1.000000000000e+01
1.000000000000e+01
1.000000000000e+01
1.000000000000e+01
1.000000000000e+01
1.000000000000e+01
1.000000000000e+01
1.000000000000e+01
1.000000000000e+01
1.000000000000e+01
1.000000000000e+01
1.000000000000e+01
1.000000000000e+01
1.000000000000e+01
1.000000000000e+01
1.000000000000e+01
1.000000000000e+01
1.000000000000e+01
1.000000000000e+01
1.000000000000e+01
1.000000000000e+01
1.000000000000e+01
1.000000000000e+01
1.000000000000e+01
1.000000000000e+01
1.000000000000e+01
1.000000000000e+01
1.000000000000e+01
1.000000000000e+01
1.000000000000e+01
1.000000000000e+01
1.000000000000e+01
1.000000000000e+01
1.000000000000e+01
1.000000000000e+01
1.000000000000e+01
1.000000000000e+01
1.000000000000e+01
1.000000000000e+01
1.000000000000e+01
1.000000000000e+01
</dep>
<dep tran.v(_net5) time>
8.306160351025e-01
8.306160351025e-01
8.306160351025e-01
8.306160351025e-01
8.306160351025e-01
8.306160351025e-01
8.306160351025e-01
8.306160351025e-01
8.306160351025e-01
8.306160351025e-01
8.306160351025e-01
8.306160351025e-01
8.306160351025e-01
8.306160351025e-01
8.306160351025e-01
8.306160351025e-01
8.306160351025e-01
8.306160351025e-01
8.306160351025e-01
8.306160351025e-01
8.306160351025e-01
8.306160351025e-01
8.306160351025e-01
8.306160351025e-01
8.306160351025e-01
8.306160351025e-01
8.306160351025e-01
8.306160351025e-01
8.306160351025e-01
8.306160351025e-01
8.306160351025e-01
8.306160351025e-01
8.306160351025e-01
8.306160351025e-01
8.306160351025e-01
8.306160351025e-01
8.306160351025e-01
8.306160351025e-01
8.306160351025e-01
8.306160351025e-01
8.306160351025e-01
8.306160351025e-01
8.306160351025e-01
8.306160351025e-01
8.306160351025e-01
8.306160351025e-01
8.306160351025e-01
8.306160351025e-01
8.306160351025e-01
8.306160351025e-01
8.306160351025e-01
8.306160351025e-01
8.306160351025e-01
8.306160351025e-01
8.306160351025e-01
8.306160351025e-01
8.306160351025e-01
8.306160351025e-01
8.306160351025e-01
</dep>
<dep tran.v(_net6) time>
0.000000000000e+00
-4.839006317022e-14
-1.656429085442e-13
2.940626915729e-13
-2.461379242867e-13
1.919317488933e-13
-1.910011720194e-13
1.925133622301e-13
-1.918445094844e-13
1.943817892343e-13
-1.909793627866e-13
1.882167087893e-13
-1.902814291452e-13
1.926078746168e-13
-1.934075902477e-13
1.935893438002e-13
-1.927750878851e-13
1.924333912065e-13
-1.937783674947e-13
1.939673911893e-13
-1.924624717748e-13
1.936983959316e-13
-1.956540641562e-13
1.950215617935e-13
-1.944181399993e-13
1.960539219715e-13
-1.965264812080e-13
1.951088034987e-13
-1.961847845293e-13
1.979732394856e-13
-1.977042442279e-13
1.990492205161e-13
-2.008304053304e-13
1.987947655427e-13
-1.960321115452e-13
1.961775143872e-13
-1.968318271761e-13
1.955813627352e-13
-1.953777987564e-13
1.964755902133e-13
-1.962065949556e-13
1.940255523261e-13
-1.927096566062e-13
1.925206329117e-13
-1.918299694123e-13
1.915900547230e-13
-1.924406613486e-13
1.929350310113e-13
-1.928695997324e-13
1.932621874057e-13
-1.932112964109e-13
1.937565570683e-13
-1.947016755412e-13
1.944399504257e-13
-1.941636850259e-13
1.945926234097e-13
-1.944254101415e-13
1.944399504256e-13
-1.944763010987e-13
</dep>
<dep tran.v(_net7) time>
0.000000000000e+00
4.685141160243e-14
1.635358514015e-13
-2.946531905122e-13
2.462474667297e-13
-1.919575608761e-13
1.909583601653e-13
-1.925126724052e-13
1.917355162922e-13
-1.944000515543e-13
1.911804047868e-13
-1.882938249236e-13
1.902922263673e-13
-1.926236947184e-13
1.934008508354e-13
-1.935118731378e-13
1.928457393233e-13
-1.925126724160e-13
1.937339177427e-13
-1.939559623475e-13
1.925126724160e-13
-1.937339177427e-13
1.956212968840e-13
-1.949551630694e-13
1.945110738597e-13
-1.960653860937e-13
1.966204976059e-13
-1.951772076743e-13
1.961764083962e-13
-1.980637875375e-13
1.977307206302e-13
-1.990629882594e-13
2.007283227958e-13
-1.988409436545e-13
1.960653860938e-13
-1.961764083962e-13
1.968425422108e-13
-1.955102745816e-13
1.953992522792e-13
-1.965094753035e-13
1.962874306986e-13
-1.939559623475e-13
1.927347170208e-13
-1.925126724159e-13
1.918465386014e-13
-1.916244939965e-13
1.924016501135e-13
-1.927347170207e-13
1.928457393232e-13
-1.930677839280e-13
1.931788062305e-13
-1.936228954402e-13
1.947331184646e-13
-1.945110738597e-13
1.941780069524e-13
-1.945110738597e-13
1.944000515573e-13
-1.945110738597e-13
1.945110738574e-13
</dep>
<dep tran.v(_net8) time>
0.000000000000e+00
-4.839006057413e-14
-1.656428996576e-13
2.940626757966e-13
-2.452073395241e-13
1.910011681475e-13
-1.911174930180e-13
1.921062336367e-13
-1.916409451949e-13
1.939528507009e-13
-1.907467181505e-13
1.878023106020e-13
-1.900197039410e-13
1.922007465695e-13
-1.929495712053e-13
1.930295427684e-13
-1.923316091272e-13
1.919390214541e-13
-1.934003200152e-13
1.934657512941e-13
-1.921498555749e-13
1.933058081680e-13
-1.951451541181e-13
1.946362441714e-13
-1.940182820933e-13
1.956395237805e-13
-1.960684621642e-13
1.946435143135e-13
-1.957776564803e-13
1.975006801569e-13
-1.973407370308e-13
1.985984716133e-13
-2.002487938689e-13
1.982640450769e-13
-1.956613342068e-13
1.957413057699e-13
-1.962792962849e-13
1.950724526971e-13
-1.949488602815e-13
1.959739503169e-13
-1.957267654857e-13
1.934948318625e-13
-1.922516375642e-13
1.919535617383e-13
-1.913428698023e-13
1.912483579551e-13
-1.919535617383e-13
1.924697418271e-13
-1.924406612587e-13
1.927605475109e-13
-1.929568413474e-13
1.934075901573e-13
-1.943236280613e-13
1.939092299619e-13
-1.937274764095e-13
1.941200640827e-13
-1.939673910987e-13
1.940328223775e-13
-1.940037417309e-13
</dep>
<dep tran.v(_net9) time>
0.000000000000e+00
4.685141160243e-14
1.635358514015e-13
-2.946531905122e-13
2.451372437056e-13
-1.909583601544e-13
1.910693824677e-13
-1.920685831955e-13
1.915134716873e-13
-1.939559623445e-13
1.908473378795e-13
-1.877387134114e-13
1.899591594600e-13
-1.924016501136e-13
1.929567616257e-13
-1.929567616256e-13
1.924016501135e-13
-1.919575609038e-13
1.932898285329e-13
-1.935118731378e-13
1.920685832062e-13
-1.934008508354e-13
1.952882299768e-13
-1.946220961621e-13
1.939559623475e-13
-1.956212968840e-13
1.960653860937e-13
-1.946220961621e-13
1.959543637914e-13
-1.976196983278e-13
1.972866314205e-13
-1.986188990497e-13
2.001732112837e-13
-1.982858321424e-13
1.957323191865e-13
-1.958433414889e-13
1.962874306986e-13
-1.950661853719e-13
1.948441407670e-13
-1.960653860938e-13
1.957323191864e-13
-1.935118731378e-13
1.921796055086e-13
-1.919575609038e-13
1.914024493916e-13
-1.911804047867e-13
1.919575609038e-13
-1.922906278110e-13
1.924016501135e-13
-1.927347170208e-13
1.928457393232e-13
-1.932898285329e-13
1.944000515573e-13
-1.938449400451e-13
1.936228954402e-13
-1.940669846500e-13
1.939559623475e-13
-1.939559623475e-13
1.941780069502e-13
</dep>
<dep tran.i(l1) time>
8.989593168795e-03
8.989593168795e-03
8.989593168794e-03
8.989593168795e-03
8.989593168795e-03
8.989593168794e-03
8.989593168794e-03
8.989593168794e-03
8.989593168795e-03
8.989593168795e-03
8.989593168795e-03
8.989593168795e-03
8.989593168795e-03
8.989593168795e-03
8.989593168795e-03
8.989593168795e-03
8.989593168795e-03
8.989593168795e-03
8.989593168795e-03
8.989593168795e-03
8.989593168795e-03
8.989593168795e-03
8.989593168795e-03
8.989593168795e-03
8.989593168795e-03
8.989593168795e-03
8.989593168795e-03
8.989593168795e-03
8.989593168795e-03
8.989593168795e-03
8.989593168795e-03
8.989593168795e-03
8.989593168795e-03
8.989593168795e-03
8.989593168795e-03
8.989593168795e-03
8.989593168795e-03
8.989593168795e-03
8.989593168795e-03
8.989593168795e-03
8.989593168795e-03
8.989593168795e-03
8.989593168795e-03
8.989593168795e-03
8.989593168795e-03
8.989593168795e-03
8.989593168795e-03
8.989593168795e-03
8.989593168795e-03
8.989593168795e-03
8.989593168795e-03
8.989593168795e-03
8.989593168795e-03
8.989593168795e-03
8.989593168795e-03
8.989593168795e-03
8.989593168795e-03
8.989593168795e-03
8.989593168795e-03
</dep>
<dep tran.i(l2) time>
-9.169383964897e-03
-9.169383964897e-03
-9.169383964897e-03
-9.169383964897e-03
-9.169383964897e-03
-9.169383964897e-03
-9.169383964897e-03
-9.169383964897e-03
-9.169383964897e-03
-9.169383964897e-03
-9.169383964898e-03
-9.169383964897e-03
-9.169383964897e-03
-9.169383964897e-03
-9.169383964897e-03
-9.169383964897e-03
-9.169383964898e-03
-9.169383964897e-03
-9.169383964897e-03
-9.169383964897e-03
-9.169383964898e-03
-9.169383964898e-03
-9.169383964897e-03
-9.169383964897e-03
-9.169383964897e-03
-9.169383964898e-03
-9.169383964897e-03
-9.169383964897e-03
-9.169383964897e-03
-9.169383964898e-03
-9.169383964897e-03
-9.169383964898e-03
-9.169383964897e-03
-9.169383964897e-03
-9.169383964898e-03
-9.169383964898e-03
-9.169383964897e-03
-9.169383964897e-03
-9.169383964897e-03
-9.169383964897e-03
-9.169383964897e-03
-9.169383964897e-03
-9.169383964897e-03
-9.169383964897e-03
-9.169383964898e-03
-9.169383964898e-03
-9.169383964897e-03
-9.169383964897e-03
-9.169383964897e-03
-9.169383964897e-03
-9.169383964898e-03
-9.169383964898e-03
-9.169383964897e-03
-9.169383964897e-03
-9.169383964897e-03
-9.169383964897e-03
-9.169383964897e-03
-9.169383964897e-03
-9.169383964897e-03
</dep>
<dep tran.i(l3) time>
0.000000000000e+00
5.376673685580e-24
1.840476761602e-23
-3.267363239699e-23
2.734865825407e-23
-2.132574987703e-23
2.122235244660e-23
-2.139037358113e-23
2.131605660938e-23
-2.159797658159e-23
2.121992919852e-23
-2.091296764326e-23
2.114238101613e-23
-2.140087495742e-23
2.148973224974e-23
-2.150992708891e-23
2.141945420946e-23
-2.138148791183e-23
2.153092972163e-23
-2.155193235437e-23
2.138471908609e-23
-2.152204399240e-23
2.173934046179e-23
-2.166906242150e-23
2.160201555548e-23
-2.178376910795e-23
2.183627568977e-23
-2.167875594430e-23
2.179830939214e-23
-2.199702660951e-23
2.196713824754e-23
-2.211658005735e-23
2.231448948115e-23
-2.208830728253e-23
2.178134572724e-23
-2.179750159858e-23
2.187020301957e-23
-2.173126252613e-23
2.170864430626e-23
-2.183062113481e-23
2.180073277285e-23
-2.155839470290e-23
2.141218406736e-23
-2.139118143464e-23
2.131444104581e-23
-2.128778385811e-23
2.138229570540e-23
-2.143722566792e-23
2.142995552582e-23
-2.147357637841e-23
2.146792182343e-23
-2.152850634093e-23
2.163351950457e-23
-2.160443893619e-23
2.157374278066e-23
-2.162140260108e-23
2.160282334905e-23
-2.160443893618e-23
2.160847789985e-23
</dep>
<dep tran.i(l4) time>
9.079487959730e-03
9.079487959730e-03
9.079487959730e-03
9.079487959730e-03
9.079487959730e-03
9.079487959730e-03
9.079487959730e-03
9.079487959730e-03
9.079487959730e-03
9.079487959730e-03
9.079487959730e-03
9.079487959730e-03
9.079487959730e-03
9.079487959730e-03
9.079487959730e-03
9.079487959730e-03
9.079487959730e-03
9.079487959730e-03
9.079487959730e-03
9.079487959730e-03
9.079487959730e-03
9.079487959730e-03
9.079487959730e-03
9.079487959730e-03
9.079487959730e-03
9.079487959730e-03
9.079487959730e-03
9.079487959730e-03
9.079487959730e-03
9.079487959730e-03
9.079487959730e-03
9.079487959730e-03
9.079487959730e-03
9.079487959730e-03
9.079487959730e-03
9.079487959730e-03
9.079487959730e-03
9.079487959730e-03
9.079487959730e-03
9.079487959730e-03
9.079487959730e-03
9.079487959730e-03
9.079487959730e-03
9.079487959730e-03
9.079487959730e-03
9.079487959730e-03
9.079487959730e-03
9.079487959730e-03
9.079487959730e-03
9.079487959730e-03
9.079487959730e-03
9.079487959730e-03
9.079487959730e-03
9.079487959730e-03
9.079487959730e-03
9.079487959730e-03
9.079487959730e-03
9.079487959730e-03
9.079487959730e-03
</dep>
<dep tran.i(l5) time>
9.079487959730e-03
9.079487959730e-03
9.079487959730e-03
9.079487959730e-03
9.079487959730e-03
9.079487959730e-03
9.079487959730e-03
9.079487959730e-03
9.079487959730e-03
9.079487959730e-03
9.079487959730e-03
9.079487959730e-03
9.079487959730e-03
9.079487959730e-03
9.079487959730e-03
9.079487959730e-03
9.079487959730e-03
9.079487959730e-03
9.079487959730e-03
9.079487959730e-03
9.079487959730e-03
9.079487959730e-03
9.079487959730e-03
9.079487959730e-03
9.079487959730e-03
9.079487959730e-03
9.079487959730e-03
9.079487959730e-03
9.079487959730e-03
9.079487959730e-03
9.079487959730e-03
9.079487959730e-03
9.079487959730e-03
9.079487959730e-03
9.079487959730e-03
9.079487959730e-03
9.079487959730e-03
9.079487959730e-03
9.079487959730e-03
9.079487959730e-03
9.079487959730e-03
9.079487959730e-03
9.079487959730e-03
9.079487959730e-03
9.079487959730e-03
9.079487959730e-03
9.079487959730e-03
9.079487959730e-03
9.079487959730e-03
9.079487959730e-03
9.079487959730e-03
9.079487959730e-03
9.079487959730e-03
9.079487959730e-03
9.079487959730e-03
9.079487959730e-03
9.079487959730e-03
9.079487959730e-03
9.079487959730e-03
</dep>
<dep tran.i(l6) time>
0.000000000000e+00
5.376673397125e-24
1.840476662862e-23
-3.267363064407e-23
2.724525994712e-23
-2.122235201639e-23
2.123527700200e-23
-2.134513707074e-23
2.129343835499e-23
-2.155031674454e-23
2.119407979450e-23
-2.086692340022e-23
2.111330043789e-23
-2.135563850773e-23
2.143884124504e-23
-2.144772697426e-23
2.137017879192e-23
-2.132655793935e-23
2.148892444614e-23
-2.149619458823e-23
2.134998395276e-23
-2.147842312978e-23
2.168279490201e-23
-2.162624935238e-23
2.155758689926e-23
-2.173772486450e-23
2.178538468491e-23
-2.162705714595e-23
2.175307294226e-23
-2.194452001743e-23
2.192674855898e-23
-2.206649684592e-23
2.224986598543e-23
-2.202933834188e-23
2.174014824520e-23
-2.174903397443e-23
2.180881069832e-23
-2.167471696635e-23
2.166098447572e-23
-2.177488336855e-23
2.174741838730e-23
-2.149942576250e-23
2.136129306269e-23
-2.132817352648e-23
2.126031886692e-23
-2.124981755056e-23
2.132817352648e-23
-2.138552686967e-23
2.138229569541e-23
-2.141783861232e-23
2.143964903860e-23
-2.148973223970e-23
2.159151422904e-23
-2.154546999577e-23
2.152527515661e-23
-2.156889600918e-23
2.155193234430e-23
-2.155920248639e-23
2.155597130344e-23
</dep>
<dep tran.i(v1) time>
-1.815897713369e-02
-1.815897713368e-02
-1.815897713368e-02
-1.815897713368e-02
