<Qucs Dataset 0.0.19>
<indep frequency 101>
  +1.00000000000000000000e+001
  +3.09899999999999977263e+002
  +6.09799999999999954525e+002
  +9.09700000000000045475e+002
  +1.20959999999999990905e+003
  +1.50950000000000000000e+003
  +1.80940000000000009095e+003
  +2.10930000000000018190e+003
  +2.40919999999999981810e+003
  +2.70909999999999990905e+003
  +3.00900000000000000000e+003
  +3.30890000000000009095e+003
  +3.60880000000000018190e+003
  +3.90869999999999981810e+003
  +4.20860000000000036380e+003
  +4.50850000000000000000e+003
  +4.80839999999999963620e+003
  +5.10830000000000018190e+003
  +5.40819999999999981810e+003
  +5.70810000000000036380e+003
  +6.00800000000000000000e+003
  +6.30789999999999963620e+003
  +6.60780000000000018190e+003
  +6.90769999999999981810e+003
  +7.20760000000000036380e+003
  +7.50750000000000000000e+003
  +7.80739999999999963620e+003
  +8.10730000000000018190e+003
  +8.40720000000000072760e+003
  +8.70710000000000036380e+003
  +9.00700000000000000000e+003
  +9.30689999999999963620e+003
  +9.60679999999999927240e+003
  +9.90670000000000072760e+003
  +1.02066000000000003638e+004
  +1.05065000000000000000e+004
  +1.08063999999999996362e+004
  +1.11062999999999992724e+004
  +1.14062000000000007276e+004
  +1.17061000000000003638e+004
  +1.20060000000000000000e+004
  +1.23058999999999996362e+004
  +1.26057999999999992724e+004
  +1.29057000000000007276e+004
  +1.32056000000000003638e+004
  +1.35055000000000000000e+004
  +1.38053999999999996362e+004
  +1.41052999999999992724e+004
  +1.44052000000000007276e+004
  +1.47051000000000003638e+004
  +1.50050000000000000000e+004
  +1.53048999999999996362e+004
  +1.56047999999999992724e+004
  +1.59047000000000007276e+004
  +1.62046000000000003638e+004
  +1.65045000000000000000e+004
  +1.68044000000000014552e+004
  +1.71042999999999992724e+004
  +1.74042000000000007276e+004
  +1.77040999999999985448e+004
  +1.80040000000000000000e+004
  +1.83039000000000014552e+004
  +1.86037999999999992724e+004
  +1.89037000000000007276e+004
  +1.92035999999999985448e+004
  +1.95035000000000000000e+004
  +1.98034000000000014552e+004
  +2.01032999999999992724e+004
  +2.04032000000000007276e+004
  +2.07030999999999985448e+004
  +2.10030000000000000000e+004
  +2.13029000000000014552e+004
  +2.16027999999999992724e+004
  +2.19027000000000007276e+004
  +2.22025999999999985448e+004
  +2.25025000000000000000e+004
  +2.28024000000000014552e+004
  +2.31022999999999992724e+004
  +2.34022000000000007276e+004
  +2.37020999999999985448e+004
  +2.40020000000000000000e+004
  +2.43019000000000014552e+004
  +2.46017999999999992724e+004
  +2.49017000000000007276e+004
  +2.52015999999999985448e+004
  +2.55015000000000000000e+004
  +2.58014000000000014552e+004
  +2.61012999999999992724e+004
  +2.64012000000000007276e+004
  +2.67010999999999985448e+004
  +2.70010000000000000000e+004
  +2.73009000000000014552e+004
  +2.76007999999999992724e+004
  +2.79007000000000007276e+004
  +2.82005999999999985448e+004
  +2.85005000000000000000e+004
  +2.88004000000000014552e+004
  +2.91002999999999992724e+004
  +2.94002000000000007276e+004
  +2.97000999999999985448e+004
  +3.00000000000000000000e+004
</indep>
<dep Rn frequency>
  +1.03592978519715175900e-001
  +1.43072985905318167399e-001
  +2.59976410442897487574e-001
  +4.64738375225313748995e-001
  +7.76600237930891612592e-001
  +1.22718459392706580324e+000
  +1.86701112216654885323e+000
  +2.77737156698971388025e+000
  +4.09270822755635421686e+000
  +6.04510694799555636791e+000
  +9.05929706596454487055e+000
  +1.39750861844750939866e+001
  +2.26353261788862596404e+001
  +3.97215718145003791051e+001
  +8.00795365667571275026e+001
  +2.12839893284626356262e+002
  +1.24102355362638650149e+003
  +1.17015117603225207858e+004
  +4.99295240802198861729e+002
  +1.62440952740862940118e+002
  +8.17117859916248079344e+001
  +4.99734919014843370633e+001
  +3.41462449871967947956e+001
  +2.50539342700283071963e+001
  +1.93147951609026300446e+001
  +1.54401147932969244891e+001
  +1.26888192626636922000e+001
  +1.06570531420984746518e+001
  +9.10886145577036820953e+000
  +7.89854745165694804854e+000
  +6.93200333051859463041e+000
  +6.14612740096658338729e+000
  +5.49725173741307493458e+000
  +4.95433009371244104102e+000
  +4.49476805932179512837e+000
  +4.10178308012493264556e+000
  +3.76268322335203242446e+000
  +3.46771557890018167214e+000
  +3.20927792553345314630e+000
  +2.98136792258066218864e+000
  +2.77919112505746079833e+000
  +2.59887735802205410707e+000
  +2.43727238026944537097e+000
  +2.29178273438190016620e+000
  +2.16025874224208225272e+000
  +2.04090524117567140294e+000
  +1.93221275349055643389e+000
  +1.83290388570930673495e+000
  +1.74189120380554296474e+000
  +1.65824384422054449395e+000
  +1.58116083796706252684e+000
  +1.50994963923654901272e+000
  +1.44400872244205480399e+000
  +1.38281338437119472040e+000
  +1.32590408978586160593e+000
  +1.27287684929640310116e+000
  +1.22337523160754346740e+000
  +1.17708369819810276802e+000
  +1.13372201423855045732e+000
  +1.09304054019773411177e+000
  +1.05481624787369954177e+000
  +1.01884933526461551878e+000
  +9.84960338795528911326e-001
  +9.52987660466994790376e-001
  +9.22785442638011543792e-001
  +8.94221735253684424372e-001
  +8.67176910047663951353e-001
  +8.41542284101851945088e-001
  +8.17218921503349182700e-001
  +7.94116587027926867925e-001
  +7.72152830021656466641e-001
  +7.51252180132054081518e-001
  +7.31345439425983623316e-001
  +7.12369057800123384183e-001
  +6.94264580577809486961e-001
  +6.76978158831739174062e-001
  +6.60460114352783844716e-001
  +6.44664552348967689888e-001
  +6.29549015925634614099e-001
  +6.15074177237350583347e-001
  +6.01203560887101917665e-001
  +5.87903295749338417053e-001
  +5.75141891900593282827e-001
  +5.62890039770064132263e-001
  +5.51120428993893907155e-001
  +5.39807584778190241437e-001
  +5.28927719843360621965e-001
  +5.18458600265666591511e-001
  +5.08379423732760238330e-001
  +4.98670708900208758951e-001
  +4.89314194707100802439e-001
  +4.80292748620388620928e-001
  +4.71590282919240599835e-001
  +4.63191678200789491715e-001
  +4.55082713415758788322e-001
  +4.47250001786446527152e-001
  +4.39680932051129846894e-001
  +4.32363614525735462379e-001
  +4.25286831537616483168e-001
  +4.18439991824878676496e-001
  +4.11813088539185023773e-001
</dep>
<dep Fmin frequency>
  +1.09050938785386897223e+000
  +1.09894754982275033584e+000
  +1.12057498328861404602e+000
  +1.15127440438178130222e+000
  +1.18876735660410015605e+000
  +1.23258610279061908699e+000
  +1.28347989101834647485e+000
  +1.34319575600049234687e+000
  +1.41462617573613780309e+000
  +1.50233464299829178046e+000
  +1.61368029334449181178e+000
  +1.76118580282090997358e+000
  +1.96793661279048004431e+000
  +2.28164643230025410148e+000
  +2.81944294299075082222e+000
  +3.96633637319775766983e+000
  +8.16431001350674812045e+000
  +2.30026333523477219956e+001
  +5.54378105205147786450e+000
  +3.59137640577389305463e+000
  +2.83788941626407265062e+000
  +2.43742445693802656237e+000
  +2.18840271720664825139e+000
  +2.01822056520710457761e+000
  +1.89431832251971088432e+000
  +1.79991568588895489711e+000
  +1.72548399548522213287e+000
  +1.66520964946639327131e+000
  +1.61534343775934896570e+000
  +1.57335824860065986996e+000
  +1.53748812922782507329e+000
  +1.50646138900340220701e+000
  +1.47933868624480724385e+000
  +1.45541088048904931895e+000
  +1.43413240089083160456e+000
  +1.41507651033679970887e+000
  +1.39790450475717120682e+000
  +1.38234403168560437969e+000
  +1.36817352496754662816e+000
  +1.35521083213518522825e+000
  +1.34330477270252868216e+000
  +1.33232878179930191997e+000
  +1.32217606140620125288e+000
  +1.31275583747695678838e+000
  +1.30399043912690704161e+000
  +1.29581299640943692353e+000
  +1.28816560882717268122e+000
  +1.28099787580425306110e+000
  +1.27426570817397877278e+000
  +1.26793035979987878115e+000
  +1.26195763308419439674e+000
  +1.25631722290827552158e+000
  +1.25098217158713675978e+000
  +1.24592841346334504138e+000
  +1.24113439234898592645e+000
  +1.23658073853123995356e+000
  +1.23224999475921603853e+000
  +1.22812638272920660043e+000
  +1.22419560322678777631e+000
  +1.22044466437693488459e+000
  +1.21686173347638315612e+000
  +1.21343600869889445271e+000
  +1.21015760761757507069e+000
  +1.20701747001501247247e+000
  +1.20400727287922348907e+000
  +1.20111935583013917928e+000
  +1.19834665550519781085e+000
  +1.19568264766642506913e+000
  +1.19312129598291338795e+000
  +1.19065700660250750609e+000
  +1.18828458775902601197e+000
  +1.18599921377084149832e+000
  +1.18379639288120874774e+000
  +1.18167193846637763599e+000
  +1.17962194320478586107e+000
  +1.17764275585561484228e+000
  +1.17573096034175117452e+000
  +1.17388335687344635971e+000
  +1.17209694488131166423e+000
  +1.17036890755931088925e+000
  +1.16869659784102131184e+000
  +1.16707752565542732803e+000
  +1.16550934632732472451e+000
  +1.16398985000298860193e+000
  +1.16251695199592575136e+000
  +1.16108868396024123015e+000
  +1.15970318580880160653e+000
  +1.15835869830378479506e+000
  +1.15705355625480144077e+000
  +1.15578618226548290870e+000
  +1.15455508097917158850e+000
  +1.15335883377526404736e+000
  +1.15219609387791854793e+000
  +1.15106558183610285795e+000
  +1.14996608134627797959e+000
  +1.14889643538443064763e+000
  +1.14785554262264377634e+000
  +1.14684235410453272408e+000
  +1.14585587015901424479e+000
  +1.14489513753181393341e+000
  +1.14395924671658666405e+000
</dep>
<dep Sopt frequency>
  -9.14336129392403607063e-001+j1.15130017447271802353e-003
  -9.06230748871808988731e-001+j3.55241219212901609970e-002
  -8.85534091528120903547e-001+j6.92172265225153848789e-002
  -8.56374972385925303797e-001+j1.02121641598973231235e-001
  -8.21168049597521543248e-001+j1.34491127827358947222e-001
  -7.80667971360807011472e-001+j1.66676766022136824130e-001
  -7.34610323828492117748e-001+j1.99009682538781096373e-001
  -6.82042653002954524233e-001+j2.31747637799939509851e-001
  -6.21399813496634423338e-001+j2.65020684773051629080e-001
  -5.50418394954926948337e-001+j2.98736216886300198770e-001
  -4.65920206531036940056e-001+j3.32394674300343029305e-001
  -3.63453187387989429258e-001+j3.64725811118860765436e-001
  -2.36763838424048966846e-001+j3.92960584232047882569e-001
  -7.71214607187030720681e-002+j4.11348556393942077491e-001
  +1.27223155535871823574e-001+j4.08104446673064280571e-001
  +3.90125561878473470223e-001+j3.59210223205269296720e-001
  +7.20321945602858337843e-001+j2.17004551825790370501e-001
  +9.06353632025293731722e-001-j8.55973373072555360208e-002
  +5.75053661885932876352e-001-j2.91972199952414135371e-001
  +3.22003390533601940859e-001-j3.76892567998564131937e-001
  +1.33021964084488991675e-001-j4.07576452860021365421e-001
  -1.00800095681540507336e-002-j4.13570889442110900536e-001
  -1.20898043890354328633e-001-j4.08156362935057026586e-001
  -2.08698719667456122906e-001-j3.97552047556958221275e-001
  -2.79731950978771071181e-001-j3.84779078097512217127e-001
  -3.38269236901688419294e-001-j3.71341010271525662212e-001
  -3.87290301517724311342e-001-j3.57990843917256829076e-001
  -4.28919840615320013821e-001-j3.45097912636533055153e-001
  -4.64705403368720182389e-001-j3.32830803001500030724e-001
  -4.95796693871871196890e-001-j3.21251789586105063190e-001
  -5.23063467930985681598e-001-j3.10366976021204166170e-001
  -5.47174629613985330501e-001-j3.00153484040994622539e-001
  -5.68652359886364089370e-001-j2.90574397150513363819e-001
  -5.87909865329499403686e-001-j2.81587012414591164600e-001
  -6.05278173843814992772e-001-j2.73147365619645532409e-001
  -6.21025470886516717250e-001-j2.65212652865752906983e-001
  -6.35371266929798950152e-001-j2.57742455713084184232e-001
  -6.48496924963616550031e-001-j2.50699285561764684260e-001
  -6.60553585701339041059e-001-j2.44048744267818418230e-001
  -6.71668206025456071551e-001-j2.37759473565549273033e-001
  -6.81948211473391130433e-001-j2.31802993961184838900e-001
  -6.91485118180264923815e-001-j2.26153491691354208148e-001
  -7.00357379821218928306e-001-j2.20787587496094700468e-001
  -7.08632645536862670888e-001-j2.15684106200866282377e-001
  -7.16369565752139947357e-001-j2.10823857325115826544e-001
  -7.23619247755277972267e-001-j2.06189431733350608811e-001
  -7.30426437592851085512e-001-j2.01765016295720023276e-001
  -7.36830486358980629724e-001-j1.97536226777059648052e-001
  -7.42866145329820093401e-001-j1.93489958211121054754e-001
  -7.48564224250118814830e-001-j1.89614251527311816758e-001
  -7.53952139457334524764e-001-j1.85898174988975484201e-001
  -7.59054372756152506696e-001-j1.82331718957770977374e-001
  -7.63892857546925041490e-001-j1.78905702546163253297e-001
  -7.68487305319105140633e-001-j1.75611690815519444486e-001
  -7.72855482991602671383e-001-j1.72441921294911482132e-001
  -7.77013449529608046795e-001-j1.69389238719061668847e-001
  -7.80975758656467067276e-001-j1.66447037005209880212e-001
  -7.84755633205304614641e-001-j1.63609207602057882269e-001
  -7.88365115642801983498e-001-j1.60870093448005596626e-001
  -7.91815198487902383029e-001-j1.58224447869237228037e-001
  -7.95115937698318453464e-001-j1.55667397831500492478e-001
  -7.98276551571663994800e-001-j1.53194411032599592248e-001
  -8.01305507281911189033e-001-j1.50801266387023458204e-001
  -8.04210596824090129253e-001-j1.48484027510356303425e-001
  -8.06999003854658170098e-001-j1.46239018860183533910e-001
  -8.09677362680988554899e-001-j1.44062804232779145819e-001
  -8.12251810459843626155e-001-j1.41952167352208058482e-001
  -8.14728033503375193014e-001-j1.39904094320591781964e-001
  -8.17111308458309926195e-001-j1.37915757726513377168e-001
  -8.19406539011616974477e-001-j1.35984502232897042084e-001
  -8.21618288682197217554e-001-j1.34107831487055878528e-001
  -8.23750810180284065432e-001-j1.32283396214154080894e-001
  -8.25808071747851091260e-001-j1.30508983371472958579e-001
  -8.27793780839029325058e-001-j1.28782506255030182452e-001
  -8.29711405450130556893e-001-j1.27101995462592737285e-001
  -8.31564193368686255248e-001-j1.25465590627630046994e-001
  -8.33355189576394983497e-001-j1.23871532848734602905e-001
  -8.35087252009944158715e-001-j1.22318157746833328092e-001
  -8.36763065860029797705e-001-j1.20803889090385446758e-001
  -8.38385156564037670179e-001-j1.19327232934675939169e-001
  -8.39955901631471046898e-001-j1.17886772227517380718e-001
  -8.41477541423355179795e-001-j1.16481161838305036227e-001
  -8.42952188992463713468e-001-j1.15109123972069959940e-001
  -8.44381839079414553417e-001-j1.13769443933925323842e-001
  -8.45768376348672745735e-001-j1.12460966212987012458e-001
  -8.47113582938529896538e-001-j1.11182590857761984249e-001
  -8.48419145391911211362e-001-j1.09933270117890086182e-001
  -8.49686661026357037407e-001-j1.08712005329525435160e-001
  -8.50917643795734646162e-001-j1.07517844023749531424e-001
  -8.52113529692018034645e-001-j1.06349877239692663933e-001
  -8.53275681727080570482e-001-j1.05207237025238431460e-001
  -8.54405394534505147064e-001-j1.04089094110349569822e-001
  -8.55503898622497760407e-001-j1.02994655738887788687e-001
  -8.56572364312231160355e-001-j1.01923163646727266141e-001
  -8.57611905384768169469e-001-j1.00873892174283552592e-001
  -8.58623582464581147633e-001-j9.98461465033454870222e-002
  -8.59608406160026761178e-001-j9.88392610085247480534e-002
  -8.60567339982373336049e-001-j9.78525977147660652733e-002
  -8.61501303060325795968e-001-j9.68855448528503082617e-002
  -8.62411172667455372398e-001-j9.59375155056763212480e-002
  -8.63297786577715609013e-001-j9.50079463387863559776e-002
</dep>
<dep F frequency>
  +2.03448099672641058433e+000
  +2.03527059707168511693e+000
  +2.03760866614744795555e+000
  +2.04170390646776889199e+000
  +2.04794114528249915352e+000
  +2.05695283465723477434e+000
  +2.06974936842384771296e+000
  +2.08795658187593602406e+000
  +2.11426332166947616997e+000
  +2.15331130584845542586e+000
  +2.21359512329144569875e+000
  +2.31191093026125127352e+000
  +2.48511577348704859602e+000
  +2.82684077170232939125e+000
  +3.63400026870679448976e+000
  +6.28920806742358973196e+000
  +2.68528864194957037625e+001
  +2.36062702899795198164e+002
  +1.20183164512549645053e+001
  +5.28122900434193542907e+000
  +3.66664526537225388125e+000
  +3.03187922474466464706e+000
  +2.71533420725619967229e+000
  +2.53348794741308935841e+000
  +2.41870513651077523321e+000
  +2.34121150976898340090e+000
  +2.28618558538828553495e+000
  +2.24555025280961784162e+000
  +2.21458641133559286374e+000
  +2.19038012519667102396e+000
  +2.17104923793712423219e+000
  +2.15533171541340218269e+000
  +2.14235419889522704651e+000
  +2.13149576330432566351e+000
  +2.12230452031677341296e+000
  +2.11444481876626211303e+000
  +2.10766281993388071569e+000
  +2.10176346556876492144e+000
  +2.09659471120815554812e+000
  +2.09203651000859291997e+000
  +2.08799297304639663864e+000
  +2.08438669680336241541e+000
  +2.08115459643960676317e+000
  +2.07824480279379653069e+000
  +2.07561432229282649686e+000
  +2.07322725167422960979e+000
  +2.07105340137660753896e+000
  +2.06906722352402283605e+000
  +2.06724696943050201270e+000
  +2.06557402182021343506e+000
  +2.06403236130940426207e+000
  +2.06260813697843969905e+000
  +2.06128931831257089513e+000
  +2.06006541124491748818e+000
  +2.05892722506842318353e+000
  +2.05786667999327521628e+000
  +2.05687664739178321938e+000
  +2.05595081649194089124e+000
  +2.05508358259576029425e+000
  +2.05426995291136504918e+000
  +2.05350546687360102638e+000
  +2.05278612844143815153e+000
  +2.05210834834246824698e+000
  +2.05146889461589720938e+000
  +2.05086485010817964891e+000
  +2.05029357581755489193e+000
  +2.04975267917809800267e+000
  +2.04923998653090011501e+000
  +2.04875351915721060081e+000
  +2.04829147235209729772e+000
  +2.04785219710206067845e+000
  +2.04743418399967858079e+000
  +2.04703604908593872480e+000
  +2.04665652135845865800e+000
  +2.04629443172341440871e+000
  +2.04594870320198518598e+000
  +2.04561834222975225117e+000
  +2.04530243091062979843e+000
  +2.04500012010652021388e+000
  +2.04471062326032093637e+000
  +2.04443321086390250585e+000
  +2.04416720549458919010e+000
  +2.04391197735375484967e+000
  +2.04366694024983486244e+000
  +2.04343154797541481926e+000
  +2.04320529103448533803e+000
  +2.04298769368133914526e+000
  +2.04277831123740405417e+000
  +2.04257672765630671208e+000
  +2.04238255331107154689e+000
  +2.04219542298037826100e+000
  +2.04201499401351016516e+000
  +2.04184094465593490852e+000
  +2.04167297251953749893e+000
  +2.04151079318325745504e+000
  +2.04135413891147843302e+000
  +2.04120275747889268203e+000
  +2.04105641109176705328e+000
  +2.04091487539659377504e+000
  +2.04077793856807465644e+000
  +2.04064540046920006588e+000
</dep>
<dep S[1,1] frequency>
  -1.00313111557213583379e-003-j7.85288374258175103648e-010
  -1.00313107826145112705e-003-j2.43789953224826660971e-008
  -1.00313067320776522218e-003-j4.86255508358457433360e-008
  -1.00313030085944984715e-003-j7.39553452644425846074e-008
  -1.00312969466641657701e-003-j1.01227517923518917087e-007
  -1.00312831722036005511e-003-j1.30618334648335832071e-007
  -1.00312681671168441033e-003-j1.63507539341356533669e-007
  -1.00312452063597290497e-003-j2.01275109967813392586e-007
  -1.00312140290944457055e-003-j2.46092334399428125380e-007
  -1.00311667895338491041e-003-j3.00383235174450646809e-007
  -1.00310941386068733228e-003-j3.68609446743661806067e-007
