<Qucs Dataset 0.0.19>
<indep frequency 101>
  +1.00000000000000000000e+001
  +3.09899999999999977263e+002
  +6.09799999999999954525e+002
  +9.09700000000000045475e+002
  +1.20959999999999990905e+003
  +1.50950000000000000000e+003
  +1.80940000000000009095e+003
  +2.10930000000000018190e+003
  +2.40919999999999981810e+003
  +2.70909999999999990905e+003
  +3.00900000000000000000e+003
  +3.30890000000000009095e+003
  +3.60880000000000018190e+003
  +3.90869999999999981810e+003
  +4.20860000000000036380e+003
  +4.50850000000000000000e+003
  +4.80839999999999963620e+003
  +5.10830000000000018190e+003
  +5.40819999999999981810e+003
  +5.70810000000000036380e+003
  +6.00800000000000000000e+003
  +6.30789999999999963620e+003
  +6.60780000000000018190e+003
  +6.90769999999999981810e+003
  +7.20760000000000036380e+003
  +7.50750000000000000000e+003
  +7.80739999999999963620e+003
  +8.10730000000000018190e+003
  +8.40720000000000072760e+003
  +8.70710000000000036380e+003
  +9.00700000000000000000e+003
  +9.30689999999999963620e+003
  +9.60679999999999927240e+003
  +9.90670000000000072760e+003
  +1.02066000000000003638e+004
  +1.05065000000000000000e+004
  +1.08063999999999996362e+004
  +1.11062999999999992724e+004
  +1.14062000000000007276e+004
  +1.17061000000000003638e+004
  +1.20060000000000000000e+004
  +1.23058999999999996362e+004
  +1.26057999999999992724e+004
  +1.29057000000000007276e+004
  +1.32056000000000003638e+004
  +1.35055000000000000000e+004
  +1.38053999999999996362e+004
  +1.41052999999999992724e+004
  +1.44052000000000007276e+004
  +1.47051000000000003638e+004
  +1.50050000000000000000e+004
  +1.53048999999999996362e+004
  +1.56047999999999992724e+004
  +1.59047000000000007276e+004
  +1.62046000000000003638e+004
  +1.65045000000000000000e+004
  +1.68044000000000014552e+004
  +1.71042999999999992724e+004
  +1.74042000000000007276e+004
  +1.77040999999999985448e+004
  +1.80040000000000000000e+004
  +1.83039000000000014552e+004
  +1.86037999999999992724e+004
  +1.89037000000000007276e+004
  +1.92035999999999985448e+004
  +1.95035000000000000000e+004
  +1.98034000000000014552e+004
  +2.01032999999999992724e+004
  +2.04032000000000007276e+004
  +2.07030999999999985448e+004
  +2.10030000000000000000e+004
  +2.13029000000000014552e+004
  +2.16027999999999992724e+004
  +2.19027000000000007276e+004
  +2.22025999999999985448e+004
  +2.25025000000000000000e+004
  +2.28024000000000014552e+004
  +2.31022999999999992724e+004
  +2.34022000000000007276e+004
  +2.37020999999999985448e+004
  +2.40020000000000000000e+004
  +2.43019000000000014552e+004
  +2.46017999999999992724e+004
  +2.49017000000000007276e+004
  +2.52015999999999985448e+004
  +2.55015000000000000000e+004
  +2.58014000000000014552e+004
  +2.61012999999999992724e+004
  +2.64012000000000007276e+004
  +2.67010999999999985448e+004
  +2.70010000000000000000e+004
  +2.73009000000000014552e+004
  +2.76007999999999992724e+004
  +2.79007000000000007276e+004
  +2.82005999999999985448e+004
  +2.85005000000000000000e+004
  +2.88004000000000014552e+004
  +2.91002999999999992724e+004
  +2.94002000000000007276e+004
  +2.97000999999999985448e+004
  +3.00000000000000000000e+004
</indep>
<dep Rn frequency>
  +1.03177368372977404376e-001
  +1.03714647413953739430e-001
  +1.03550936661756853852e-001
  +1.03602963337855694115e-001
  +1.03615396843610818589e-001
  +1.03645198891579679024e-001
  +1.03683923408749559258e-001
  +1.03734075706794964811e-001
  +1.03789351423157205634e-001
  +1.03852136142504838934e-001
  +1.03921848170531669342e-001
  +1.03999002320494915441e-001
  +1.04083849558987001638e-001
  +1.04176039872358044969e-001
  +1.04275855021231433906e-001
  +1.04382063082908510543e-001
  +1.04496741167163884056e-001
  +1.04617985444516836679e-001
  +1.04746525877511292846e-001
  +1.04882502418375420095e-001
  +1.05026577769709084098e-001
  +1.05176923410949821336e-001
  +1.05335290942828674332e-001
  +1.05501068534986350289e-001
  +1.05673753197394887371e-001
  +1.05854148283838170319e-001
  +1.06041427851560357554e-001
  +1.06236314807297713148e-001
  +1.06438515312310577610e-001
  +1.06648260593799518170e-001
  +1.06865282494207000652e-001
  +1.07089822533146944439e-001
  +1.07321289134688718780e-001
  +1.07560239139539284836e-001
  +1.07806740646632162606e-001
  +1.08060189997764552472e-001
  +1.08321279375505494236e-001
  +1.08589779504939962229e-001
  +1.08865447717740551625e-001
  +1.09148660879446648964e-001
  +1.09438979114262827097e-001
  +1.09736739181122963660e-001
  +1.10041856023334716497e-001
  +1.10354395624717840918e-001
  +1.10674241177346130427e-001
  +1.11001412561756412911e-001
  +1.11335897660990515434e-001
  +1.11677670872049786266e-001
  +1.12026921928251213534e-001
  +1.12383470200525012461e-001
  +1.12747343840949157401e-001
  +1.13118614100488790175e-001
  +1.13497160322543033661e-001
  +1.13883180117709023604e-001
  +1.14276419332555126407e-001
  +1.14677090258786196220e-001
  +1.15085043733244060671e-001
  +1.15500384989591475815e-001
  +1.15923065201707559124e-001
  +1.16353055191421986270e-001
  +1.16790437785283252037e-001
  +1.17235162604104714568e-001
  +1.17687255039192847916e-001
  +1.18146629382127207886e-001
  +1.18613379391253867534e-001
  +1.19087521729401013548e-001
  +1.19568925735146922018e-001
  +1.20057801965645610798e-001
  +1.20553898671846113078e-001
  +1.21057386212912510004e-001
  +1.21568274767992701157e-001
  +1.22086437363148656021e-001
  +1.22612017100622860966e-001
  +1.23144891490379451704e-001
  +1.23685126265775047205e-001
  +1.24232719150776230177e-001
  +1.24787622948448875815e-001
  +1.25349937546346684725e-001
  +1.25919537241913986891e-001
  +1.26496524661446174687e-001
  +1.27080869779359367788e-001
  +1.27672532060421423106e-001
  +1.28271536032285304874e-001
  +1.28877918854375800306e-001
  +1.29491637095106110200e-001
  +1.30112706378017695119e-001
  +1.30741131448156605588e-001
  +1.31376906160179107719e-001
  +1.32020013396906527037e-001
  +1.32670477427200894649e-001
  +1.33328264897242837472e-001
  +1.33993418680144138477e-001
  +1.34665941426433344308e-001
  +1.35345789695591828261e-001
  +1.36033001998719177417e-001
  +1.36727570702019268767e-001
  +1.37429465298585684607e-001
  +1.38138737130013927734e-001
  +1.38855304026923226379e-001
  +1.39579276224235299120e-001
  +1.40310560546355100886e-001
</dep>
<dep Fmin frequency>
  +1.09034724605161126298e+000
  +1.09056579470163073076e+000
  +1.09049697027585734688e+000
  +1.09051475836670364039e+000
  +1.09051504365439644317e+000
  +1.09052105754540518134e+000
  +1.09052935511878490438e+000
  +1.09054095713996690442e+000
  +1.09055329249829036087e+000
  +1.09056733321498455780e+000
  +1.09058284147681172627e+000
  +1.09060002629320496048e+000
  +1.09061898895049180780e+000
  +1.09063958581766162759e+000
  +1.09066193051188475849e+000
  +1.09068552037295396495e+000
  +1.09071119960428153384e+000
  +1.09073819206359301504e+000
  +1.09076679343932791966e+000
  +1.09079705913062174893e+000
  +1.09082925676796782533e+000
  +1.09086264166039192958e+000
  +1.09089792369211280310e+000
  +1.09093485238993137543e+000
  +1.09097322176030964158e+000
  +1.09101335574818891772e+000
  +1.09105491734980231122e+000
  +1.09109819747557601488e+000
  +1.09114307476451144474e+000
  +1.09118964046299771198e+000
  +1.09123778359467249466e+000
  +1.09128759932608332406e+000
  +1.09133884603398478852e+000
  +1.09139174615177769745e+000
  +1.09144632433291688400e+000
  +1.09150233427438259071e+000
  +1.09156005227844277172e+000
  +1.09161938286405701959e+000
  +1.09168022533769559779e+000
  +1.09174272826623508514e+000
  +1.09180671161500320032e+000
  +1.09187230754729625026e+000
  +1.09193947856065931568e+000
  +1.09200824772059124079e+000
  +1.09207856473898901051e+000
  +1.09215043410370249433e+000
  +1.09222384741780031980e+000
  +1.09229879085026104768e+000
  +1.09237533647365858691e+000
  +1.09245340836144788632e+000
  +1.09253301394816526582e+000
  +1.09261417771757574080e+000
  +1.09269684768387853602e+000
  +1.09278109840217085846e+000
  +1.09286682479429342330e+000
  +1.09295410702938022851e+000
  +1.09304288173844899035e+000
  +1.09313318637882073148e+000
  +1.09322499729397293322e+000
  +1.09331829861198692733e+000
  +1.09341311862216095108e+000
  +1.09350943294905023073e+000
  +1.09360724706346945645e+000
  +1.09370652267820456238e+000
  +1.09380729205954718708e+000
  +1.09390955702512204795e+000
  +1.09401326161581669005e+000
  +1.09411848354303775643e+000
  +1.09422511945118627885e+000
  +1.09433323113495739598e+000
  +1.09444281758966543983e+000
  +1.09455382435801307217e+000
  +1.09466630218443139455e+000
  +1.09478019836991635749e+000
  +1.09489553340314138552e+000
  +1.09501230126568249723e+000
  +1.09513047853218470351e+000
  +1.09525009864160671746e+000
  +1.09537110778328106164e+000
  +1.09549354031531609444e+000
  +1.09561737932433200804e+000
  +1.09574260388874700212e+000
  +1.09586921809767301461e+000
  +1.09599723079227051592e+000
  +1.09612661988068293972e+000
  +1.09625738588826049380e+000
  +1.09638952512899057190e+000
  +1.09652302973186777102e+000
  +1.09665788764120386567e+000
  +1.09679410252397224745e+000
  +1.09693165612722776103e+000
  +1.09707055909859363396e+000
  +1.09721080676367699347e+000
  +1.09735237702985055641e+000
  +1.09749527875644337094e+000
  +1.09763950333592119613e+000
  +1.09778503356986001371e+000
  +1.09793188299823540888e+000
  +1.09808001505174890333e+000
  +1.09822946523477993352e+000
  +1.09838019288717525512e+000
</dep>
<dep Sopt frequency>
  -9.14493116092078950352e-001+j1.15149364597503075836e-005
  -9.14281434727590824885e-001+j3.56764974567430799297e-004
  -9.14348116390327980696e-001+j7.02068925141661223481e-004
  -9.14330916297668827575e-001+j1.04732756884667746813e-003
  -9.14330681197651706782e-001+j1.39259948385821348549e-003
  -9.14324909013168540817e-001+j1.73786135045720627375e-003
  -9.14316936524610879289e-001+j2.08311460525178538186e-003
  -9.14305775018961708334e-001+j2.42835429236362091571e-003
  -9.14293914890866088463e-001+j2.77358454466483227846e-003
  -9.14280414647377859261e-001+j3.11880148413805867447e-003
  -9.14265504642964854654e-001+j3.46400427626855460239e-003
  -9.14248982442267932313e-001+j3.80919063804404864348e-003
  -9.14230749951381094220e-001+j4.15435847091328962211e-003
  -9.14210946304179761235e-001+j4.49950665723845063398e-003
  -9.14189461466223485253e-001+j4.84463299141973773032e-003
  -9.14166782325341098492e-001+j5.18973849897119091784e-003
  -9.14142091210003893131e-001+j5.53481700670755121657e-003
  -9.14116139901262059198e-001+j5.87987124987270938503e-003
  -9.14088642016341657026e-001+j6.22489799204697241697e-003
  -9.14059543916614147818e-001+j6.56989525202117570502e-003
  -9.14028586401396170302e-001+j6.91485942283679919096e-003
  -9.13996490785364934517e-001+j7.25979426186745390587e-003
  -9.13962569512913436398e-001+j7.60469293035588057850e-003
  -9.13927065211688427482e-001+j7.94955560676827155397e-003
  -9.13890177425224603525e-001+j8.29438248044273539195e-003
  -9.13851592417270319757e-001+j8.63916916280425134511e-003
  -9.13811636625142642565e-001+j8.98391709446117424365e-003
  -9.13770028312000270887e-001+j9.32862200315812649387e-003
  -9.13726885053314119567e-001+j9.67328341066862711084e-003
  -9.13682118502878060085e-001+j1.00178987729277850505e-002
  -9.13635836179078397734e-001+j1.03624676170900459349e-002
  -9.13587945941698897911e-001+j1.07069873024582349480e-002
  -9.13538681846376876550e-001+j1.10514589856961758380e-002
  -9.13487828492045017548e-001+j1.13958785868845269978e-002
  -9.13435362038026110731e-001+j1.17402441480647865002e-002
  -9.13381521072457513988e-001+j1.20845571513749604209e-002
  -9.13326038027716724521e-001+j1.24288125527544368598e-002
  -9.13269005419180213146e-001+j1.27730099393761932502e-002
  -9.13210520810172954320e-001+j1.31171491072723332000e-002
  -9.13150440353296732887e-001+j1.34612264469412944851e-002
  -9.13088938454993614968e-001+j1.38052429438568404624e-002
  -9.13025887158368298913e-001+j1.41491951526494762204e-002
  -9.12961322828669485929e-001+j1.44930820501622207447e-002
  -9.12895223173366909819e-001+j1.48369017088384458347e-002
  -9.12827636941559439343e-001+j1.51806533593377857710e-002
  -9.12758559834513927278e-001+j1.55243353909353207915e-002
  -9.12688000032222168656e-001+j1.58679464163827867174e-002
  -9.12615970978719270867e-001+j1.62114851372819127051e-002
  -9.12542402925485496290e-001+j1.65549487834181115187e-002
  -9.12467369455242871545e-001+j1.68983371241981962518e-002
  -9.12390863420182163246e-001+j1.72416485172929463687e-002
  -9.12312861162756449929e-001+j1.75848809888359720877e-002
  -9.12233413081507182874e-001+j1.79280339873340091583e-002
  -9.12152447031493007756e-001+j1.82711045799805980872e-002
  -9.12070064827879889435e-001+j1.86140932798646817348e-002
  -9.11986188891486082575e-001+j1.89569970161921966256e-002
  -9.11900880646767553195e-001+j1.92998155528639435408e-002
  -9.11814103879421078425e-001+j1.96425466332096551603e-002
  -9.11725881558132500437e-001+j1.99851892553763281490e-002
  -9.11636229113658824730e-001+j2.03277422695683600284e-002
  -9.11545119213285293114e-001+j2.06702035904042999426e-002
  -9.11452575524162589282e-001+j2.10125722627390737474e-002
  -9.11358592812291590235e-001+j2.13548466919059147517e-002
  -9.11263208217208853235e-001+j2.16970262773984387539e-002
  -9.11166390559527417103e-001+j2.20391088299748405532e-002
  -9.11068138145785244575e-001+j2.23810928378587702114e-002
  -9.10968505229273528556e-001+j2.27229781744631605112e-002
  -9.10867416629559500940e-001+j2.30647615225783864101e-002
  -9.10764972494670477232e-001+j2.34064439603853327587e-002
  -9.10661113058795046449e-001+j2.37480225376623076128e-002
  -9.10555839365865260504e-001+j2.40894958304249118264e-002
  -9.10449204216517427035e-001+j2.44308638056089134916e-002
  -9.10341158549387796661e-001+j2.47721237305600257284e-002
  -9.10231753463355053313e-001+j2.51132755686219351354e-002
  -9.10120969194229578747e-001+j2.54543173757101129362e-002
  -9.10008811644207549207e-001+j2.57952479036308648941e-002
  -9.09895303569427382762e-001+j2.61360664006694172479e-002
  -9.09780412670472826697e-001+j2.64767705454110914565e-002
  -9.09664191124023191470e-001+j2.68173604565296146152e-002
  -9.09546605742774905146e-001+j2.71578337840322515950e-002
  -9.09427672980778534217e-001+j2.74981896277999675327e-002
  -9.09307413173044642996e-001+j2.78384272343984717768e-002
  -9.09185822440539137546e-001+j2.81785451241446209536e-002
  -9.09062892305092518086e-001+j2.85185416729318783058e-002
  -9.08938644236177206714e-001+j2.88584161905575571627e-002
  -9.08813077807695268717e-001+j2.91981673198331639907e-002
  -9.08686196671394164071e-001+j2.95377938317750964037e-002
  -9.08558008531134664310e-001+j2.98772946360460062154e-002
  -9.08428525142428999750e-001+j3.02166687888550423990e-002
  -9.08297743040524130365e-001+j3.05559148563684275512e-002
  -9.08165679981460249870e-001+j3.08950321151626773608e-002
  -9.08032325744524415612e-001+j3.12340189085130066904e-002
  -9.07897684942264193708e-001+j3.15728740798729215489e-002
  -9.07761779048932182512e-001+j3.19115970740808246875e-002
  -9.07624599577438018194e-001+j3.22501862991741092279e-002
  -9.07486154949489809418e-001+j3.25886407605773392726e-002
  -9.07346461902667988930e-001+j3.29269597794030130511e-002
  -9.07205507421386392330e-001+j3.32651416098816363198e-002
  -9.07063326994815399829e-001+j3.36031862792445096266e-002
  -9.06919886348205639415e-001+j3.39410912627427022170e-002
  -9.06775224930760903597e-001+j3.42788567675584854300e-002
</dep>
<dep F frequency>
  +2.03448018000536556826e+000
  +2.03448025836717549808e+000
  +2.03448048365432354601e+000
  +2.03448085586682836379e+000
  +2.03448137500472325812e+000
  +2.03448204106805130564e+000
  +2.03448285405687068206e+000
  +2.03448381397124888892e+000
  +2.03448492081126808273e+000
  +2.03448617457702329858e+000
  +2.03448757526862111789e+000
  +2.03448912288617966837e+000
  +2.03449081742983217680e+000
  +2.03449265889972297217e+000
  +2.03449464729600837387e+000
  +2.03449678261885891217e+000
  +2.03449906486845621956e+000
  +2.03450149404499436301e+000
  +2.03450407014867939992e+000
  +2.03450679317973248672e+000
  +2.03450966313838543797e+000
  +2.03451268002488205866e+000
  +2.03451584383947947643e+000
  +2.03451915458244858570e+000
  +2.03452261225407093903e+000
  +2.03452621685464007939e+000
  +2.03452996838446376060e+000
  +2.03453386684386128280e+000
  +2.03453791223316526882e+000
  +2.03454210455272122005e+000
  +2.03454644380288751648e+000
  +2.03455092998403008764e+000
  +2.03455556309653484703e+000
  +2.03456034314079392544e+000
  +2.03456527011721721721e+000
  +2.03457034402622127800e+000
  +2.03457556486824131525e+000
  +2.03458093264372230635e+000
  +2.03458644735311988683e+000
  +2.03459210899690479124e+000
  +2.03459791757556018865e+000
  +2.03460387308957990626e+000
  +2.03460997553947153804e+000
  +2.03461622492575777699e+000
  +2.03462262124896753335e+000
  +2.03462916450964748094e+000
  +2.03463585470835539581e+000
  +2.03464269184566148851e+000
  +2.03464967592214618364e+000
  +2.03465680693840900162e+000
  +2.03466408489505212742e+000
  +2.03467150979270217093e+000
  +2.03467908163198751836e+000
  +2.03468680041355298727e+000
  +2.03469466613805982647e+000
  +2.03470267880617416978e+000
  +2.03471083841858257912e+000
  +2.03471914497598049820e+000
  +2.03472759847907047615e+000
  +2.03473619892857993108e+000
  +2.03474494632523716930e+000
  +2.03475384066978781661e+000
  +2.03476288196299393007e+000
  +2.03477207020562023132e+000
  +2.03478140539845409052e+000
  +2.03479088754228865099e+000
  +2.03480051663793481964e+000
  +2.03481029268620838835e+000
  +2.03482021568794824162e+000
  +2.03483028564399637261e+000
  +2.03484050255521120576e+000
  +2.03485086642246404409e+000
  +2.03486137724663862514e+000
  +2.03487203502863023274e+000
  +2.03488283976934747344e+000
  +2.03489379146970872370e+000
  +2.03490489013065012358e+000
  +2.03491613575311802720e+000
  +2.03492752833806855861e+000
  +2.03493906788647382911e+000
  +2.03495075439931660810e+000
  +2.03496258787759520814e+000
  +2.03497456832231460311e+000
  +2.03498669573449619818e+000
  +2.03499897011517694168e+000
  +2.03501139146539911096e+000
  +2.03502395978622585559e+000
  +2.03503667507872387787e+000
  +2.03504953734397675547e+000
  +2.03506254658308360916e+000
  +2.03507570279715110928e+000
  +2.03508900598730235743e+000
  +2.03510245615466800473e+000
  +2.03511605330039735406e+000
  +2.03512979742564859009e+000
  +2.03514368853159233197e+000
  +2.03515772661941252153e+000
  +2.03517191169030553510e+000
  +2.03518624374548107170e+000
  +2.03520072278615993255e+000
  +2.03521534881357579749e+000
</dep>
<dep S[1,1] frequency>
  -1.00313119563559516832e-003-j2.44240253632140198736e-011
  -1.00313137947896321468e-003-j2.94528071338251776212e-010
  -1.00313110413580348391e-003-j4.62372465130905102582e-010
  -1.00313149551615001832e-003-j7.28927860562875173933e-010
  -1.00313111127328874819e-003-j9.53703270544815906451e-010
  -1.00313106077377467255e-003-j1.20603288402028330228e-009
  -1.00313121378293925584e-003-j1.43701359145431695197e-009
  -1.00313076695267918044e-003-j1.64226232743022726446e-009
  -1.00313099736259797243e-003-j1.89488475518112542417e-009
  -1.00313140203011448223e-003-j2.13303809966543245213e-009
  -1.00313097888366713033e-003-j2.37406217167696054204e-009
