<Qucs Dataset 0.0.19>
<indep MaxGain 1>
  +6.74715121780945707997e+001
</indep>
<indep Rin 1>
  +3.00000000000000000000e+000
</indep>
<indep acfrequency 33>
  +1.00000000000000000000e+006
  +1.11214148025112366304e+006
  +1.23685867209516023286e+006
  +1.37556183444535057060e+006
  +1.52981937473700311966e+006
  +1.70137558393685892224e+006
  +1.89217036038265796378e+006
  +2.10436114548327121884e+006
  +2.34034731932071503252e+006
  +2.60279733201108919457e+006
  +2.89467887761648790911e+006
  +3.21929245180406095460e+006
  +3.58030867271063802764e+006
  +3.98180978702434478328e+006
  +4.42833583061966486275e+006
  +4.92493596571444347501e+006
  +5.47722557505165785551e+006
  +6.09144975870726350695e+006
  +6.77455395152404345572e+006
  +7.53426245968904811889e+006
  +8.37916580451904889196e+006
  +9.31881786110741458833e+006
  +1.03638438902426045388e+007
  +1.15260606851859744638e+007
  +1.28186101918870098889e+007
  +1.42561081135673597455e+007
  +1.58548091800428591669e+007
  +1.76327909505919590592e+007
  +1.96101582287499606609e+007
  +2.18092704004807360470e+007
  +2.42549942663876526058e+007
  +2.69749852269028797746e+007
  +2.99999999999999627471e+007
</indep>
<dep Gain acfrequency>
  +1.79563579844571222566e+002
  +1.78733344865304502491e+002
  +1.77710187765392277015e+002
  +1.76457643910002872190e+002
  +1.74933536765181770534e+002
  +1.73090093799791361562e+002
  +1.70874548398964265061e+002
  +1.68230425252751786047e+002
  +1.65099707743681534566e+002
  +1.61426040076749131913e+002
  +1.57159001861982716264e+002
  +1.52259295624705970340e+002
  +1.46704420159564818960e+002
  +1.40494116563535698106e+002
  +1.33654663198181680173e+002
  +1.26241073478494541860e+002
  +1.18336495530429118617e+002
  +1.10048611617461702394e+002
  +1.01503455088134259654e+002
  +9.28375928658480944478e+001
  +8.41898724385824124283e+001
  +7.56938330340508116478e+001
  +6.74715121780945707997e+001
  +5.96289218395076119350e+001
  +5.22531048718588451152e+001
  +4.54105124338274492857e+001
  +3.91464566602160530806e+001
  +3.34854999980357064260e+001
  +2.84327345072413031346e+001
  +2.39759118967099382758e+001
  +2.00883057777176716741e+001
  +1.67320727571908420828e+001
  +1.38617938443462112019e+001
</dep>
<dep NFdb acfrequency>
  +3.57642403910504225184e-001
  +3.56120993664616802832e-001
  +3.54283795241331855852e-001
  +3.52046019784821639931e-001
  +3.49304336724407415993e-001
  +3.45932308055091120025e-001
  +3.41775052071102980467e-001
  +3.36643165922406784052e-001
  +3.30306091866375828303e-001
  +3.22485365476891217007e-001
  +3.12848557234625124224e-001
  +3.01005212603247085390e-001
  +2.86506668449473367311e-001
  +2.68852171177060339513e-001
  +2.47504068756914108462e-001
  +2.21914763611922249975e-001
  +1.91567351349933190363e-001
  +1.56030235367493635978e-001
  +1.15023426133038064734e-001
  +6.84908544392166668269e-002
  +1.66693523398616788578e-002
  -3.98580390171624013296e-002
  -1.00137689601191348654e-001
  -1.62860619217223889788e-001
  -2.26421409399843620580e-001
  -2.89015154377748495484e-001
  -3.48756852508444514793e-001
  -4.03800989770826013192e-001
  -4.52438413965797314731e-001
  -4.93153255256100875314e-001
  -5.24632369780022589367e-001
  -5.45729988527172027446e-001
  -5.55397821557445547924e-001
</dep>
<dep NF acfrequency>
  +1.08583601039132426891e+000
  +1.08545568948663029296e+000
  +1.08499660565743760721e+000
  +1.08443768689272124206e+000
  +1.08375330192398910967e+000
  +1.08291216094764508604e+000
  +1.08187604623560273964e+000
  +1.08059839112103261982e+000
  +1.07902276935182905859e+000
  +1.07708142573329257452e+000
  +1.07469407794681792723e+000
  +1.07176734646709714838e+000
  +1.06819531003331169572e+000
  +1.06386180520420547957e+000
  +1.05864513699409035219e+000
  +1.05242577619825539159e+000
  +1.04509732259722065706e+000
  +1.03658047336398162486e+000
  +1.02683897049081096498e+000
  +1.01589561429648345126e+000
  +1.00384563577493723940e+000
  +9.90864333463548296876e-001
  +9.77206238920379388624e-001
  +9.63194375913815958867e-001
  +9.49200283069185135609e-001
  +9.35617819289330965304e-001
  +9.22835546678536733367e-001
  +9.11212987326750600836e-001
  +9.01065078538620500836e-001
  +8.92657122314720385958e-001
  +8.86210238169097497263e-001
  +8.81915551958362908813e-001
  +8.79954502580124642286e-001
</dep>
<dep SNRout acfrequency>
  +1.36502132536808520555e+008
  +1.36501897628288000822e+008
  +1.36501119254832923412e+008
  +1.36499762130161434412e+008
  +1.36497764734171241522e+008
  +1.36495036529284030199e+008
  +1.36491453865004301071e+008
  +1.36486854387099415064e+008
  +1.36481029700926721096e+008
  +1.36473715961274772882e+008
  +1.36464581969563037157e+008
  +1.36453214250431478024e+008
  +1.36439098448884338140e+008
  +1.36421596232023775578e+008
  +1.36399916690004497766e+008
  +1.36373081003675401211e+008
  +1.36339878875116318464e+008
  +1.36298814895308464766e+008
  +1.36248042645830005407e+008
  +1.36185283894893884659e+008
  +1.36107729753932863474e+008
  +1.36011920118366658688e+008
  +1.35893597147428244352e+008
  +1.35747527987771153450e+008
  +1.35567291491517663002e+008
  +1.35345023452334612608e+008
  +1.35071115088554501534e+008
  +1.34733860458146780729e+008
  +1.34319050664503455162e+008
  +1.33809516775648146868e+008
  +1.33184630250647008419e+008
  +1.32419780536513999104e+008
  +1.31485865790926590562e+008
</dep>
<dep SNRin acfrequency>
  +1.48218931003675937653e+008
  +1.48166761406346768141e+008
  +1.48103251059934824705e+008
  +1.48025486305838942528e+008
  +1.47929903235901921988e+008
  +1.47812134966554731131e+008
  +1.47666834452420026064e+008
  +1.47487475259870290756e+008
  +1.47266138631883174181e+008
  +1.46993304562690228224e+008
  +1.46657678092177510262e+008
  +1.46246099354091227055e+008
  +1.45743605068271547556e+008
  +1.45133725636240065098e+008
  +1.44399108490272313356e+008
  +1.43522545627840638161e+008
  +1.42488442375613421202e+008
  +1.41284690063128560781e+008
  +1.39904799841832190752e+008
  +1.38350032640544205904e+008
  +1.36631150508720070124e+008
  +1.34769360571182757616e+008
  +1.32796070961799547076e+008
  +1.30751255502024501562e+008
  +1.28680511458671301603e+008
  +1.26631215694136664271e+008
  +1.24648426333225741982e+008
  +1.22771243482133492827e+008
  +1.21030205936243757606e+008
  +1.19446018183273375034e+008
  +1.18029582894889071584e+008
  +1.16783063842065021396e+008
  +1.15701579628371834755e+008
</dep>
<dep Nout acfrequency>
  +9.67512360926776128183e-019
  +9.64476411674023428491e-019
  +9.60712783777872790522e-019
  +9.56070285325052036266e-019
  +9.50367670536243656455e-019
  +9.43390160096820272732e-019
  +9.34886580377050511712e-019
  +9.24567832513377565964e-019
  +9.12107694014245748090e-019
  +8.97147277322714249407e-019
  +8.79304758996632376482e-019
  +8.58192133114702421474e-019
  +8.33440550660303553617e-019
  +8.04735048244636201144e-019
  +7.71857918492477218815e-019
  +7.34737545449186653760e-019
  +6.93496469482719419628e-019
  +6.48489515370380984170e-019
  +6.00321279951703137673e-019
  +5.49833538528796851103e-019
  +4.98057985841122497038e-019
  +4.46137535992022785001e-019
  +3.95227830778510494890e-019
  +3.46396417993016670703e-019
  +3.00537768134299698815e-019
  +2.58317584595435629236e-019
  +2.20151781407608319538e-019
  +1.86217266805628197347e-019
  +1.56485954933517206043e-019
  +1.30771305452682505855e-019
  +1.08777656985675967812e-019
  +9.01453387644602570498e-020
  +7.44876644154492652442e-020
</dep>
<dep Sout acfrequency>
  +1.32067500522227316371e-010
  +1.31652860411226096957e-010
  +1.31138370268105936788e-010
  +1.30503366526585174442e-010
  +1.29723062703818556033e-010
  +1.28768074363782606065e-010
  +1.27604028554545814519e-010
  +1.26191355127249477698e-010
  +1.24485397277202052840e-010
  +1.22437022700771122570e-010
  +1.19993956360322821538e-010
  +1.17103075007935311044e-010
  +1.13713877342833531555e-010
  +1.09783239825387928049e-010
  +1.05281355778894174491e-010
  +1.00198422801983573743e-010
  +9.45512246495947656456e-011
  +8.83883524170158516776e-011
  +8.17925993520589033248e-011
  +7.48792365394782670020e-011
  +6.77895417386516261983e-011
  +6.06800229071519338602e-011
  +5.37089316172668443197e-011
  +4.70224574463707043629e-011
  +4.07430912168727530981e-011
  +3.49619995452196654888e-011
  +2.97361466034573539695e-011
  +2.50897712406869959767e-011
  +2.10190449089983001881e-011
  +1.74984451907441285217e-011
  +1.44875120251689636445e-011
  +1.19370259755795347093e-011
  +9.79407504640934080885e-012
</dep>
<dep Nin acfrequency>
  +4.96219728531620535593e-021
  +4.97134528579819233757e-021
  +4.98256375455269780208e-021
  +4.99625668534931648244e-021
  +5.01288964161879794834e-021
  +5.03298803568267970662e-021
  +5.05712910306878248955e-021
  +5.08592463193031382702e-021
  +5.11999109387374565587e-021
  +5.15990390487411418265e-021
  +5.20613356712526064929e-021
  +5.25896392287418739018e-021
  +5.31839710033078538761e-021
  +5.38405591433217147389e-021
  +5.45510156968773080170e-021
  +5.53019032205592076477e-021
  +5.60749397455578414308e-021
  +5.68480232202986472845e-021
  +5.75970937482703009756e-021
  +5.82986194425970905248e-021
  +5.89322633924020017628e-021
  +5.94831652490689224654e-021
  +5.99433270413300248996e-021
  +6.03118287941176624524e-021
  +6.05939266112562541998e-021
  +6.07993706597288668349e-021
  +6.09404183414171233600e-021
  +6.10299843924545890468e-021
  +6.10802176657600095413e-021
  +6.11016095509242993363e-021
  +6.11025910192969163529e-021
  +6.10894942377670478608e-021
  +6.10667354189743574151e-021
</dep>
<dep Sin acfrequency>
  +7.35491577058910735783e-013
  +7.36588130829427556577e-013
  +7.37933890662649734706e-013
  +7.39573325557631560735e-013
  +7.41556279616923829111e-013
  +7.43936706815383477633e-013
  +7.46770246067373241242e-013
  +7.50110183325387094680e-013
  +7.54001318224418175177e-013
  +7.58471326203375282722e-013
  +7.63519460792336268710e-013
  +7.69102960364239770538e-013
  +7.75122366586850488760e-013
  +7.81408093880861053045e-013
  +7.87711803386793388147e-013
  +7.93706992827913578129e-013
  +7.99003082065091264727e-013
  +8.03175534138142974529e-013
  +8.05810987232300080688e-013
  +8.06561590278197316343e-013
  +8.05198294938681124799e-013
  +8.01650814536701720797e-013
  +7.96023831146681955927e-013
  +7.88584733645403642148e-013
  +7.79725746762564848299e-013
  +7.69909822007989070582e-013
  +7.59612724634609109551e-013
  +7.49272707355684958018e-013
  +7.39255132271752777625e-013
  +7.29834396544697395706e-013
  +7.21191333180460967449e-013
  +7.13421830564861253247e-013
  +7.06551775072317585973e-013
</dep>
<dep Zin acfrequency>
  +4.15559302397912677662e+000
  +4.13947089858868544354e+000
  +4.12006240749845886739e+000
  +4.09667921116798439130e+000
  +4.06854294110674796769e+000
  +4.03478874199503323439e+000
  +3.99447887155419634198e+000
  +3.94663004232111669367e+000
  +3.89025810397208759994e+000
  +3.82444261346788394462e+000
  +3.74841138727580469592e+000
  +3.66164104103149989911e+000
  +3.56396407829678807389e+000
  +3.45566738553489205543e+000
  +3.33756297000860335800e+000
  +3.21101174564324098881e+000
  +3.07788672899894644175e+000
  +2.94047284139295150851e+000
  +2.80131388200932285315e+000
  +2.66302880402083763656e+000
  +2.52812523414580470060e+000
  +2.39883659536965510028e+000
  +2.27700156081541349451e+000
  +2.16399419354343613975e+000
  +2.06070347900374439831e+000
  +1.96755422810467250905e+000
  +1.88455804692048922711e+000
  +1.81138257793993440181e+000
  +1.74742844994304524775e+000
  +1.69190541654612358613e+000
  +1.64390145362089312719e+000
  +1.60244083579614460255e+000
  +1.56652926417228632872e+000
</dep>
<dep Vac.in acfrequency>
  +3.55655501279211258531e-011
  +3.56575626855627334294e-011
  +3.57695472609604775613e-011
  +3.59058091078268374243e-011
  +3.60713761584408667437e-011
  +3.62720523042392683627e-011
  +3.65144333986467635036e-011
  +3.68058629157593284073e-011
  +3.71542982733137433849e-011
  +3.75680547297080147303e-011
  +3.80553942474901057209e-011
  +3.86239354854753467373e-011
  +3.92798820916859935659e-011
  +4.00271023084044594343e-011
  +4.08661422710667370899e-011
  +4.17933103637616277144e-011
  +4.28000147079279532350e-011
  +4.38725487379189098032e-011
  +4.49924809266406427499e-011
  +4.61377069543782843154e-011
  +4.72840816118654223375e-011
  +4.84074030561381672935e-011
  +4.94854245587979434729e-011
  +5.04995577129624113705e-011
  +5.14360126385258184330e-011
  +5.22862641178855186641e-011
  +5.30468852221380403326e-011
  +5.37189035660416348591e-011
  +5.43068856657301396484e-011
  +5.48179456177101963904e-011
  +5.52608269921690528679e-011
  +5.56451466565878775574e-011
  +5.59808350496077733733e-011
</dep>
<dep VCC.in acfrequency>
  +3.44969791268141789326e-011
  +3.44437494523140545362e-011
  +3.43776253397193107753e-011
  +3.42958673002248083535e-011
  +3.41951584651696432261e-011
  +3.40715188294941291500e-011
  +3.39202194831328550633e-011
  +3.37357054979417521619e-011
  +3.35115406503849604600e-011
  +3.32403927362961071357e-011
  +3.29140844068771650288e-011
  +3.25237401021683491319e-011
  +3.20600627063012916182e-011
  +3.15137708585768550372e-011
  +3.08762155219224031629e-011
  +3.01401689060393064095e-011
  +2.93007391731323644505e-011
  +2.83563149274924510709e-011
  +2.73093962720102996722e-011
  +2.61671428003141544680e-011
  +2.49414825344765222978e-011
  +2.36486891178061222710e-011
  +2.23084380525318123393e-011
  +2.09424667560036622098e-011
  +1.95730489279108500637e-011
  +1.82215217857123281104e-011
  +1.69070694749064755514e-011
  +1.56458863748563904760e-011
  +1.44507517537125031078e-011
  +1.33309707934073839988e-011
  +1.22925916384540469807e-011
  +1.13387946759639104446e-011
  +1.04703603565634794717e-011
</dep>
<dep _net4.vn acfrequency>
  +2.76497518841028291568e-010
  +2.76319048301055125689e-010
  +2.76098917154005905066e-010
  +2.75828156828548369441e-010
  +2.75496015331790427219e-010
  +2.75089719676176390460e-010
  +2.74594261282632857979e-010
  +2.73992241160999225825e-010
  +2.73263828471766236742e-010
  +2.72386905736439874502e-010
  +2.71337493847344727021e-010
  +2.70090564618199774070e-010
  +2.68621348591024297337e-010
  +2.66907217997556814426e-010
  +2.64930154310137730131e-010
  +2.62679686059712776591e-010
  +2.60156009247436061452e-010
  +2.57372809678128790875e-010
  +2.54359156382582916060e-010
  +2.51159812720573636444e-010
  +2.47833489642152978781e-010
  +2.44448955107237572750e-010
  +2.41079427839736149459e-010
  +2.37796150220268125022e-010
  +2.34662269954641731151e-010
  +2.31728064035389350052e-010
  +2.29028153694364069712e-010
  +2.26580844006946278640e-010
  +2.24389263698962067614e-010
  +2.22443706731924732441e-010
  +2.20724516255884739886e-010
  +2.19204952829289889623e-010
  +2.17853669392671264865e-010
</dep>
<dep _net5.vn acfrequency>
  +2.78210332076546156718e-008
  +2.77773492136888068045e-008
  +2.77230991597674385041e-008
  +2.76560342106391248456e-008
  +2.75734317129550431270e-008
  +2.74720244626684942006e-008
  +2.73479297991939507726e-008
  +2.71965855579464640946e-008
  +2.70127035894481630607e-008
  +2.67902560991523823213e-008
  +2.65225150993887809698e-008
  +2.62021698813621532475e-008
  +2.58215499249801547004e-008
  +2.53729785124984671678e-008
  +2.48492723192044757400e-008
  +2.42443815421088659713e-008
  +2.35541328769745885863e-008
  +2.27769974381239456863e-008
  +2.19147672577502529843e-008
  +2.09730024274789393235e-008
  +1.99611219292127535432e-008
  +1.88920625870659837100e-008
  +1.77815146886537281423e-008
  +1.66468355669903722968e-008
  +1.55058122814459365884e-008
  +1.43754675637472229678e-008
  +1.32710747539936131321e-008
  +1.22054829254930571572e-008
  +1.11887784832310346371e-008
  +1.02282473748998661739e-008
  +9.32856503373058969479e-009
  +8.49212994551827102643e-009
  +7.71946445890901262193e-009
</dep>
<dep _net0.vn acfrequency>
  +1.38860342507416371951e-010
  +1.38770252798865127512e-010
  +1.38658851598441758465e-010
  +1.38521601909467238072e-010
  +1.38353054849350924963e-010
  +1.38146729520646348812e-010
  +1.37895004310341979142e-010
  +1.37589038332518244381e-010
  +1.37218750264902220622e-010
  +1.36772891826734120627e-010
  +1.36239263267091353523e-010
  +1.35605125684554726608e-010
  +1.34857865049941406249e-010
  +1.33985948761899939735e-010
  +1.32980179874277325730e-010
  +1.31835191354184886212e-010
  +1.30551034681188242781e-010
  +1.29134618911619688679e-010
  +1.27600679673889920090e-010
  +1.25971945475575586881e-010
  +1.24278258341879613824e-010
  +1.22554603136777268149e-010
  +1.20838261117267318489e-010
  +1.19165541082279182286e-010
  +1.17568662177345097462e-010
  +1.16073315124268196823e-010
  +1.14697234175195956951e-010
  +1.13449850528154236773e-010
  +1.12332864398268026516e-010
  +1.11341432475892800000e-010
  +1.10465635324653903228e-010
  +1.09691939995786723245e-010
  +1.09004464668331952956e-010
</dep>
<dep _net6.vn acfrequency>
  +0.00000000000000000000e+000
  +0.00000000000000000000e+000
  +0.00000000000000000000e+000
  +0.00000000000000000000e+000
  +0.00000000000000000000e+000
  +0.00000000000000000000e+000
  +0.00000000000000000000e+000
  +0.00000000000000000000e+000
  +0.00000000000000000000e+000
  +0.00000000000000000000e+000
  +0.00000000000000000000e+000
  +0.00000000000000000000e+000
  +0.00000000000000000000e+000
  +0.00000000000000000000e+000
  +0.00000000000000000000e+000
  +0.00000000000000000000e+000
  +0.00000000000000000000e+000
  +0.00000000000000000000e+000
  +0.00000000000000000000e+000
  +0.00000000000000000000e+000
  +0.00000000000000000000e+000
  +0.00000000000000000000e+000
  +0.00000000000000000000e+000
  +0.00000000000000000000e+000
  +0.00000000000000000000e+000
  +0.00000000000000000000e+000
  +0.00000000000000000000e+000
  +0.00000000000000000000e+000
  +0.00000000000000000000e+000
  +0.00000000000000000000e+000
  +0.00000000000000000000e+000
  +0.00000000000000000000e+000
  +0.00000000000000000000e+000
</dep>
<dep Vout.vn acfrequency>
  +6.95525830191365391794e-009
  +6.94433730342220418267e-009
  +6.93077478994186045321e-009
  +6.91400855265978121141e-009
  +6.89335792823876078174e-009
  +6.86800611566712355016e-009
  +6.83698244979848769315e-009
  +6.79914638948661519646e-009
  +6.75317589736209122320e-009
  +6.69756402478809558033e-009
  +6.63062877484719524245e-009
  +6.55054247034053831187e-009
  +6.45538748124503950229e-009
  +6.34324462812461679194e-009
  +6.21231807980111893499e-009
  +6.06109538552721814719e-009
  +5.88853321924364880094e-009
  +5.69424935953098642157e-009
  +5.47869181443756324607e-009
  +5.24325060686973483087e-009
  +4.99028048230318673143e-009
  +4.72301564676649592749e-009
  +4.44537867216343286277e-009
  +4.16170889174757570340e-009
  +3.87645307036148497427e-009
  +3.59386689093680574194e-009
  +3.31776868849840328302e-009
  +3.05137073137326428931e-009
  +2.79719462080775865928e-009
  +2.55706184372496654348e-009
  +2.33214125843264452857e-009
  +2.12303248637956858379e-009
  +1.92986611472725315548e-009
</dep>
<dep _net2.vn acfrequency>
  +4.86056753066461214276e-013
  +4.64045781940987440010e-013
  +4.45258932671127697400e-013
  +4.29220287257206311210e-013
  +4.15487520629344215068e-013
  +4.03651720840968381460e-013
  +3.93336417415220358722e-013
