<Qucs Dataset 0.0.19>
<indep OG 1>
  +5.63508547332079398097e-004
</indep>
<indep Ltot 1>
  +1.02019843000000009706e-005
</indep>
<indep Lin 1>
  +1.00000000000000008180e-005
</indep>
<indep Lsup 1>
  +2.01984299999999993703e-007
</indep>
<indep frequency 194>
  +1.00000000000000000000e+006
  +1.15025906735751288943e+006
  +1.30051813471502601169e+006
  +1.45077720207253890112e+006
  +1.60103626943005179055e+006
  +1.75129533678756467998e+006
  +1.90155440414507780224e+006
  +2.05181347150259069167e+006
  +2.20207253886010358110e+006
  +2.35233160621761670336e+006
  +2.50259067357512935996e+006
  +2.65284974093264248222e+006
  +2.80310880829015560448e+006
  +2.95336787564766826108e+006
  +3.10362694300518138334e+006
  +3.25388601036269450560e+006
  +3.40414507772020716220e+006
  +3.55440414507772028446e+006
  +3.70466321243523294106e+006
  +3.85492227979274606332e+006
  +4.00518134715025918558e+006
  +4.15544041450777184218e+006
  +4.30569948186528496444e+006
  +4.45595854922279808670e+006
  +4.60621761658031120896e+006
  +4.75647668393782339990e+006
  +4.90673575129533652216e+006
  +5.05699481865284964442e+006
  +5.20725388601036276668e+006
  +5.35751295336787588894e+006
  +5.50777202072538901120e+006
  +5.65803108808290120214e+006
  +5.80829015544041432440e+006
  +5.95854922279792744666e+006
  +6.10880829015544056892e+006
  +6.25906735751295369118e+006
  +6.40932642487046588212e+006
  +6.55958549222797900438e+006
  +6.70984455958549212664e+006
  +6.86010362694300524890e+006
  +7.01036269430051837116e+006
  +7.16062176165803149343e+006
  +7.31088082901554368436e+006
  +7.46113989637305680662e+006
  +7.61139896373056992888e+006
  +7.76165803108808305115e+006
  +7.91191709844559617341e+006
  +8.06217616580310836434e+006
  +8.21243523316062148660e+006
  +8.36269430051813460886e+006
  +8.51295336787564679980e+006
  +8.66321243523316085339e+006
  +8.81347150259067304432e+006
  +8.96373056994818709791e+006
  +9.11398963730569928885e+006
  +9.26424870466321334243e+006
  +9.41450777202072553337e+006
  +9.56476683937823772430e+006
  +9.71502590673575177789e+006
  +9.86528497409326396883e+006
  +1.00155440414507780224e+007
  +1.01658031088082902133e+007
  +1.03160621761658024043e+007
  +1.04663212435233164579e+007
  +1.06165803108808286488e+007
  +1.07668393782383427024e+007
  +1.09170984455958548933e+007
  +1.10673575129533670843e+007
  +1.12176165803108811378e+007
  +1.13678756476683933288e+007
  +1.15181347150259073824e+007
  +1.16683937823834195733e+007
  +1.18186528497409317642e+007
  +1.19689119170984458178e+007
  +1.21191709844559580088e+007
  +1.22694300518134720623e+007
  +1.24196891191709842533e+007
  +1.25699481865284983069e+007
  +1.27202072538860104978e+007
  +1.28704663212435226887e+007
  +1.30207253886010367423e+007
  +1.31709844559585489333e+007
  +1.33212435233160629869e+007
  +1.34715025906735751778e+007
  +1.36217616580310873687e+007
  +1.37720207253886014223e+007
  +1.39222797927461136132e+007
  +1.40725388601036276668e+007
  +1.42227979274611398578e+007
  +1.43730569948186520487e+007
  +1.45233160621761661023e+007
  +1.46735751295336782932e+007
  +1.48238341968911923468e+007
  +1.49740932642487045377e+007
  +1.51243523316062167287e+007
  +1.52746113989637307823e+007
  +1.54248704663212429732e+007
  +1.55751295336787570268e+007
  +1.57253886010362692177e+007
  +1.58756476683937832713e+007
  +1.60259067357512954623e+007
  +1.61761658031088076532e+007
  +1.63264248704663217068e+007
  +1.64766839378238338977e+007
  +1.66269430051813479513e+007
  +1.67772020725388601422e+007
  +1.69274611398963741958e+007
  +1.70777202072538845241e+007
  +1.72279792746113985777e+007
  +1.73782383419689126313e+007
  +1.75284974093264266849e+007
  +1.76787564766839370131e+007
  +1.78290155440414510667e+007
  +1.79792746113989651203e+007
  +1.81295336787564754486e+007
  +1.82797927461139895022e+007
  +1.84300518134715035558e+007
  +1.85803108808290138841e+007
  +1.87305699481865279377e+007
  +1.88808290155440419912e+007
  +1.90310880829015560448e+007
  +1.91813471502590663731e+007
  +1.93316062176165804267e+007
  +1.94818652849740944803e+007
  +1.96321243523316048086e+007
  +1.97823834196891188622e+007
  +1.99326424870466329157e+007
  +2.00829015544041432440e+007
  +2.02331606217616572976e+007
  +2.03834196891191713512e+007
  +2.05336787564766854048e+007
  +2.06839378238341957331e+007
  +2.08341968911917097867e+007
  +2.09844559585492238402e+007
  +2.11347150259067341685e+007
  +2.12849740932642482221e+007
  +2.14352331606217622757e+007
  +2.15854922279792763293e+007
  +2.17357512953367866576e+007
  +2.18860103626943007112e+007
  +2.20362694300518147647e+007
  +2.21865284974093250930e+007
  +2.23367875647668391466e+007
  +2.24870466321243532002e+007
  +2.26373056994818635285e+007
  +2.27875647668393775821e+007
  +2.29378238341968916357e+007
  +2.30880829015544056892e+007
  +2.32383419689119160175e+007
  +2.33886010362694300711e+007
  +2.35388601036269441247e+007
  +2.36891191709844544530e+007
  +2.38393782383419685066e+007
  +2.39896373056994825602e+007
  +2.41398963730569966137e+007
  +2.42901554404145069420e+007
  +2.44404145077720209956e+007
  +2.45906735751295350492e+007
  +2.47409326424870453775e+007
  +2.48911917098445594311e+007
  +2.50414507772020734847e+007
  +2.51917098445595838130e+007
  +2.53419689119170978665e+007
  +2.54922279792746119201e+007
  +2.56424870466321259737e+007
  +2.57927461139896363020e+007
  +2.59430051813471503556e+007
  +2.60932642487046644092e+007
  +2.62435233160621747375e+007
  +2.63937823834196887910e+007
  +2.65440414507772028446e+007
  +2.66943005181347131729e+007
  +2.68445595854922272265e+007
  +2.69948186528497412801e+007
  +2.71450777202072553337e+007
  +2.72953367875647656620e+007
  +2.74455958549222797155e+007
  +2.75958549222797937691e+007
  +2.77461139896373040974e+007
  +2.78963730569948181510e+007
  +2.80466321243523322046e+007
  +2.81968911917098462582e+007
  +2.83471502590673565865e+007
  +2.84974093264248706400e+007
  +2.86476683937823846936e+007
  +2.87979274611398950219e+007
  +2.89481865284974090755e+007
  +2.90984455958549231291e+007
  +2.92487046632124334574e+007
  +2.93989637305699475110e+007
  +2.95492227979274615645e+007
  +2.96994818652849756181e+007
  +2.98497409326424859464e+007
  +3.00000000000000000000e+007
</indep>
<dep S21 frequency>
  -2.44795749994029289420e-003-j9.59736676213631314928e-006
  -2.44795750334773562495e-003-j1.10394581417718600657e-005
  -2.44795750722410533629e-003-j1.24815495221358891981e-005
  -2.44795751158146356052e-003-j1.39236409003344498018e-005
  -2.44795751641305571814e-003-j1.53657322787803304735e-005
  -2.44795752171598785668e-003-j1.68078236589214696621e-005
  -2.44795752749604831472e-003-j1.82499150356929389918e-005
  -2.44795753376143973221e-003-j1.96920064148846355617e-005
  -2.44795754049961745633e-003-j2.11340977957734846141e-005
  -2.44795754772071357322e-003-j2.25761891749831247300e-005
  -2.44795755540543015158e-003-j2.40182805508255717113e-005
  -2.44795756355907414420e-003-j2.54603719288494842856e-005
  -2.44795757220721407407e-003-j2.69024633124326841569e-005
  -2.44795758131173850011e-003-j2.83445546880673810613e-005
  -2.44795759090689997103e-003-j2.97866460668504486086e-005
  -2.44795760098401446112e-003-j3.12287374439581188676e-005
  -2.44795761151896020674e-003-j3.26708288271098062742e-005
  -2.44795762249437002384e-003-j3.41129202056924217806e-005
  -2.44795763400287120712e-003-j3.55550115869438483683e-005
  -2.44795764599525485575e-003-j3.69971029585622402974e-005
  -2.44795765843051470884e-003-j3.84391943396040838290e-005
  -2.44795767137040215164e-003-j3.98812857158387172292e-005
  -2.44795768472663103493e-003-j4.13233770973970950045e-005
  -2.44795769857156751692e-003-j4.27654684782500501888e-005
  -2.44795771293898189319e-003-j4.42075598550215262948e-005
  -2.44795772778159514277e-003-j4.56496512214400642759e-005
  -2.44795774309072410729e-003-j4.70917426151361395823e-005
  -2.44795775887505151144e-003-j4.85338339840074545857e-005
  -2.44795777515387528653e-003-j4.99759253825701136448e-005
  -2.44795779183939240381e-003-j5.14180167488306969219e-005
  -2.44795780906813253974e-003-j5.28601081351357253608e-005
  -2.44795782678847379313e-003-j5.43021995106093572562e-005
  -2.44795784490634254355e-003-j5.57442908880356169355e-005
  -2.44795786348734906862e-003-j5.71863822677777053501e-005
  -2.44795788267429493754e-003-j5.86284736416367772516e-005
  -2.44795790221583042801e-003-j6.00705650242038154130e-005
  -2.44795792228225637943e-003-j6.15126563979934306127e-005
  -2.44795794282050413124e-003-j6.29547477692772106464e-005
  -2.44795796383781094976e-003-j6.43968391528907817311e-005
  -2.44795798521067232978e-003-j6.58389305338774122670e-005
  -2.44795800732214210299e-003-j6.72810219164648402055e-005
  -2.44795802974237140456e-003-j6.87231132841237664583e-005
  -2.44795805265468451040e-003-j7.01652046712311248337e-005
  -2.44795807593606133679e-003-j7.16072960396731432106e-005
  -2.44795809983592042511e-003-j7.30493874159885293439e-005
  -2.44795812416997125849e-003-j7.44914788107884241058e-005
  -2.44795814903035974588e-003-j7.59335701726956713862e-005
  -2.44795817434664960896e-003-j7.73756615472998612306e-005
  -2.44795820007349257397e-003-j7.88177529440082635243e-005
  -2.44795822634886420938e-003-j8.02598443165102260139e-005
  -2.44795825293395987940e-003-j8.17019357014669880650e-005
  -2.44795828019108829138e-003-j8.31440270774176350349e-005
  -2.44795830789784618631e-003-j8.45861184523188285121e-005
  -2.44795833601419224324e-003-j8.60282098285825524119e-005
  -2.44795836469547008207e-003-j8.74703012106750285061e-005
  -2.44795839384857058865e-003-j8.89123925849662769460e-005
  -2.44795842338038248040e-003-j9.03544839541084053233e-005
  -2.44795845327932821284e-003-j9.17965753615208917204e-005
  -2.44795848369640939302e-003-j9.32386667122882733865e-005
  -2.44795851481446977843e-003-j9.46807581076061321838e-005
  -2.44795854627698900030e-003-j9.61228494892132787281e-005
  -2.44795857834351811982e-003-j9.75649408404720750289e-005
  -2.44795861080226648254e-003-j9.90070322471313390717e-005
  -2.44795864388046291449e-003-j1.00449123613192191980e-004
  -2.44795867718443881100e-003-j1.01891215004498638264e-004
  -2.44795871087050316561e-003-j1.03333306377876825845e-004
  -2.44795874515816528488e-003-j1.04775397733332555203e-004
  -2.44795878003102205731e-003-j1.06217489128879072238e-004
  -2.44795881532263283689e-003-j1.07659580492991898445e-004
  -2.44795885113768601701e-003-j1.09101671898522074346e-004
  -2.44795888760499175466e-003-j1.10543763263580053797e-004
  -2.44795892401006385392e-003-j1.11985854629878902634e-004
  -2.44795896130812432739e-003-j1.13427946031817238710e-004
  -2.44795899903121026708e-003-j1.14870037394485623020e-004
  -2.44795903719524209768e-003-j1.16312128768661349719e-004
  -2.44795907555466060387e-003-j1.17754220135040985171e-004
  -2.44795911497447263652e-003-j1.19196311531519794102e-004
  -2.44795915434845284125e-003-j1.20638402908799523858e-004
  -2.44795919436262537222e-003-j1.22080494285714568660e-004
  -2.44795923462959438485e-003-j1.23522585683783360077e-004
  -2.44795927592270350787e-003-j1.24964677049176764575e-004
  -2.44795931739527888177e-003-j1.26406768414435673794e-004
  -2.44795935933099203033e-003-j1.27848859794222783704e-004
  -2.44795940178918350685e-003-j1.29290951185947366108e-004
  -2.44795944460485942473e-003-j1.30733042536175384299e-004
  -2.44795948837093395659e-003-j1.32175133938336984707e-004
  -2.44795953198407526680e-003-j1.33617225314244819244e-004
  -2.44795957636043072167e-003-j1.35059316670319587384e-004
  -2.44795962100887972215e-003-j1.36501408057262865314e-004
  -2.44795966618366594297e-003-j1.37943499432689070140e-004
  -2.44795971232091100905e-003-j1.39385590807407453579e-004
  -2.44795975852039014720e-003-j1.40827682179942606207e-004
  -2.44795980485157382844e-003-j1.42269773574720274825e-004
  -2.44795985240621460921e-003-j1.43711864921039852603e-004
  -2.44795989969841037634e-003-j1.45153956336205400973e-004
  -2.44795994763128072283e-003-j1.46596047718815339659e-004
  -2.44795999660621203808e-003-j1.48038139079859440038e-004
  -2.44796004541325551429e-003-j1.49480230454997653662e-004
  -2.44796009543314218443e-003-j1.50922321859414177748e-004
  -2.44796014538790039639e-003-j1.52364413205141726931e-004
  -2.44796019601131341001e-003-j1.53806504581517286285e-004
  -2.44796024647648798392e-003-j1.55248595995748713168e-004
  -2.44796029797262780156e-003-j1.56690687352537482650e-004
  -2.44796035043460353739e-003-j1.58132778737755984658e-004
  -2.44796040233791851667e-003-j1.59574870094964719851e-004
  -2.44796045560604410424e-003-j1.61016961457703482435e-004
  -2.44796050883557513023e-003-j1.62459052877964076284e-004
  -2.44796056247276357098e-003-j1.63901144230269886623e-004
  -2.44796061678439688669e-003-j1.65343235615098889000e-004
  -2.44796067168315473542e-003-j1.66785327007663375723e-004
  -2.44796072741170151268e-003-j1.68227418362745177304e-004
  -2.44796078300613161385e-003-j1.69669509716852145607e-004
  -2.44796083858512354345e-003-j1.71111601133851350901e-004
  -2.44796089557523972868e-003-j1.72553692505372232397e-004
  -2.44796095280271379033e-003-j1.73995783899754600903e-004
  -2.44796101048126539534e-003-j1.75437875252964093752e-004
  -2.44796106879663181999e-003-j1.76879966627665292586e-004
  -2.44796112744632672967e-003-j1.78322057995925571574e-004
  -2.44796118624026910054e-003-j1.79764149361114603963e-004
  -2.44796124540713451803e-003-j1.81206240788491656927e-004
  -2.44796130533528333295e-003-j1.82648332169404927633e-004
  -2.44796136657710397544e-003-j1.84090423479093650812e-004
  -2.44796142794194643635e-003-j1.85532514891486840017e-004
  -2.44796148901684417973e-003-j1.86974606254720242737e-004
  -2.44796155099920396264e-003-j1.88416697627944107691e-004
  -2.44796161311278603553e-003-j1.89858788977716977809e-004
  -2.44796167601032607641e-003-j1.91300880434023905761e-004
  -2.44796173982883514750e-003-j1.92742971741482560597e-004
  -2.44796180331832355370e-003-j1.94185063140894136405e-004
  -2.44796186762843460960e-003-j1.95627154542396325052e-004
  -2.44796193247453185149e-003-j1.97069245904005240552e-004
  -2.44796199737659127271e-003-j1.98511337309160973679e-004
  -2.44796206324882862498e-003-j1.99953428638322157612e-004
  -2.44796213007387672422e-003-j2.01395520031817621635e-004
  -2.44796219652214245080e-003-j2.02837611373017732280e-004
  -2.44796226393383239625e-003-j2.04279702814857201968e-004
  -2.44796233101843112301e-003-j2.05721794125465680956e-004
  -2.44796239888795189032e-003-j2.07163885528565278873e-004
  -2.44796246768181919445e-003-j2.08605976862246149297e-004
  -2.44796253680808467007e-003-j2.10048068247149961624e-004
  -2.44796260686931058809e-003-j2.11490159653516152267e-004
  -2.44796267629468662641e-003-j2.12932251031035138338e-004
  -2.44796274714228221173e-003-j2.14374342367566349168e-004
  -2.44796281774528352165e-003-j2.15816433765787172834e-004
  -2.44796288952446247644e-003-j2.17258525142970679647e-004
  -2.44796296044683591928e-003-j2.18700616590799146611e-004
  -2.44796303445535008009e-003-j2.20142707887249896789e-004
  -2.44796310607484253474e-003-j2.21584799298532212448e-004
  -2.44796318025462117385e-003-j2.23026890653331714889e-004
  -2.44796325366346744987e-003-j2.24468982014557554656e-004
  -2.44796332816406584862e-003-j2.25911073410166643709e-004
  -2.44796340251221457990e-003-j2.27353164794926988984e-004
  -2.44796347861353340292e-003-j2.28795256149581316754e-004
  -2.44796355376252546682e-003-j2.30237347509447079106e-004
  -2.44796362973889432627e-003-j2.31679438905072268562e-004
  -2.44796370634387623275e-003-j2.33121530285007399173e-004
  -2.44796378398561258888e-003-j2.34563621668934616394e-004
  -2.44796386126021553800e-003-j2.36005712966261781399e-004
  -2.44796393905295393487e-003-j2.37447804343959796352e-004
  -2.44796401899783754724e-003-j2.38889895801214723579e-004
  -2.44796409820363007961e-003-j2.40331987102983024628e-004
  -2.44796417663221922353e-003-j2.41774078473654867403e-004
  -2.44796425755258771975e-003-j2.43216169906447483113e-004
  -2.44796433822112510792e-003-j2.44658261251081072304e-004
  -2.44796441732801801916e-003-j2.46100352611174761058e-004
  -2.44796449937728600663e-003-j2.47542444044574773930e-004
  -2.44796458117375794611e-003-j2.48984535410199411647e-004
  -2.44796466385501605353e-003-j2.50426626766247942095e-004
  -2.44796474596507092000e-003-j2.51868718140286368141e-004
  -2.44796483104692827806e-003-j2.53310809508972196481e-004
  -2.44796491393370471354e-003-j2.54752900881141512192e-004
  -2.44796499729133800946e-003-j2.56194992279141565191e-004
  -2.44796508335302269790e-003-j2.57637083694120061581e-004
  -2.44796516808414976046e-003-j2.59079174962353908120e-004
  -2.44796525402522563084e-003-j2.60521266399115218777e-004
  -2.44796533963728040265e-003-j2.61963357769909115612e-004
  -2.44796542709802781440e-003-j2.63405449182028516663e-004
  -2.44796551460123041483e-003-j2.64847540508514811206e-004
  -2.44796560152406262809e-003-j2.66289631862069242976e-004
  -2.44796568927089456397e-003-j2.67731723285292608997e-004
  -2.44796577909750685820e-003-j2.69173814612486670718e-004
  -2.44796586805911186788e-003-j2.70615906001196683192e-004
  -2.44796595685282947219e-003-j2.72057997371411236596e-004
  -2.44796604685938940307e-003-j2.73500088762807305742e-004
  -2.44796613670964077411e-003-j2.74942180142705031379e-004
  -2.44796622793049152567e-003-j2.76384271501492364935e-004
  -2.44796631866456499207e-003-j2.77826362862631224583e-004
  -2.44796641172494297209e-003-j2.79268454197959025212e-004
  -2.44796650469124559696e-003-j2.80710545640112181694e-004
  -2.44796659724989037338e-003-j2.82152636971311015189e-004
  -2.44796669114777636772e-003-j2.83594728384342230267e-004
  -2.44796678383716118099e-003-j2.85036819744259519328e-004
  -2.44796687879013374900e-003-j2.86478911123384859336e-004
  -2.44796697365144352854e-003-j2.87921002471240345018e-004
</dep>
<dep S11 frequency>
  -3.24909949216267577299e+001+j1.70218947148949480141e-002
  -3.24909841317170489106e+001+j1.95795562933095135261e-002
  -3.24909718339010140653e+001+j2.21372042681471266345e-002
  -3.24909580281760526077e+001+j2.46948368584327913877e-002
  -3.24909427145931815062e+001+j2.72524522877840430501e-002
  -3.24909258931773905488e+001+j2.98100487887265792886e-002
  -3.24909075639616773401e+001+j3.23676245694988623525e-002
  -3.24908877269661786613e+001+j3.49251778665285589343e-002
  -3.24908663822604495408e+001+j3.74827069012923577707e-002
  -3.24908435298633477828e+001+j4.00402098906597891936e-002
  -3.24908191698575734563e+001+j4.25976850568501111405e-002
  -3.24907933022878054885e+001+j4.51551306304098371003e-002
  -3.24907659271599129625e+001+j4.77125448445281027943e-002
  -3.24907370446039251988e+001+j5.02699258974474150197e-002
  -3.24907066546113156846e+001+j5.28272720330578010595e-002
  -3.24906747572634770904e+001+j5.53845814659636379029e-002
  -3.24906413526761923549e+001+j5.79418524409021779009e-002
  -3.24906064409416330818e+001+j6.04990831554533675662e-002
  -3.24905700219689137498e+001+j6.30562718462137766773e-002
  -3.24905320959255803359e+001+j6.56134167286127750751e-002
  -3.24904926629621897405e+001+j6.81705160463991904907e-002
  -3.24904517230481246770e+001+j7.07275680111578708420e-002
  -3.24904092764259857518e+001+j7.32845708530819039961e-002
  -3.24903653230599545054e+001+j7.58415228052950751714e-002
  -3.24903198629785592288e+001+j7.83984220741369836061e-002
  -3.24902728963611906465e+001+j8.09552668846019451987e-002
