<Qucs Dataset 0.0.19>
<indep Mu2 1>
  +7.19077374455055928770e-001
</indep>
<indep Mu1 1>
  +7.19077374455056150815e-001
</indep>
<indep OG 1>
  +1.42852295845534538188e+000
</indep>
<indep Fres1 1>
  +1.65249127799160615541e+006
</indep>
<indep R3 1>
  +9.61738000000000070600e+000
</indep>
<indep L2 1>
  +2.45126199999999994371e-006
</indep>
<indep R2 1>
  +2.65194000000000000000e+008
</indep>
<indep R1 1>
  +2.45980099999999985982e+001
</indep>
<indep C1 1>
  +1.37689199999999995358e-010
</indep>
<indep L1 1>
  +6.73693000000000056550e-005
</indep>
<indep frequency 300>
  +1.00000000000000000000e+006
  +1.01144018616326886695e+006
  +1.02301125018598802853e+006
  +1.03471468933523411397e+006
  +1.04655201800709823146e+006
  +1.05852476792264427058e+006
  +1.07063448832611017860e+006
  +1.08288274618537700735e+006
  +1.09527112639472936280e+006
  +1.10780123197993845679e+006
  +1.12047468430568766780e+006
  +1.13329312328537460417e+006
  +1.14625820759331155568e+006
  +1.15937161487935413606e+006
  +1.17263504198598372750e+006
  +1.18605020516787585802e+006
  +1.19961884031397965737e+006
  +1.21334270317213633098e+006
  +1.22722356957626948133e+006
  +1.24126323567617335357e+006
  +1.25546351816993020475e+006
  +1.26982625453898659907e+006
  +1.28435330328591936268e+006
  +1.29904654417491960339e+006
  +1.31390787847503158264e+006
  +1.32893922920617158525e+006
  +1.34414254138796124607e+006
  +1.35951978229140886106e+006
  +1.37507294169346941635e+006
  +1.39080403213451663032e+006
  +1.40671508917876030318e+006
  +1.42280817167764483020e+006
  +1.43908536203625728376e+006
  +1.45554876648278720677e+006
  +1.47220051534106698819e+006
  +1.48904276330622914247e+006
  +1.50607768972352053970e+006
  +1.52330749887030338868e+006
  +1.54073442024128348567e+006
  +1.55836070883699972183e+006
  +1.57618864545561862178e+006
  +1.59422053698806185275e+006
  +1.61245871671651140787e+006
  +1.63090554461633414030e+006
  +1.64956340766145242378e+006
  +1.66843472013321542181e+006
  +1.68752192393280100077e+006
  +1.70682748889718996361e+006
  +1.72635391311875847168e+006
  +1.74610372326852474362e+006
  +1.76607947492309380323e+006
  +1.78628375289534218609e+006
  +1.80671917156888754107e+006
  +1.82738837523638247512e+006
  +1.84829403844168013893e+006
  +1.86943886632591299713e+006
  +1.89082559497753181495e+006
  +1.91245699178634863347e+006
  +1.93433585580162936822e+006
  +1.95646501809428585693e+006
  +1.97884734212320786901e+006
  +2.00148572410578699782e+006
  +2.02438309339268226177e+006
  +2.04754241284686909057e+006
  +2.07096667922702594660e+006
  +2.09465892357530980371e+006
  +2.11862221160956379026e+006
  +2.14285964412001380697e+006
  +2.16737435737050278112e+006
  +2.19216952350431680679e+006
  +2.21724835095465043560e+006
  +2.24261408485977211967e+006
  +2.26827000748293707147e+006
  +2.29421943863710109144e+006
  +2.32046573611450009048e+006
  +2.34701229612113628536e+006
  +2.37386255371624324471e+006
  +2.40101998325677029788e+006
  +2.42848809884695662186e+006
  +2.45627045479304855689e+006
  +2.48437064606321835890e+006
  +2.51279230875274213031e+006
  +2.54153912055450398475e+006
  +2.57061480123487813398e+006
  +2.60002311311505921185e+006
  +2.62976786155789718032e+006
  +2.65985289546030154452e+006
  +2.69028210775127727538e+006
  +2.72105943589566322044e+006
  +2.75218886240362888202e+006
  +2.78367441534600127488e+006
  +2.81552016887548845261e+006
  +2.84773024375386163592e+006
  +2.88030880788517789915e+006
  +2.91326007685508672148e+006
  +2.94658831447632843629e+006
  +2.98029783334045019001e+006
  +3.01439299537585210055e+006
  +3.04887821241220552474e+006
  +3.08375794675133563578e+006
  +3.11903671174463024363e+006
  +3.15471907237705960870e+006
  +3.19080964585786731914e+006
  +3.22731310221803560853e+006
  +3.26423416491456702352e+006
  +3.30157761144169140607e+006
  +3.33934827394906571135e+006
  +3.37755103986703325063e+006
  +3.41619085253905458376e+006
  +3.45527271186135755852e+006
  +3.49480167492991499603e+006
  +3.53478285669481661171e+006
  +3.57522143062213715166e+006
  +3.61612262936336267740e+006
  +3.65749174543248955160e+006
  +3.69933413189085572958e+006
  +3.74165520303982170299e+006
  +3.78446043512136116624e+006
  +3.82775536702667456120e+006
  +3.87154560101291211322e+006
  +3.91583680342808412388e+006
  +3.96063470544428145513e+006
  +4.00594510379926767200e+006
  +4.05177386154656717554e+006
  +4.09812690881412569433e+006
  +4.14501024357166141272e+006
  +4.19242993240677751601e+006
  +4.24039211130997259170e+006
  +4.28890298646861501038e+006
  +4.33796883507001586258e+006
  +4.38759600611367542297e+006
  +4.43779092123283073306e+006
  +4.48856007552539929748e+006
  +4.53991003839442506433e+006
  +4.59184745439815148711e+006
  +4.64437904410979803652e+006
  +4.69751160498719941825e+006
  +4.75125201225236896425e+006
  +4.80560721978114265949e+006
  +4.86058426100298762321e+006
  +4.91619024981111660600e+006
  +4.97243238148300256580e+006
  +5.02931793361143395305e+006
  +5.08685426704621687531e+006
  +5.14504882684664335102e+006
  +5.20390914324487745762e+006
  +5.26344283262033574283e+006
  +5.32365759848523605615e+006
  +5.38456123248140793294e+006
  +5.44616161538851633668e+006
  +5.50846671814380958676e+006
  +5.57148460287354607135e+006
  +5.63522342393620498478e+006
  +5.69969142897764965892e+006
  +5.76489695999834127724e+006
  +5.83084845443278457969e+006
  +5.89755444624130520970e+006
  +5.96502356701431982219e+006
  +6.03326454708925075829e+006
  +6.10228621668020077050e+006
  +6.17209750702057220042e+006
  +6.24270745151873491704e+006
  +6.31412518692693579942e+006
  +6.38635995452356431633e+006
  +6.45942110130896046758e+006
  +6.53331808121488150209e+006
  +6.60806045632783044130e+006
  +6.68365789812635630369e+006
  +6.76012018873252347112e+006
  +6.83745722217769734561e+006
  +6.91567900568279623985e+006
  +6.99479566095321811736e+006
  +7.07481742548854742199e+006
  +7.15575465390727669001e+006
  +7.23761781928665284067e+006
  +7.32041751451788470149e+006
  +7.40416445367682445794e+006
  +7.48886947341034281999e+006
  +7.57454353433857951313e+006
  +7.66119772247319947928e+006
  +7.74884325065190158784e+006
  +7.83749145998934935778e+006
  +7.92715382134465873241e+006
  +8.01784193680571112782e+006
  +8.10956754119042959064e+006
  +8.20234250356525368989e+006
  +8.29617882878093328327e+006
  +8.39108865902595780790e+006
  +8.48708427539770491421e+006
  +8.58417809949160926044e+006
  +8.68238269500844925642e+006
  +8.78171076938009262085e+006
  +8.88217517541377991438e+006
  +8.98378891295528039336e+006
  +9.08656513057100214064e+006
  +9.19051712724939920008e+006
  +9.29565835412184335291e+006
  +9.40200241620314493775e+006
  +9.50956307415201328695e+006
  +9.61835424605165794492e+006
  +9.72839000921075604856e+006
  +9.83968460198501311243e+006
  +9.95225242561957426369e+006
  +1.00661080461125019938e+007
  +1.01812661960996109992e+007
  +1.02977417767607867718e+007
  +1.04155498597481977195e+007
  +1.05347056891365274787e+007
  +1.06552246833954993635e+007
  +1.07771224373850040138e+007
  +1.09004147243730258197e+007
  +1.10251174980766922235e+007
  +1.11512468947266042233e+007
  +1.12788192351548522711e+007
  +1.14078510269068777561e+007
  +1.15383589663775321096e+007
  +1.16703599409715160728e+007
  +1.18038710312885865569e+007
  +1.19389095133337397128e+007
  +1.20754928607527017593e+007
  +1.22136387470929380506e+007
  +1.23533650480905920267e+007
  +1.24946898439835682511e+007
  +1.26376314218510463834e+007
  +1.27822082779798023403e+007
  +1.29284391202575638890e+007
  +1.30763428705937974155e+007
  +1.32259386673681288958e+007
  +1.33772458679067976773e+007
  +1.35302840509874653071e+007
  +1.36850730193726718426e+007
  +1.38416328023722246289e+007
  +1.39999836584349665791e+007
  +1.41601460777701884508e+007
  +1.43221407849989626557e+007
  +1.44859887418358977884e+007
  +1.46517111498015131801e+007
  +1.48193294529656860977e+007
  +1.49888653407224304974e+007
  +1.51603407505964655429e+007
  +1.53337778710818737745e+007
  +1.55091991445132661611e+007
  +1.56866272699697110802e+007
  +1.58660852062119767070e+007
  +1.60475961746533215046e+007
  +1.62311836623643189669e+007
  +1.64168714251119773835e+007
  +1.66046834904337041080e+007
  +1.67946441607464253902e+007
  +1.69867780164912231266e+007
  +1.71811099193140082061e+007
  +1.73776650152825377882e+007
  +1.75764687381402999163e+007
  +1.77775468125975020230e+007
  +1.79809252576598487794e+007
  +1.81866303899952955544e+007
  +1.83946888273394033313e+007
  +1.86051274919395744801e+007
  +1.88179736140387058258e+007
  +1.90332547353987917304e+007
  +1.92509987128646783531e+007
  +1.94712337219687029719e+007
  +1.96939882605765350163e+007
  +1.99192911525747664273e+007
  +2.01471715516005791724e+007
  +2.03776589448142088950e+007
  +2.06107831567144766450e+007
  +2.08465743529980592430e+007
  +2.10850630444627851248e+007
  +2.13262800909556932747e+007
  +2.15702567053662426770e+007
  +2.18170244576651342213e+007
  +2.20666152789894156158e+007
  +2.23190614657742828131e+007
  +2.25743956839321851730e+007
  +2.28326509730796664953e+007
  +2.30938607508126422763e+007
  +2.33580588170305378735e+007
  +2.36252793583099581301e+007
  +2.38955569523282609880e+007
  +2.41689265723378919065e+007
  +2.44454235916918031871e+007
  +2.47250837884207256138e+007
  +2.50079433498626872897e+007
  +2.52940388773455880582e+007
  +2.55834073909233845770e+007
  +2.58760863341662995517e+007
  +2.61721135790059827268e+007
  +2.64715274306360185146e+007
  +2.67743666324685774744e+007
  +2.70806703711476363242e+007
  +2.73904782816196903586e+007
  +2.77038304522623829544e+007
  +2.80207674300719052553e+007
  +2.83413302259095944464e+007
  +2.86655603198086693883e+007
  +2.89934996663416996598e+007
  +2.93251907000493258238e+007
  +2.96606763409312516451e+007
  +2.99999999999999627471e+007
</indep>
<dep VSWR frequency>
  +1.20809593928776459748e+000
  +1.21210522463969994078e+000
  +1.21035193471726998382e+000
  +1.21457009662426207441e+000
  +1.21702921300040167729e+000
  +1.21966529263787393234e+000
  +1.22071257664334953397e+000
  +1.22343674904838506379e+000
  +1.22576320277995720609e+000
  +1.22858087063222587432e+000
  +1.23071717203671804342e+000
  +1.23377752291382303262e+000
  +1.23635479238702483684e+000
  +1.23878418614356777816e+000
  +1.24181031478867698326e+000
  +1.24460866102256040300e+000
  +1.24797466659630318375e+000
  +1.25096775828413120379e+000
  +1.25945099605839216927e+000
  +1.25738494783134102661e+000
  +1.26012838246539060627e+000
  +1.26679125800673930691e+000
  +1.26740554806893213069e+000
  +1.27069471427606650593e+000
  +1.27303324953939345221e+000
  +1.27623878724387496142e+000
  +1.27889289632036673439e+000
  +1.28166550596425432573e+000
  +1.28489682135296079402e+000
  +1.28784133498534214546e+000
  +1.29080051190380906689e+000
  +1.29418385160683180324e+000
  +1.29751540936620668454e+000
  +1.30088945717135873181e+000
  +1.30454125018328070951e+000
  +1.30807068120224911922e+000
  +1.31171101428371361663e+000
  +1.31554485990858971434e+000
  +1.31934742328533305411e+000
  +1.32347818498710467772e+000
  +1.32762776242716662445e+000
  +1.33099809081435349611e+000
  +1.33429783037640015131e+000
  +1.33761519139700757464e+000
  +1.34105012015882629761e+000
  +1.34458441482277923917e+000
  +1.34818629111132870513e+000
  +1.35191136965832736649e+000
  +1.35577219596338616192e+000
  +1.35962288021112587266e+000
  +1.36369405078758365590e+000
  +1.36785698487988516270e+000
  +1.37209429660198001244e+000
  +1.37646119065252392488e+000
  +1.38078692302535288583e+000
  +1.38565437673310909439e+000
  +1.38925470323285060736e+000
  +1.39292681140662888417e+000
  +1.39661605759397833282e+000
  +1.40563770509987540080e+000
  +1.40453080279721742585e+000
  +1.40879169503886703119e+000
  +1.41206369613233118088e+000
  +1.42176540487544778024e+000
  +1.42157735250634753577e+000
  +1.44260784715017442714e+000
  +1.43052835937035860425e+000
  +1.44452548751807241523e+000
  +1.43472096301054263812e+000
  +1.44514757605818622288e+000
  +1.44858868615134928071e+000
  +1.44445296508402232227e+000
  +1.45661209553841364261e+000
  +1.46015361511977581621e+000
  +1.46456692437077529156e+000
  +1.46983138780476174645e+000
  +1.47415238655017932778e+000
  +1.46923078216261027151e+000
  +1.48460560465555224674e+000
  +1.47142361161283696802e+000
  +1.49189132517050193627e+000
  +1.49227577801913025013e+000
  +1.50288453331963789417e+000
  +1.50844457395083830775e+000
  +1.49436540022807973216e+000
  +1.51253345330019528525e+000
  +1.52091779622798051186e+000
  +1.51971034744776267722e+000
  +1.52610887752100787829e+000
  +1.53195649477131157212e+000
  +1.53092253908160236264e+000
  +1.52086703368546083404e+000
  +1.54105654349084564281e+000
  +1.54317208544234030221e+000
  +1.55496194468398596378e+000
  +1.55823737279053231575e+000
  +1.56664182538708285364e+000
  +1.57464158029632206315e+000
  +1.57306368036818344791e+000
  +1.56307071416083376292e+000
  +1.52355545768404088136e+000
  +1.56486789583737850862e+000
  +1.57403022506645040579e+000
  +1.58315761004839528070e+000
  +1.58587956273455077394e+000
  +1.59209117103031472240e+000
  +1.61775465521095007659e+000
  +1.64783322935317033675e+000
  +1.59126041177282262495e+000
  +1.59800079226802815846e+000
  +1.57646345287269018520e+000
  +1.59783356555289812739e+000
  +1.58623348526635732370e+000
  +1.64822539923408761808e+000
  +1.60239489545388535952e+000
  +1.58275138697067796478e+000
  +1.56297924634779517028e+000
  +1.59637048522675750739e+000
  +1.64061145147241327358e+000
  +1.64296207878569755501e+000
  +1.52278943609631012279e+000
  +1.60616770336248038120e+000
  +1.56959323442981757424e+000
  +1.56855976599569846286e+000
  +1.58160292335828311927e+000
  +1.69519305953915910834e+000
  +1.66667506458430625393e+000
  +1.54381642885204040105e+000
  +1.63045550679396256122e+000
  +1.46258032105118918054e+000
  +1.58191376258852312020e+000
  +1.63097182734029377826e+000
  +1.60216319024345765776e+000
  +1.59764363212492943589e+000
  +1.53109549775179032416e+000
  +1.60408707777168602071e+000
  +1.52605121126096499040e+000
  +1.64835302869657174263e+000
  +1.56746168235697491689e+000
  +1.53014618026566040498e+000
  +1.56380338026778820115e+000
  +1.57169115778970525099e+000
  +1.62779693567314431846e+000
  +1.54254218257992681274e+000
  +1.63627276526325471373e+000
  +1.42408709387306431360e+000
  +1.54967497519834962461e+000
  +1.52826794584296754564e+000
  +1.51474593288988157447e+000
  +1.45643474721988375187e+000
  +1.63969173710617699413e+000
  +1.51681743585405315322e+000
  +1.63460337058839932922e+000
  +1.53222600652433205148e+000
  +1.46642668579719503974e+000
  +1.56629317820016522589e+000
  +1.47561335572030016827e+000
  +1.46109177141262591704e+000
  +1.50818520389978738550e+000
  +1.37658756352488875763e+000
  +1.41616563413299356711e+000
  +1.54742722807024435383e+000
  +1.45623588323994779259e+000
  +1.33036956710316545127e+000
  +1.47420499351274703059e+000
  +1.36496244111843378910e+000
  +1.29321123679117300220e+000
  +1.31487173160613646239e+000
  +1.06897478420618141648e+000
  +1.29292765242742313525e+000
  +1.41358980109783471946e+000
  +1.24827588816703438646e+000
  +1.29370266341448836300e+000
  +1.14520901926754192779e+000
  +1.19118199068369023941e+000
  +1.21246032559817629171e+000
  +1.15806008772953261676e+000
  +1.23920184424176849092e+000
  +1.17475879472313682328e+000
  +1.19512485950514890654e+000
  +1.85824938383292570521e+000
  +1.21265877520775511300e+000
  +1.13950081462203023364e+000
  +1.10266684387130808886e+000
  +1.09275921250505492210e+000
  +1.04099179147727927131e+000
  +1.05321438062380656753e+000
  +1.04882042470590319816e+000
  +1.09165913453602780869e+000
  +1.10777750684321896202e+000
  +1.04947351204831917926e+000
  +1.05445047680123815681e+000
  +1.02497792665117470889e+000
  +1.03917210584910479909e+000
  +1.06154172903554511187e+000
  +1.04318197661655998054e+000
  +1.16425270061124130905e+000
  +1.07334720904710945177e+000
  +1.07636098249286948914e+000
  +1.12087911319536015498e+000
  +1.12561599501919062938e+000
  +1.17370640237832946084e+000
  +1.11513753662832604263e+000
  +1.16264748436511045071e+000
  +1.16517659897353342835e+000
  +1.17168433852239117776e+000
  +1.15878026053746285839e+000
  +1.19999814045464958667e+000
  +1.21300758190799151670e+000
  +1.27294927773445620822e+000
  +1.20098512112122635109e+000
  +1.24110181258183782660e+000
  +1.26048503771053432843e+000
  +1.24878462397962275432e+000
  +1.26305560052431253837e+000
  +1.26490115002225733676e+000
  +1.27519649007942215135e+000
  +1.23025802927900418382e+000
  +1.24379060876851377238e+000
  +1.22737046264503613102e+000
  +1.31190169460645278399e+000
  +1.30510013717293760216e+000
  +1.16209608335196579176e+000
  +1.28772792289729642867e+000
  +1.41717185128561218299e+000
  +1.29987400026554422716e+000
  +1.29750449957064373230e+000
  +1.32408974379037847058e+000
  +1.35340190913906499581e+000
  +1.36340119919664082282e+000
  +1.33701321937373407422e+000
  +1.36525888972916353836e+000
  +1.34733628561589813266e+000
  +1.29806155185131744112e+000
  +1.31221067844113337131e+000
  +1.37125721154397073320e+000
  +1.33989288289826835587e+000
  +1.32992388579002751570e+000
  +1.33893188127683093747e+000
  +1.36056912683554953603e+000
  +1.34408351629297362351e+000
  +1.31474265101070408868e+000
  +1.33555117126808342576e+000
  +1.34113620888994233837e+000
  +1.29241416323022351165e+000
  +1.36228725543904172213e+000
  +1.38265247146116743160e+000
  +1.43507934041284768156e+000
  +1.45577000042455129147e+000
  +1.49541842211164199838e+000
  +1.62589642164382297551e+000
  +1.73356439322451261198e+000
  +1.66416894564790918132e+000
  +1.60947116838176085274e+000
  +1.75883117809896716288e+000
  +1.96058074242168767221e+000
  +1.86956583606130810615e+000
  +1.84774335250032573086e+000
  +1.88552242562841310125e+000
  +1.88778323710818662917e+000
  +1.82370757302611474771e+000
  +1.76550381019318813891e+000
  +2.25456785238706736152e+000
  +1.80109082061485459292e+000
  +1.82003146129378468032e+000
  +1.69961894171625882421e+000
  +1.62482893737034128634e+000
  +1.79873305622324308750e+000
  +1.82360575142862368914e+000
  +1.72848644344842350407e+000
  +1.88719416736856659966e+000
  +1.75697133925878645755e+000
  +1.87477490000750979249e+000
  +1.69642124675778727116e+000
  +1.66812210731065579949e+000
  +1.67346632616376123082e+000
  +1.66735474709036046725e+000
  +1.66551341535432406715e+000
  +1.66342574033932000255e+000
  +1.65682305541901797596e+000
  +1.59389541303728221600e+000
  +1.66082924726707692464e+000
  +1.57698686336873072911e+000
  +1.63252187488753364164e+000
  +1.57720590494782331170e+000
  +1.58643860218470167389e+000
  +1.60478160927071744624e+000
  +1.57099652567358583077e+000
  +1.58710389897302106554e+000
  +1.55692643835001942598e+000
  +1.72727090404180572136e+000
  +1.52617412418674214258e+000
  +1.53776046854098136230e+000
  +1.51998644455478770787e+000
  +1.51707592439431815379e+000
  +1.49424096493158886645e+000
  +1.49507718717806703523e+000
  +1.47438279782407710705e+000
  +1.46510317394507416644e+000
  +1.46392087205863741239e+000
</dep>
<dep S[1,1] frequency>
  +1.12469691980683593469e-002+j9.35687351708821002383e-002
  +1.26031172883577929911e-002+j9.50519818230563667827e-002
