<Qucs Dataset 0.0.19>
<indep OG 1>
  +1.00243505511232999794e+000+j1.45254215263386098661e-019
</indep>
<indep frequency 15>
  +1.00000000000000000000e+006
  +1.27499552668097568676e+006
  +1.62561359305649809539e+006
  +2.07265005925882258452e+006
  +2.64261955393005767837e+006
  +3.36932810998049844056e+006
  +4.29587826814560219646e+006
  +5.47722557505165785551e+006
  +6.98343810681349784136e+006
  +8.90385234704066999257e+006
  +1.13523719127047583461e+007
  +1.44742234059173148125e+007
  +1.84545700947256535292e+007
  +2.35294943175957128406e+007
  +2.99999999999999627471e+007
</indep>
<dep S[2,2] frequency>
  +1.00243505511233021998e+000+j1.09400978472995261498e-018
  +1.00243505511232977589e+000+j5.24648461137816459514e-019
  +1.00243505511232955385e+000+j3.46537587864665599920e-019
  +1.00243505511233066407e+000-j5.67707620047771598322e-019
  +1.00243505511232999794e+000+j3.00567209168230949461e-019
  +1.00243505511232933181e+000+j1.56327914609097936164e-019
  +1.00243505511232933181e+000-j1.37002725685449465709e-019
  +1.00243505511233044203e+000+j4.54375169950465032790e-019
  +1.00243505511232910976e+000+j1.59555132431708800980e-020
  +1.00243505511232933181e+000-j1.43130037421802222679e-019
  +1.00243505511232955385e+000+j7.86934873643947475493e-020
  +1.00243505511233021998e+000-j6.26568938103132935456e-020
  +1.00243505511233066407e+000-j6.97946717998585744955e-022
  +1.00243505511233110816e+000+j1.00065791676714317003e-019
  +1.00243505511233021998e+000+j1.88275328896182528772e-020
</dep>
<dep S[2,1] frequency>
  -2.43505511233021998407e-003-j1.09400978472995261498e-018
  -2.43505511232977589486e-003-j5.24648461137816459514e-019
  -2.43505511232966487256e-003-j3.46537587864665599920e-019
  -2.43505511233077509559e-003+j5.67707620047771598322e-019
  -2.43505511232999793947e-003-j3.00567209168230949461e-019
  -2.43505511232944282796e-003-j1.56327914609097936164e-019
  -2.43505511232933180565e-003+j1.37002725685449465709e-019
  -2.43505511233055305098e-003-j4.54375169950465032790e-019
  -2.43505511232922078335e-003-j1.59555132431708800980e-020
  -2.43505511232933180565e-003+j1.43130037421802222679e-019
  -2.43505511232955385026e-003-j7.86934873643947475493e-020
  -2.43505511233021998407e-003+j6.26568938103132935456e-020
  -2.43505511233077509559e-003+j6.97946717998585744955e-022
  -2.43505511233121918480e-003-j1.00065791676714317003e-019
  -2.43505511233021998407e-003-j1.88275328896182528772e-020
</dep>
<dep S[1,2] frequency>
  -2.43505511233021998407e-003-j1.09400978472995261498e-018
  -2.43505511232977589486e-003-j5.24648461137816459514e-019
  -2.43505511232966487256e-003-j3.46537587864665599920e-019
  -2.43505511233077509559e-003+j5.67707620047771598322e-019
  -2.43505511232999793947e-003-j3.00567209168230949461e-019
  -2.43505511232944282796e-003-j1.56327914609097936164e-019
  -2.43505511232933180565e-003+j1.37002725685449465709e-019
  -2.43505511233055305098e-003-j4.54375169950465032790e-019
  -2.43505511232922078335e-003-j1.59555132431708800980e-020
  -2.43505511232933180565e-003+j1.43130037421802222679e-019
  -2.43505511232955385026e-003-j7.86934873643947475493e-020
  -2.43505511233021998407e-003+j6.26568938103132935456e-020
  -2.43505511233077509559e-003+j6.97946717998585744955e-022
  -2.43505511233121918480e-003-j1.00065791676714317003e-019
  -2.43505511233021998407e-003-j1.88275328896182528772e-020
</dep>
<dep S[1,1] frequency>
  +1.00243505511233021998e+000+j1.09400978472995261498e-018
  +1.00243505511232977589e+000+j5.24648461137816459514e-019
  +1.00243505511232955385e+000+j3.46537587864665599920e-019
  +1.00243505511233066407e+000-j5.67707620047771598322e-019
  +1.00243505511232999794e+000+j3.00567209168230949461e-019
  +1.00243505511232933181e+000+j1.56327914609097936164e-019
  +1.00243505511232933181e+000-j1.37002725685449465709e-019
  +1.00243505511233044203e+000+j4.54375169950465032790e-019
  +1.00243505511232910976e+000+j1.59555132431708800980e-020
  +1.00243505511232933181e+000-j1.43130037421802222679e-019
  +1.00243505511232955385e+000+j7.86934873643947475493e-020
  +1.00243505511233021998e+000-j6.26568938103132935456e-020
  +1.00243505511233066407e+000-j6.97946717998585744955e-022
  +1.00243505511233110816e+000+j1.00065791676714317003e-019
  +1.00243505511233021998e+000+j1.88275328896182528772e-020
</dep>
<indep FloatL_NIC.NIC1.T1.Ccs 1>
  +0.00000000000000000000e+000
</indep>
<indep FloatL_NIC.NIC1.T1.Ice 1>
  +7.72220943978933855255e-006
</indep>
<indep FloatL_NIC.NIC1.T1.Cbci 1>
  +0.00000000000000000000e+000
</indep>
<indep FloatL_NIC.NIC1.T1.Vbc 1>
  +0.00000000000000000000e+000
</indep>
<indep FloatL_NIC.NIC1.T1.Cbe 1>
  +0.00000000000000000000e+000
</indep>
<indep FloatL_NIC.NIC1.T1.Vcs 1>
  +0.00000000000000000000e+000
</indep>
<indep FloatL_NIC.NIC1.T1.Ibe 1>
  +7.72220943978933812904e-008
</indep>
<indep FloatL_NIC.NIC1.T1.Vce 1>
  +6.48109136433123178556e-001
</indep>
<indep FloatL_NIC.NIC1.T1.Vbe 1>
  +6.48109136433123178556e-001
</indep>
<indep FloatL_NIC.NIC1.T1.gmr 1>
  -3.86816818967867982643e-015
</indep>
<indep FloatL_NIC.NIC1.T1.Rbb 1>
  +0.00000000000000000000e+000
</indep>
<indep FloatL_NIC.NIC1.T1.Cbcx 1>
  +0.00000000000000000000e+000
</indep>
<indep FloatL_NIC.NIC1.T1.gpi 1>
  +2.98708049094163542476e-006
</indep>
<indep FloatL_NIC.NIC1.T1.go 1>
  +3.86816818967867982643e-015
</indep>
<indep FloatL_NIC.NIC1.T1.gm 1>
  +2.98708049090295373398e-004
</indep>
<indep FloatL_NIC.NIC1.T1.gmf 1>
  +2.98708049094163535699e-004
</indep>
<indep FloatL_NIC.NIC1.T1.gmu 1>
  +3.86816818967867982643e-015
</indep>
<indep FloatL_NIC.NIC1.T2.Ccs 1>
  +0.00000000000000000000e+000
</indep>
<indep FloatL_NIC.NIC1.T2.Ice 1>
  +9.04237892451410840700e-001
</indep>
<indep FloatL_NIC.NIC1.T2.Cbci 1>
  +0.00000000000000000000e+000
</indep>
<indep FloatL_NIC.NIC1.T2.Vbc 1>
  -9.05017835604728304588e+000
</indep>
<indep FloatL_NIC.NIC1.T2.Cbe 1>
  +0.00000000000000000000e+000
</indep>
<indep FloatL_NIC.NIC1.T2.Vcs 1>
  +0.00000000000000000000e+000
</indep>
<indep FloatL_NIC.NIC1.T2.Ibe 1>
  +9.04237892451410785188e-003
</indep>
<indep FloatL_NIC.NIC1.T2.Vce 1>
  +1.00000000000000000000e+001
</indep>
<indep FloatL_NIC.NIC1.T2.Vbe 1>
  +9.49821643952716843096e-001
</indep>
<indep FloatL_NIC.NIC1.T2.gmr 1>
  -1.03862069825212379660e-024
</indep>
<indep FloatL_NIC.NIC1.T2.Rbb 1>
  +0.00000000000000000000e+000
</indep>
<indep FloatL_NIC.NIC1.T2.Cbcx 1>
  +0.00000000000000000000e+000
</indep>
<indep FloatL_NIC.NIC1.T2.gpi 1>
  +3.49774425148263845564e-001
</indep>
<indep FloatL_NIC.NIC1.T2.go 1>
  +1.03862069825212379660e-024
</indep>
<indep FloatL_NIC.NIC1.T2.gm 1>
  +3.49774425148263858887e+001
</indep>
<indep FloatL_NIC.NIC1.T2.gmf 1>
  +3.49774425148263858887e+001
</indep>
<indep FloatL_NIC.NIC1.T2.gmu 1>
  +1.00000001038620699871e-016
</indep>
<indep FloatL_NIC.NIC1.V1.I 1>
  -9.13288070807465546253e-001
</indep>
<indep FloatL_NIC.NIC1.Tr1.I2 1>
  -9.05017835604728440591e-003
</indep>
<indep FloatL_NIC.NIC1.Tr1.I1 1>
  +9.04237892451418168172e-001
</indep>
<indep FloatL_NIC.NIC1.Tr2.I2 1>
  +9.13280271375930929878e-001
</indep>
<indep FloatL_NIC.NIC1.Tr2.I1 1>
  +0.00000000000000000000e+000
</indep>
<indep _net2.V 1>
  +3.01712507519593664540e-001
</indep>
<indep _net0.V 1>
  +0.00000000000000000000e+000
</indep>
<indep _net1.V 1>
  +0.00000000000000000000e+000
</indep>
<indep FloatL_NIC.NIC1._net0.V 1>
  +9.49821643952716843096e-001
</indep>
<indep FloatL_NIC.NIC1._net1.V 1>
  +1.00000000000000000000e+001
</indep>
<indep FloatL_NIC.NIC1._net2.V 1>
  +5.16978089027189668947e-017
</indep>
<indep FloatL_NIC.NIC1._net6.V 1>
  +1.00000000000000000000e+001
</indep>
<indep FloatL_NIC.NIC1._net7.V 1>
  +9.49821643952716843096e-001
</indep>
