<Qucs Dataset 0.0.19>
<indep OG 1>
  +2.12483700340055170486e+000
</indep>
<indep Tr3 1>
  +1.00000000000000000000e+000
</indep>
<indep Zin 1>
  +4.98622900000000015552e+001
</indep>
<indep frequency 30>
  +1.00000000000000000000e+006
  +2.00000000000000000000e+006
  +3.00000000000000000000e+006
  +4.00000000000000000000e+006
  +5.00000000000000000000e+006
  +6.00000000000000000000e+006
  +7.00000000000000000000e+006
  +8.00000000000000000000e+006
  +9.00000000000000000000e+006
  +1.00000000000000000000e+007
  +1.10000000000000000000e+007
  +1.20000000000000000000e+007
  +1.30000000000000000000e+007
  +1.40000000000000000000e+007
  +1.50000000000000000000e+007
  +1.60000000000000000000e+007
  +1.70000000000000000000e+007
  +1.80000000000000000000e+007
  +1.90000000000000000000e+007
  +2.00000000000000000000e+007
  +2.10000000000000000000e+007
  +2.20000000000000000000e+007
  +2.30000000000000000000e+007
  +2.40000000000000000000e+007
  +2.50000000000000000000e+007
  +2.60000000000000000000e+007
  +2.70000000000000000000e+007
  +2.80000000000000000000e+007
  +2.90000000000000000000e+007
  +3.00000000000000000000e+007
</indep>
<dep VSWR frequency>
  -1.16962680564815313389e+000
  -1.18636532467712330075e+000
  -1.21203577891888314433e+000
  -1.24465871754932488891e+000
  -1.28274489607832165028e+000
  -1.32532707790559167726e+000
  -1.37182937685559824814e+000
  -1.42193946557067896208e+000
  -1.47551953712527228468e+000
  -1.53255058059190973907e+000
  -1.59309892663208607644e+000
  -1.65729669316403338541e+000
  -1.72533085789422835354e+000
  -1.79743783278027802197e+000
  -1.87390173596622799934e+000
  -1.95505534566337080271e+000
  -2.04128319829747217895e+000
  -2.13302659624482604528e+000
  -2.23079049893279757200e+000
  -2.33515243285254436856e+000
  -2.44677370145308747951e+000
  -2.56641332665945309799e+000
  -2.69494532848779355660e+000
  -2.83338016734376374473e+000
  -2.98289145881572492769e+000
  -3.14484945509852931167e+000
  -3.32086331622700070554e+000
  -3.51283493538247570953e+000
  -3.72302813744192784284e+000
  -3.95415859575807582260e+000
</dep>
<dep Gain frequency>
  +1.63599174691298600237e+002
  +1.37630675463537698988e+002
  +1.08834351688949567460e+002
  +8.41742487161514247873e+001
  +6.51816294024700653154e+001
  +5.10890318857507779171e+001
  +4.06892317515782124815e+001
  +3.29477886365197036866e+001
  +2.71016658524118874141e+001
  +2.26148926672882808475e+001
  +1.91154222004371519006e+001
  +1.63439565632954106889e+001
  +1.41177718411042683044e+001
  +1.23062920092445615694e+001
  +1.08148033110054999639e+001
  +9.57357533168750052255e+000
  +8.53052978402357631182e+000
  +7.64624050739551641698e+000
  +6.89047758006938160236e+000
  +6.23978568325117155524e+000
  +5.67576400788804047437e+000
  +5.18382831144868916340e+000
  +4.75230871371578533768e+000
  +4.37178429057364503763e+000
  +4.03458675372848762919e+000
  +3.73442629714324869639e+000
  +3.46610670481196070369e+000
  +3.22530637389575236540e+000
  +3.00840850510789792338e+000
  +2.81236831802418807413e+000
</dep>
<dep S[1,1] frequency>
  -9.09864114754012298647e-001-j1.53803348141949118577e-002
  -9.15645402077737480262e-001-j1.90132109719259694003e-002
  -9.22044322017066764197e-001-j2.11174018120672199461e-002
  -9.27524051377504155091e-001-j2.13472073571947668080e-002
  -9.31745750507542047636e-001-j2.05647340252054049159e-002
  -9.34880120988742735477e-001-j1.93857406919177507887e-002
  -9.37195321954756188632e-001-j1.81279680693358924426e-002
  -9.38921088453720353861e-001-j1.69317676319126614315e-002
  -9.40226869369372386664e-001-j1.58492586396402138083e-002
  -9.41231684753968678159e-001-j1.48922449479438352010e-002
  -9.42018151207114406986e-001-j1.40554606840367496412e-002
  -9.42643847258624267837e-001-j1.33273382158115988316e-002
  -9.43149346969172297506e-001-j1.26948172258212581276e-002
  -9.43563644213014751649e-001-j1.21453733877915828060e-002
  -9.43907769151340891867e-001-j1.16677703761558556467e-002
  -9.44197204038573878471e-001-j1.12522402111193912250e-002
  -9.44443511201162655411e-001-j1.08904210664760060789e-002
  -9.44655443338241695983e-001-j1.05752047921369163319e-002
  -9.44839710933455756425e-001-j1.03005629247618791383e-002
  -9.45001520000193773186e-001-j1.00613805681487901433e-002
  -9.45144954042478335765e-001-j9.85330910087166278455e-003
  -9.45273248950208033747e-001-j9.67264026895328643540e-003
  -9.45388993340801842002e-001-j9.51620061169616143770e-003
  -9.45494276318046278362e-001-j9.38126382398901670356e-003
  -9.45590797684193518080e-001-j9.26547835454001947331e-003
  -9.45679951024131160153e-001-j9.16680768494955965087e-003
  -9.45762886968491089945e-001-j9.08348104664608024805e-003
  -9.45840561819883407502e-001-j9.01395268094302981599e-003
  -9.45913775261244871295e-001-j8.95686807510977234248e-003
  -9.45983199842633459831e-001-j8.91103589366861945087e-003
</dep>
<dep S[1,2] frequency>
  -1.28933186466578288132e-003+j1.35044315661241032256e-003
  -4.47680360926241364267e-004+j2.27152906071079012384e-003
  +4.85483121679669527796e-004+j2.68374330240909010972e-003
  +1.28442568427438114434e-003+j2.75089461966505086435e-003
  +1.89951095113117130603e-003+j2.64170196938202277506e-003
  +2.35561847791685265510e-003+j2.46034913832060466582e-003
  +2.69188322270694961949e-003+j2.25934869277867990747e-003
  +2.94183889068470004469e-003+j2.06225469088587749777e-003
  +3.13022105707729805454e-003+j1.87837950305109221798e-003
  +3.27440449118276358936e-003+j1.71046952335950422364e-003
  +3.38645004665159756602e-003+j1.55840805209486515590e-003
  +3.47476360325837691639e-003+j1.42094193293988268340e-003
  +3.54526875589679596815e-003+j1.29646688541638368218e-003
  +3.60219863686279777315e-003+j1.18337124457766271202e-003
  +3.64862384798317817766e-003+j1.08017428975788797388e-003
  +3.68680512340783823194e-003+j9.85570411715012409046e-004
  +3.71843098596267131531e-003+j8.98431575268123817912e-004
  +3.74477983238036314997e-003+j8.17792753430754003514e-004
  +3.76683196290465618222e-003+j7.42831790922859110798e-004
  +3.78534808348507043063e-003+j6.72848837064495496584e-004
  +3.80092506600888122362e-003+j6.07247474267932321919e-004
  +3.81403607864286590609e-003+j5.45518250599568484821e-004
  +3.82505983249736662699e-003+j4.87224681360119823894e-004
  +3.83430215199110843716e-003+j4.31991515463978471932e-004
  +3.84201206393991858204e-003+j3.79494971419564439997e-004
  +3.84839392635638859880e-003+j3.29454638469390171003e-004
  +3.85361666365173797730e-003+j2.81626763693965803670e-004
  +3.85782086505341353586e-003+j2.35798682934720772904e-004
  +3.86112428915536378196e-003+j1.91784191712975049787e-004
  +3.86362616822767852842e-003+j1.49419687466396933478e-004
</dep>
<dep S[2,1] frequency>
  -1.23802803615951759753e+001+j3.21369458094564741657e+000
  -1.03862299609805166511e+001+j5.45498878653002616801e+000
  -8.17504372645330334990e+000+j6.48097305653449407004e+000
  -6.28147211785943770934e+000+j6.68710376386563076778e+000
  -4.82309682212400048229e+000+j6.47451669600808443761e+000
  -3.74098634217973868843e+000+j6.09048873846553018296e+000
  -2.94244094261809685520e+000+j5.65961774776202908299e+000
  -2.34802854557764595356e+000+j5.23780016664173864172e+000
  -1.89915747928908440478e+000+j4.84715037122557390603e+000
  -1.55467189501073033142e+000+j4.49420604402513212960e+000
  -1.28600324335819937716e+000+j4.17871007112354586610e+000
  -1.07324068558314689170e+000+j3.89770586295380061514e+000
  -9.02353304950758494662e-001+j3.64740049270006938542e+000
  -7.63314489263527851115e-001+j3.42398057817577594619e+000
  -6.48851398934131351481e-001+j3.22394093821625693508e+000
  -5.53609601661028793984e-001+j3.04418983321280745002e+000
  -4.73590126924973930933e-001+j2.88205519997496972806e+000
  -4.05765528523542140515e-001+j2.73525041691935877353e+000
  -3.47814515656522438292e-001+j2.60182678953999557692e+000
  -2.97936001604469258286e-001+j2.48012496100481039107e+000
  -2.54717022108187363116e-001+j2.36873030261707429034e+000
  -2.17037676831140502465e-001+j2.26643397395212664591e+000
  -1.84001851375286545887e-001+j2.17219981410694629176e+000
  -1.54886122418771560172e-001+j2.08513658537174073615e+000
  -1.29101646536795122699e-001+j2.00447487352422948348e+000
  -1.06165429896970503476e-001+j1.92954792597593693948e+000
  -8.56784521083246985995e-002+j1.85977576811192002459e+000
  -6.73088515451514268761e-002+j1.79465202543541146873e+000
  -5.07788861002021474356e-002+j1.73373296958739286922e+000
  -3.58547369888733355459e-002+j1.67662838931578606072e+000
</dep>
<dep S[2,2] frequency>
  +8.62534508786961584548e-001-j4.75306359767778185965e-001
  +5.71403994166668205423e-001-j7.99737253307793549695e-001
  +2.48583250001093714054e-001-j9.48723596070512598111e-001
  -2.78680814278454702659e-002-j9.78513241601041250384e-001
  -2.40785217137872598059e-001-j9.47371574791597281795e-001
  -3.98771955164055169618e-001-j8.91299923492005263803e-001
  -5.15361786610377792250e-001-j8.28446084931684034736e-001
  -6.02151176729666115506e-001-j7.66949240907729756778e-001
  -6.67694042394846420940e-001-j7.10026103310190337403e-001
  -7.17998805251905514169e-001-j6.58624031800816522875e-001
  -7.57236240846299701879e-001-j6.12700974429280065259e-001
  -7.88313168165065136783e-001-j5.71822278731190292156e-001
  -8.13277984800081954475e-001-j5.35432117373879190581e-001
  -8.33594492099416828346e-001-j5.02972270366956020204e-001
  -8.50324462764923461044e-001-j4.73929908303660774038e-001
  -8.64249597440288730432e-001-j4.47852832940020872954e-001
  -8.75953710194138368550e-001-j4.24350307414495309111e-001
  -8.85878780273988475358e-001-j4.03088004904524288552e-001
  -8.94363693811298765546e-001-j3.83781035400887426956e-001
  -9.01671391201995131581e-001-j3.66186826509710683375e-001
  -9.08008149948253739936e-001-j3.50098592581989720429e-001
  -9.13537462431317726086e-001-j3.35339636546126806937e-001
  -9.18390149933433819207e-001-j3.21758506497161922422e-001
  -9.22671822072184899532e-001-j3.09224936147883822102e-001
  -9.26468440722986064095e-001-j2.97626466874141848429e-001
  -9.29850514410474726645e-001-j2.86865645944357650077e-001
  -9.32876292049459876488e-001-j2.76857704293981321531e-001
  -9.35594217751916645831e-001-j2.67528630041934167849e-001
  -9.38044834452186115925e-001-j2.58813567218201534548e-001
  -9.40262272470006599256e-001-j2.50655481335875451876e-001
</dep>
<indep VCC.I 1>
  -6.72109235217498938303e-003
</indep>
<indep Vb.V 1>
  +1.09486205233616229471e+000
</indep>
<indep _net2.V 1>
  +4.70000000000000017764e+000
</indep>
<indep Ve.V 1>
  +4.42559796737052368876e-001
</indep>
<indep _net1.V 1>
  +1.09486205233616229471e+000
</indep>
<indep _net0.V 1>
  +4.42559796737052368876e-001
</indep>
<indep _net3.V 1>
  +4.70000000000000017764e+000
</indep>
<indep _net4.V 1>
  +0.00000000000000000000e+000
</indep>
<indep Vin.V 1>
  +0.00000000000000000000e+000
</indep>
