<Qucs Dataset 0.0.19>
<indep frequency 199>
  +1.00000000000000000000e+006
  +1.50000000000000000000e+006
  +2.00000000000000000000e+006
  +2.50000000000000000000e+006
  +3.00000000000000000000e+006
  +3.50000000000000000000e+006
  +4.00000000000000000000e+006
  +4.50000000000000000000e+006
  +5.00000000000000000000e+006
  +5.50000000000000000000e+006
  +6.00000000000000000000e+006
  +6.50000000000000000000e+006
  +7.00000000000000000000e+006
  +7.50000000000000000000e+006
  +8.00000000000000000000e+006
  +8.50000000000000000000e+006
  +9.00000000000000000000e+006
  +9.50000000000000000000e+006
  +1.00000000000000000000e+007
  +1.05000000000000000000e+007
  +1.10000000000000000000e+007
  +1.15000000000000000000e+007
  +1.20000000000000000000e+007
  +1.25000000000000000000e+007
  +1.30000000000000000000e+007
  +1.35000000000000000000e+007
  +1.40000000000000000000e+007
  +1.45000000000000000000e+007
  +1.50000000000000000000e+007
  +1.55000000000000000000e+007
  +1.60000000000000000000e+007
  +1.65000000000000000000e+007
  +1.70000000000000000000e+007
  +1.75000000000000000000e+007
  +1.80000000000000000000e+007
  +1.85000000000000000000e+007
  +1.90000000000000000000e+007
  +1.95000000000000000000e+007
  +2.00000000000000000000e+007
  +2.05000000000000000000e+007
  +2.10000000000000000000e+007
  +2.15000000000000000000e+007
  +2.20000000000000000000e+007
  +2.25000000000000000000e+007
  +2.30000000000000000000e+007
  +2.35000000000000000000e+007
  +2.40000000000000000000e+007
  +2.45000000000000000000e+007
  +2.50000000000000000000e+007
  +2.55000000000000000000e+007
  +2.60000000000000000000e+007
  +2.65000000000000000000e+007
  +2.70000000000000000000e+007
  +2.75000000000000000000e+007
  +2.80000000000000000000e+007
  +2.85000000000000000000e+007
  +2.90000000000000000000e+007
  +2.95000000000000000000e+007
  +3.00000000000000000000e+007
  +3.05000000000000000000e+007
  +3.10000000000000000000e+007
  +3.15000000000000000000e+007
  +3.20000000000000000000e+007
  +3.25000000000000000000e+007
  +3.30000000000000000000e+007
  +3.35000000000000000000e+007
  +3.40000000000000000000e+007
  +3.45000000000000000000e+007
  +3.50000000000000000000e+007
  +3.55000000000000000000e+007
  +3.60000000000000000000e+007
  +3.65000000000000000000e+007
  +3.70000000000000000000e+007
  +3.75000000000000000000e+007
  +3.80000000000000000000e+007
  +3.85000000000000000000e+007
  +3.90000000000000000000e+007
  +3.95000000000000000000e+007
  +4.00000000000000000000e+007
  +4.05000000000000000000e+007
  +4.10000000000000000000e+007
  +4.15000000000000000000e+007
  +4.20000000000000000000e+007
  +4.25000000000000000000e+007
  +4.30000000000000000000e+007
  +4.35000000000000000000e+007
  +4.40000000000000000000e+007
  +4.45000000000000000000e+007
  +4.50000000000000000000e+007
  +4.55000000000000000000e+007
  +4.60000000000000000000e+007
  +4.65000000000000000000e+007
  +4.70000000000000000000e+007
  +4.75000000000000000000e+007
  +4.80000000000000000000e+007
  +4.85000000000000000000e+007
  +4.90000000000000000000e+007
  +4.95000000000000000000e+007
  +5.00000000000000000000e+007
  +5.05000000000000000000e+007
  +5.10000000000000000000e+007
  +5.15000000000000000000e+007
  +5.20000000000000000000e+007
  +5.25000000000000000000e+007
  +5.30000000000000000000e+007
  +5.35000000000000000000e+007
  +5.40000000000000000000e+007
  +5.45000000000000000000e+007
  +5.50000000000000000000e+007
  +5.55000000000000000000e+007
  +5.60000000000000000000e+007
  +5.65000000000000000000e+007
  +5.70000000000000000000e+007
  +5.75000000000000000000e+007
  +5.80000000000000000000e+007
  +5.85000000000000000000e+007
  +5.90000000000000000000e+007
  +5.95000000000000000000e+007
  +6.00000000000000000000e+007
  +6.05000000000000000000e+007
  +6.10000000000000000000e+007
  +6.15000000000000000000e+007
  +6.20000000000000000000e+007
  +6.25000000000000000000e+007
  +6.30000000000000000000e+007
  +6.35000000000000000000e+007
  +6.40000000000000000000e+007
  +6.45000000000000000000e+007
  +6.50000000000000000000e+007
  +6.55000000000000000000e+007
  +6.60000000000000000000e+007
  +6.65000000000000000000e+007
  +6.70000000000000000000e+007
  +6.75000000000000000000e+007
  +6.80000000000000000000e+007
  +6.85000000000000000000e+007
  +6.90000000000000000000e+007
  +6.95000000000000000000e+007
  +7.00000000000000000000e+007
  +7.05000000000000000000e+007
  +7.10000000000000000000e+007
  +7.15000000000000000000e+007
  +7.20000000000000000000e+007
  +7.25000000000000000000e+007
  +7.30000000000000000000e+007
  +7.35000000000000000000e+007
  +7.40000000000000000000e+007
  +7.45000000000000000000e+007
  +7.50000000000000000000e+007
  +7.55000000000000000000e+007
  +7.60000000000000000000e+007
  +7.65000000000000000000e+007
  +7.70000000000000000000e+007
  +7.75000000000000000000e+007
  +7.80000000000000000000e+007
  +7.85000000000000000000e+007
  +7.90000000000000000000e+007
  +7.95000000000000000000e+007
  +8.00000000000000000000e+007
  +8.05000000000000000000e+007
  +8.10000000000000000000e+007
  +8.15000000000000000000e+007
  +8.20000000000000000000e+007
  +8.25000000000000000000e+007
  +8.30000000000000000000e+007
  +8.35000000000000000000e+007
  +8.40000000000000000000e+007
  +8.45000000000000000000e+007
  +8.50000000000000000000e+007
  +8.55000000000000000000e+007
  +8.60000000000000000000e+007
  +8.65000000000000000000e+007
  +8.70000000000000000000e+007
  +8.75000000000000000000e+007
  +8.80000000000000000000e+007
  +8.85000000000000000000e+007
  +8.90000000000000000000e+007
  +8.95000000000000000000e+007
  +9.00000000000000000000e+007
  +9.05000000000000000000e+007
  +9.10000000000000000000e+007
  +9.15000000000000000000e+007
  +9.20000000000000000000e+007
  +9.25000000000000000000e+007
  +9.30000000000000000000e+007
  +9.35000000000000000000e+007
  +9.40000000000000000000e+007
  +9.45000000000000000000e+007
  +9.50000000000000000000e+007
  +9.55000000000000000000e+007
  +9.60000000000000000000e+007
  +9.65000000000000000000e+007
  +9.70000000000000000000e+007
  +9.75000000000000000000e+007
  +9.80000000000000000000e+007
  +9.85000000000000000000e+007
  +9.90000000000000000000e+007
  +9.95000000000000000000e+007
  +1.00000000000000000000e+008
</indep>
<dep S[1,1] frequency>
  +9.85882360827192938402e-001+j1.17975978220116795026e-001
  +9.93675892888591816288e-001+j7.92723960824421869376e-002
  +9.96432820087647885821e-001+j5.96192514195287293077e-002
  +9.97714069298706318634e-001+j4.77567296003665875403e-002
  +9.98411438547564089596e-001+j3.98250916502093099680e-002
  +9.98832401536478897697e-001+j3.41501856122189972886e-002
  +9.99105812726752806618e-001+j2.98895918735541665789e-002
  +9.99293349044212408927e-001+j2.65735131327052842565e-002
  +9.99427535864669813748e-001+j2.39193733225586124824e-002
  +9.99526842134569548648e-001+j2.17470454789814027219e-002
  +9.99602385911079971414e-001+j1.99362983514035640997e-002
  +9.99661184634624055967e-001+j1.84038194276114064341e-002
  +9.99707844543923362934e-001+j1.70900585506884583609e-002
  +9.99745490552336191215e-001+j1.59513219704497111184e-002
  +9.99776303161538648645e-001+j1.49548252475845966369e-002
  +9.99801841337534469289e-001+j1.40754891783500535318e-002
  +9.99823243582234288951e-001+j1.32938021248358018145e-002
  +9.99841357016955312176e-001+j1.25943564920425188358e-002
  +9.99856822493176755628e-001+j1.19648237356349551597e-002
  +9.99870132051949300767e-001+j1.13952219094889950490e-002
  +9.99881668541547141693e-001+j1.08773827789035715252e-002
  +9.99891733454817743798e-001+j1.04045578251754089472e-002
  +9.99900566825746794919e-001+j9.97112266984369333134e-003
  +9.99908361672235734829e-001+j9.57235238490555806479e-003
  +9.99915274628962791326e-001+j9.20424861944996175467e-003
  +9.99921433877067222795e-001+j8.86340511863385749347e-003
  +9.99926945128446376110e-001+j8.54690204339261794253e-003
  +9.99931896191568414523e-001+j8.25222214333107273454e-003
  +9.99936360490441877857e-001+j7.97718368668538790889e-003
  +9.99940399802319412892e-001+j7.71988636555059892785e-003
  +9.99944066406258658120e-001+j7.47866733947211148603e-003
  +9.99947404783093962699e-001+j7.25206526785790450695e-003
  +9.99950452970753689286e-001+j7.03879068718599176790e-003
  +9.99953243652525358698e-001+j6.83770146457889083091e-003
  +9.99955805036750966508e-001+j6.64778234106243315349e-003
  +9.99958161572424342189e-001+j6.46812779107235058529e-003
  +9.99960334534752859348e-001+j6.29792758753586201514e-003
  +9.99962342507014101400e-001+j6.13645458707315349933e-003
  +9.99964201779169115092e-001+j5.98305434692091020477e-003
  +9.99965926679280081579e-001+j5.83713626093801396522e-003
  +9.99967529850363634480e-001+j5.69816596158531640803e-003
  +9.99969022482717573297e-001+j5.56565878184629714287e-003
  +9.99970414509716132301e-001+j5.43917410850555671509e-003
  +9.99971714773497222239e-001+j5.31831048816311380278e-003
  +9.99972931165717282553e-001+j5.20270137146504330072e-003
  +9.99974070747570609186e-001+j5.09201140051833422984e-003
  +9.99975139852494199211e-001+j4.98593316029241617748e-003
  +9.99976144174352210570e-001+j4.88418432773737171138e-003
  +9.99977088843403860707e-001+j4.78650516294950451046e-003
  +9.99977978491946029038e-001+j4.69265629544550477714e-003
  +9.99978817311207190954e-001+j4.60241676582608810753e-003
  +9.99979609100801525301e-001+j4.51558228910466097350e-003
  +9.99980357311829548550e-001+j4.43196371097125119132e-003
  +9.99981065084546427713e-001+j4.35138563244029386023e-003
  +9.99981735281366468371e-001+j4.27368518183782880593e-003
  +9.99982370515844598557e-001+j4.19871091603608165288e-003
  +9.99982973178198397690e-001+j4.12632183533940405384e-003
  +9.99983545457822420310e-001+j4.05638649853884425411e-003
  +9.99984089363201600342e-001+j3.98878222645115965150e-003
  +9.99984606739556802779e-001+j3.92339438378912219729e-003
  +9.99985099284515288609e-001+j3.86011573052074535850e-003
  +9.99985568562055671116e-001+j3.79884583499726091738e-003
  +9.99986016014933420948e-001+j3.73949054209464504250e-003
  +9.99986442975790090770e-001+j3.68196149044484888346e-003
  +9.99986850677079708305e-001+j3.62617567355102282667e-003
  +9.99987240259978649171e-001+j3.57205504020196434878e-003
  +9.99987612782376023013e-001+j3.51952613014108045553e-003
  +9.99987969226063477812e-001+j3.46851974141339919333e-003
  +9.99988310503212685099e-001+j3.41897062622339292792e-003
  +9.99988637462212559548e-001+j3.37081721249264665285e-003
  +9.99988950892951589111e-001+j3.32400134861929319463e-003
  +9.99989251531589684596e-001+j3.27846806921448102878e-003
  +9.99989540064885717996e-001+j3.23416537983169105619e-003
  +9.99989817134123271103e-001+j3.19104405891641740300e-003
  +9.99990083338676338798e-001+j3.14905747539031416471e-003
  +9.99990339239253955839e-001+j3.10816142044856302817e-003
  +9.99990585360854611352e-001+j3.06831395229493347765e-003
  +9.99990822195461426247e-001+j3.02947525266843847858e-003
  +9.99991050204501963350e-001+j2.99160749412974436012e-003
  +9.99991269821099648674e-001+j2.95467471717755780780e-003
  +9.99991481452128572194e-001+j2.91864271635601524313e-003
  +9.99991685480102199257e-001+j2.88347893459469512001e-003
  +9.99991882264902987032e-001+j2.84915236509537816989e-003
  +9.99992072145367005831e-001+j2.81563346014404580764e-003
  +9.99992255440748989415e-001+j2.78289404628447034629e-003
  +9.99992432452059820669e-001+j2.75090724534152175629e-003
  +9.99992603463306317657e-001+j2.71964740082910466645e-003
  +9.99992768742630544487e-001+j2.68909000931891878361e-003
  +9.99992928543361081495e-001+j2.65921165638456635794e-003
  +9.99993083104983804255e-001+j2.62998995676878150052e-003
  +9.99993232654041275254e-001+j2.60140349845267015993e-003
  +9.99993377404961636401e-001+j2.57343179033323044003e-003
  +9.99993517560828881763e-001+j2.54605521324040989795e-003
  +9.99993653314095398699e-001+j2.51925497404767093079e-003
  +9.99993784847241218294e-001+j2.49301306265055366840e-003
  +9.99993912333390744251e-001+j2.46731221160627345323e-003
  +9.99994035936879854809e-001+j2.44213585824411966163e-003
  +9.99994155813787033438e-001+j2.41746810907224676801e-003
  +9.99994272112426529908e-001+j2.39329370631992041640e-003
  +9.99994384973806549333e-001+j2.36959799646722230060e-003
  +9.99994494532057465186e-001+j2.34636690062595479334e-003
  +9.99994600914830167326e-001+j2.32358688664577317518e-003
  +9.99994704243667764665e-001+j2.30124494282963470981e-003
  +9.99994804634354861328e-001+j2.27932855315104640481e-003
  +9.99994902197238633157e-001+j2.25782567387412813620e-003
  +9.99994997037535471307e-001+j2.23672471148463405943e-003
  +9.99995089255611979695e-001+j2.21601450184700024537e-003
  +9.99995178947253759993e-001+j2.19568429050865168706e-003
  +9.99995266203911103986e-001+j2.17572371407858192183e-003
  +9.99995351112934138804e-001+j2.15612278261246778643e-003
  +9.99995433757790430640e-001+j2.13687186294141129306e-003
  +9.99995514218272263385e-001+j2.11796166288588313953e-003
  +9.99995592570685376543e-001+j2.09938321630040447552e-003
  +9.99995668888034927591e-001+j2.08112786889855586048e-003
  +9.99995743240190360090e-001+j2.06318726481112199589e-003
  +9.99995815694050049771e-001+j2.04555333383355311683e-003
  +9.99995886313688964186e-001+j2.02821827932183826326e-003
  +9.99995955160501548420e-001+j2.01117456669861610630e-003
  +9.99996022293334396736e-001+j1.99441491253405170370e-003
  +9.99996087768613373115e-001+j1.97793227416804412444e-003
  +9.99996151640459851606e-001+j1.96171983984286604774e-003
  +9.99996213960806179522e-001+j1.94577101931710585991e-003
  +9.99996274779497373864e-001+j1.93007943493376382671e-003
  +9.99996334144394039001e-001+j1.91463891311705741716e-003
  +9.99996392101463404956e-001+j1.89944347627412496449e-003
  +9.99996448694872253071e-001+j1.88448733507938850917e-003
  +9.99996503967066963092e-001+j1.86976488112045383105e-003
  +9.99996557958856779891e-001+j1.85527067988614305372e-003
  +9.99996610709486088986e-001+j1.84099946407815726057e-003
  +9.99996662256707691263e-001+j1.82694612722896984613e-003
  +9.99996712636849749423e-001+j1.81310571760993910484e-003
  +9.99996761884880625004e-001+j1.79947343241413162951e-003
  +9.99996810034467276118e-001+j1.78604461219967342034e-003
  +9.99996857118035653578e-001+j1.77281473558001112512e-003
  +9.99996903166822992404e-001+j1.75977941414846503210e-003
  +9.99996948210931990708e-001+j1.74693438762504524298e-003
  +9.99996992279377105994e-001+j1.73427551921423797610e-003
  +9.99997035400133738037e-001+j1.72179879116322182009e-003
  +9.99997077600182193713e-001+j1.70950030051040743895e-003
  +9.99997118905548321166e-001+j1.69737625501489505786e-003
  +9.99997159341345254191e-001+j1.68542296925795753726e-003
  +9.99997198931811936973e-001+j1.67363686090800725670e-003
  +9.99997237700346874867e-001+j1.66201444714130647240e-003
  +9.99997275669546881183e-001+j1.65055234121064958730e-003
  +9.99997312861235387871e-001+j1.63924724915519640089e-003
  +9.99997349296497195503e-001+j1.62809596664447234216e-003
  +9.99997384995706561917e-001+j1.61709537595037394775e-003
  +9.99997419978557622322e-001+j1.60624244304112193116e-003
  +9.99997454264088703191e-001+j1.59553421479139215244e-003
  +9.99997487870710410895e-001+j1.58496781630335092927e-003
  +9.99997520816230167640e-001+j1.57454044833343562160e-003
  +9.99997553117874971029e-001+j1.56424938481999203921e-003
  +9.99997584792313820579e-001+j1.55409197050730696343e-003
  +9.99997615855681143415e-001+j1.54406561866157407414e-003
  +9.99997646323594335804e-001+j1.53416780887469933470e-003
  +9.99997676211176078631e-001+j1.52439608495203576810e-003
  +9.99997705533071878925e-001+j1.51474805288038388840e-003
  +9.99997734303467167294e-001+j1.50522137887258364297e-003
  +9.99997762536106837850e-001+j1.49581378748549556623e-003
  +9.99997790244309681107e-001+j1.48652305980810292563e-003
  +9.99997817440984149151e-001+j1.47734703171669562449e-003
  +9.99997844138644897960e-001+j1.46828359219432560967e-003
  +9.99997870349425888037e-001+j1.45933068171171659300e-003
  +9.99997896085094151175e-001+j1.45048629066701212365e-003
  +9.99997921357063557224e-001+j1.44174845788202707353e-003
  +9.99997946176407137564e-001+j1.43311526915238657276e-003
  +9.99997970553869852672e-001+j1.42458485584955399372e-003
  +9.99997994499879139241e-001+j1.41615539357243039320e-003
  +9.99998018024557122629e-001+j1.40782510084658599170e-003
  +9.99998041137730608874e-001+j1.39959223786908018572e-003
  +9.99998063848940965670e-001+j1.39145510529711455283e-003
  +9.99998086167456334827e-001+j1.38341204307866963430e-003
  +9.99998108102277072362e-001+j1.37546142932348791632e-003
  +9.99998129662148738106e-001+j1.36760167921272726699e-003
  +9.99998150855568757045e-001+j1.35983124394581725292e-003
  +9.99998171690794190880e-001+j1.35214860972301259556e-003
  +9.99998192175852951280e-001+j1.34455229676223864121e-003
  +9.99998212318547241573e-001+j1.33704085834885494366e-003
  +9.99998232126464214886e-001+j1.32961287991715734758e-003
  +9.99998251606981636286e-001+j1.32226697816228977445e-003
  +9.99998270767275099224e-001+j1.31500180018143467131e-003
  +9.99998289614325575059e-001+j1.30781602264317189932e-003
  +9.99998308154923298829e-001+j1.30070835098388543072e-003
  +9.99998326395676984113e-001+j1.29367751863031579806e-003
  +9.99998344343016820623e-001+j1.28672228624708562261e-003
  +9.99998362003203022930e-001+j1.27984144100846963799e-003
  +9.99998379382328050902e-001+j1.27303379589331286392e-003
  +9.99998396486324936383e-001+j1.26629818900240824486e-003
  +9.99998413320971279994e-001+j1.25963348289738832908e-003
  +9.99998429891892026689e-001+j1.25303856396038679200e-003
  +9.99998446204567459361e-001+j1.24651234177374468926e-003
  +9.99998462264336196448e-001+j1.24005374851894438482e-003
  +9.99998478076399077707e-001+j1.23366173839416747027e-003
  +9.99998493645824049203e-001+j1.22733528704979666379e-003
  +9.99998508977550604193e-001+j1.22107339104114004380e-003
  +9.99998524076392336646e-001+j1.21487506729786587378e-003
  +9.99998538947042825420e-001+j1.20873935260951831383e-003
  +9.99998553594076633466e-001+j1.20266530312648257939e-003
  +9.99998568021954747920e-001+j1.19665199387602311232e-003
</dep>
<dep S[1,2] frequency>
  +1.41176391728070390469e-002-j1.17975978220116795026e-001
  +6.32410711140815942621e-003-j7.92723960824421730598e-002
  +3.56717991235206083669e-003-j5.96192514195287293077e-002
  +2.28593070129364710555e-003-j4.77567296003666014181e-002
  +1.58856145243572869155e-003-j3.98250916502092613958e-002
  +1.16759846352102098811e-003-j3.41501856122190111664e-002
  +8.94187273247281201941e-004-j2.98895918735541769873e-002
  +7.06650955787356560046e-004-j2.65735131327052911954e-002
  +5.72464135330166628245e-004-j2.39193733225586055435e-002
  +4.73157865430508489495e-004-j2.17470454789814478247e-002
  +3.97614088919879670337e-004-j1.99362983514036092025e-002
  +3.38815365375941756308e-004-j1.84038194276113717396e-002
  +2.92155456076457033850e-004-j1.70900585506884514220e-002
  +2.54509447663905604732e-004-j1.59513219704497319351e-002
  +2.23696838461327854883e-004-j1.49548252475846053106e-002
  +1.98158662465343604316e-004-j1.40754891783500691443e-002
  +1.76756417765497651036e-004-j1.32938021248358208964e-002
  +1.58642983044728779927e-004-j1.25943564920424962844e-002
  +1.43177506823278252821e-004-j1.19648237356349516902e-002
  +1.29867948050406932514e-004-j1.13952219094890037226e-002
  +1.18331458452848887878e-004-j1.08773827789035749947e-002
  +1.08266545182219650774e-004-j1.04045578251754245597e-002
